# vsim -sv_seed 1 -voptargs="+acc" -assertdebug -c testbench -do " log -r /*;run -all;" -l uart_rxd_interrupt_full_1.log "+UVM_TESTNAME=uart_rxd_interrupt_full" "+UVM_VERBOSITY=UVM_HIGH" 
# Start time: 15:09:28 on Aug 07,2026
# Loading /tmp/khaminh_3008@ictc-eda-ldap.ipa.test_dpi_102475/linux_x86_64_gcc-11/export_tramp.so
# ** Note: (vsim-8009) Loading existing optimized design _opt
# //  Questa Sim-64
# //  Version 10.6d_1 linux_x86_64 Apr 11 2018
# //
# //  Copyright 1991-2018 Mentor Graphics Corporation
# //  All Rights Reserved.
# //
# //  QuestaSim and its associated documentation contain trade
# //  secrets and commercial or financial information that are the property of
# //  Mentor Graphics Corporation and are privileged, confidential,
# //  and exempt from disclosure under the Freedom of Information Act,
# //  5 U.S.C. Section 552. Furthermore, this information
# //  is prohibited from disclosure under the Trade Secrets Act,
# //  18 U.S.C. Section 1905.
# //
# Loading sv_std.std
# Loading work.uart_if(fast)
# Loading work.ahb_if(fast)
# Loading work.uvm_pkg(fast)
# Loading work.uart_register_pkg(fast)
# ** Note: (vsim-8785) UVM-aware debugging capabilities will be disabled since no compiled "questa_uvm_pkg" can be found.
# This also means that later if you turn on UVM-aware debugging your debug simulations may have
# different random seeds from your non-debug simulations.
# Loading work.ahb_pkg(fast)
# Loading work.uart_regmodel_pkg(fast)
# Loading work.uart_pkg(fast)
# Loading work.seq_pkg(fast)
# Loading work.env_pkg(fast)
# Loading work.test_pkg(fast)
# Loading work.testbench(fast)
# Loading work.ahb_if(fast)
# Loading work.uart_if(fast)
# Loading work.uart_top(fast)
# Loading work.cmsdk_ahb_to_apb(fast)
# Loading work.apb_decoder(fast)
# Loading work.uart_fifo(fast)
# Loading work.uart_transmitter(fast)
# Loading work.uart_receiver(fast)
# Loading work.uart_interrupt(fast)
# Loading work.baud_generator(fast)
# Compiling /tmp/khaminh_3008@ictc-eda-ldap.ipa.test_dpi_102475/linux_x86_64_gcc-5.3.0/exportwrapper.c
# Compiling /tmp/khaminh_3008@ictc-eda-ldap.ipa.test_dpi_102475/linux_x86_64_gcc-11/exportwrapper.c
# Loading /tmp/khaminh_3008@ictc-eda-ldap.ipa.test_dpi_102475/linux_x86_64_gcc-11/vsim_auto_compile.so
#  log -r /*
# run -all
# UVM_INFO /ictc/other/tools/QuestaDVA/questasim/verilog_src/uvm-1.2/src/base/uvm_root.svh(392) @ 0: reporter [UVM/RELNOTES] 
# ----------------------------------------------------------------
# UVM-1.2
# (C) 2007-2014 Mentor Graphics Corporation
# (C) 2007-2014 Cadence Design Systems, Inc.
# (C) 2006-2014 Synopsys, Inc.
# (C) 2011-2013 Cypress Semiconductor Corp.
# (C) 2013-2014 NVIDIA Corporation
# ----------------------------------------------------------------
# 
#   ***********       IMPORTANT RELEASE NOTES         ************
# 
#   You are using a version of the UVM library that has been compiled
#   with `UVM_NO_DEPRECATED undefined.
#   See http://www.eda.org/svdb/view.php?id=3313 for more details.
# 
#   You are using a version of the UVM library that has been compiled
#   with `UVM_OBJECT_DO_NOT_NEED_CONSTRUCTOR undefined.
#   See http://www.eda.org/svdb/view.php?id=3770 for more details.
# 
#       (Specify +UVM_NO_RELNOTES to turn off this notice)
# 
# UVM_INFO /ictc/other/tools/QuestaDVA/questasim/verilog_src/uvm-1.2/src/base/uvm_root.svh(453) @ 0: reporter [NO_DPI_TSTNAME] UVM_NO_DPI defined--getting UVM_TESTNAME directly, without DPI
# UVM_INFO @ 0: reporter [RNTST] Running test uart_rxd_interrupt_full...
# UVM_INFO ./../vip/ahb_vip/ahb_agent.sv(20) @ 0: uvm_test_top.env.ahb_agt [ahb_agent] Active agent is configued
# ENTER SCOREBOARD BUILD PHASE
# UVM_INFO ./../vip/uart_vip/uart_agent.sv(25) @ 0: uvm_test_top.env.uart_agt [uart_agent] Active agent is configured
# UVM_INFO /ictc/other/tools/QuestaDVA/questasim/verilog_src/uvm-1.2/src/base/uvm_root.svh(579) @ 0: reporter [UVMTOP] UVM testbench topology:
# ----------------------------------------------------------------------------
# Name                       Type                                  Size  Value
# ----------------------------------------------------------------------------
# uvm_test_top               uart_rxd_interrupt_full               -     @347 
#   env                      dut_environment                       -     @371 
#     ahb_agt                ahb_agent                             -     @392 
#       driver               ahb_driver                            -     @499 
#         rsp_port           uvm_analysis_port                     -     @518 
#         seq_item_port      uvm_seq_item_pull_port                -     @508 
#       monitor              ahb_monitor                           -     @665 
#         a_port             uvm_analysis_port                     -     @674 
#       sequencer            ahb_sequencer                         -     @528 
#         rsp_export         uvm_analysis_export                   -     @537 
#         seq_item_export    uvm_seq_item_pull_imp                 -     @655 
#         arbitration_queue  array                                 0     -    
#         lock_queue         array                                 0     -    
#         num_last_reqs      integral                              32    'd1  
#         num_last_rsps      integral                              32    'd1  
#     ahb_predictor          uvm_reg_predictor #(ahb_transaction)  -     @410 
#       bus_in               uvm_analysis_imp                      -     @419 
#       reg_ap               uvm_analysis_port                     -     @429 
#     dut_sb                 dut_scoreboard                        -     @383 
#       ahb_a_export         uvm_analysis_imp_ahb                  -     @694 
#       interrupt_a_export   uvm_analysis_imp_interrupt            -     @714 
#       uart_a_export        uvm_analysis_imp_uart                 -     @704 
#     uart_agt               uart_agent                            -     @401 
#       driver               uart_driver                           -     @730 
#         rsp_port           uvm_analysis_port                     -     @749 
#         seq_item_port      uvm_seq_item_pull_port                -     @739 
#         uart_a_port        uvm_analysis_port                     -     @759 
#       monitor              uart_monitor                          -     @769 
#         interrupt_a_port   uvm_analysis_port                     -     @788 
#         uart_a_port        uvm_analysis_port                     -     @778 
#       sequencer            uart_sequencer                        -     @798 
#         rsp_export         uvm_analysis_export                   -     @807 
#         seq_item_export    uvm_seq_item_pull_imp                 -     @925 
#         arbitration_queue  array                                 0     -    
#         lock_queue         array                                 0     -    
#         num_last_reqs      integral                              32    'd1  
#         num_last_rsps      integral                              32    'd1  
# ----------------------------------------------------------------------------
# 
# UVM_INFO /ictc/other/tools/QuestaDVA/questasim/verilog_src/uvm-1.2/src/base/uvm_traversal.svh(279) @ 0: reporter [UVM/COMP/NAMECHECK] This implementation of the component name checks requires DPI to be enabled
# ===== ENTER MONITOR =====
# UVM_INFO ./../testcases/uart_rxd_interrupt_full.sv(44) @ 0: uvm_test_top [uart_rxd_interrupt_full] --------------------------------------------------------------
# Name                Type                Size  Value           
# --------------------------------------------------------------
# cfg                 uart_configuration  -     @360            
#   parity_mode       parity_mode_e       32    UART_PARITY_NONE
#   sampling          sampling_mode_e     32    MODE_X16        
#   data_width        integral            32    'h5             
#   num_of_stop_bit   integral            32    'h1             
#   baud_rate         integral            32    'h960           
#   baud_rate_enable  integral            1     'h0             
#   parity_enable     integral            1     'h0             
#   interrupt_enable  integral            1     'h0             
# --------------------------------------------------------------
# 
# UVM_INFO ./../regmodel/uart_reg2ahb_adapter.sv(42) @ 0: reporter [uart_reg2ahb_adapter] bus2reg: address = 0x0 data = 0x0 kind = UVM_WRITE status = UVM_IS_OK
# UVM_INFO /ictc/other/tools/QuestaDVA/questasim/verilog_src/uvm-1.2/src/reg/uvm_reg_predictor.svh(221) @ 0: uvm_test_top.env.ahb_predictor [REG_PREDICT] Observed WRITE transaction to register regmodel.MDR: value='h0 : updated value = 'h0
# UVM_INFO ./../regmodel/uart_reg2ahb_adapter.sv(42) @ 0: reporter [uart_reg2ahb_adapter] bus2reg: address = 0x4 data = 0x2c kind = UVM_WRITE status = UVM_IS_OK
# UVM_INFO /ictc/other/tools/QuestaDVA/questasim/verilog_src/uvm-1.2/src/reg/uvm_reg_predictor.svh(221) @ 0: uvm_test_top.env.ahb_predictor [REG_PREDICT] Observed WRITE transaction to register regmodel.DLL: value='h2c : updated value = 'h2c
# UVM_INFO ./../regmodel/uart_reg2ahb_adapter.sv(42) @ 0: reporter [uart_reg2ahb_adapter] bus2reg: address = 0x8 data = 0xa kind = UVM_WRITE status = UVM_IS_OK
# UVM_INFO /ictc/other/tools/QuestaDVA/questasim/verilog_src/uvm-1.2/src/reg/uvm_reg_predictor.svh(221) @ 0: uvm_test_top.env.ahb_predictor [REG_PREDICT] Observed WRITE transaction to register regmodel.DLH: value='ha : updated value = 'ha
# UVM_INFO ./../regmodel/uart_reg2ahb_adapter.sv(42) @ 0: reporter [uart_reg2ahb_adapter] bus2reg: address = 0xc data = 0x20 kind = UVM_WRITE status = UVM_IS_OK
# UVM_INFO /ictc/other/tools/QuestaDVA/questasim/verilog_src/uvm-1.2/src/reg/uvm_reg_predictor.svh(221) @ 0: uvm_test_top.env.ahb_predictor [REG_PREDICT] Observed WRITE transaction to register regmodel.LCR: value='h20 : updated value = 'h20
# UVM_INFO ./../regmodel/uart_reg2ahb_adapter.sv(42) @ 1000: reporter [uart_reg2ahb_adapter] bus2reg: address = 0x10 data = 0x4 kind = UVM_WRITE status = UVM_IS_OK
# UVM_INFO /ictc/other/tools/QuestaDVA/questasim/verilog_src/uvm-1.2/src/reg/uvm_reg_predictor.svh(221) @ 1000: uvm_test_top.env.ahb_predictor [REG_PREDICT] Observed WRITE transaction to register regmodel.IER: value='h4 : updated value = 'h4
# ===== Received Data from IER =====
# ===== IER[2] || IER[1] enabled -> DEASSERTED =====
#  after rx full
# before uart write           0
# after uart write
# before uart write           1
# after uart write
# before uart write           2
# after uart write
# before uart write           3
# after uart write
# before uart write           4
# after uart write
# before uart write           5
# after uart write
# before uart write           6
# after uart write
# before uart write           7
# after uart write
# before uart write           8
# after uart write
# before uart write           9
# after uart write
# before uart write          10
# after uart write
# before uart write          11
# after uart write
# before uart write          12
# after uart write
# before uart write          13
# after uart write
# before uart write          14
# after uart write
# before uart write          15
# after uart write
# before read
# UVM_INFO ./../regmodel/uart_reg2ahb_adapter.sv(42) @ 93297000: reporter [uart_reg2ahb_adapter] bus2reg: address = 0x14 data = 0x2 kind = UVM_READ status = UVM_IS_OK
# UVM_INFO /ictc/other/tools/QuestaDVA/questasim/verilog_src/uvm-1.2/src/reg/uvm_reg_predictor.svh(225) @ 93297000: uvm_test_top.env.ahb_predictor [REG_PREDICT] Observed READ transaction to register regmodel.FSR: value='h2
# UVM_INFO ./../regmodel/uart_reg2ahb_adapter.sv(42) @ 93307000: reporter [uart_reg2ahb_adapter] bus2reg: address = 0x14 data = 0x2 kind = UVM_READ status = UVM_IS_OK
# UVM_INFO /ictc/other/tools/QuestaDVA/questasim/verilog_src/uvm-1.2/src/reg/uvm_reg_predictor.svh(225) @ 93307000: uvm_test_top.env.ahb_predictor [REG_PREDICT] Observed READ transaction to register regmodel.FSR: value='h2
# UVM_INFO ./../regmodel/uart_reg2ahb_adapter.sv(42) @ 93317000: reporter [uart_reg2ahb_adapter] bus2reg: address = 0x14 data = 0x2 kind = UVM_READ status = UVM_IS_OK
# UVM_INFO /ictc/other/tools/QuestaDVA/questasim/verilog_src/uvm-1.2/src/reg/uvm_reg_predictor.svh(225) @ 93317000: uvm_test_top.env.ahb_predictor [REG_PREDICT] Observed READ transaction to register regmodel.FSR: value='h2
# UVM_INFO ./../regmodel/uart_reg2ahb_adapter.sv(42) @ 93327000: reporter [uart_reg2ahb_adapter] bus2reg: address = 0x14 data = 0x2 kind = UVM_READ status = UVM_IS_OK
# UVM_INFO /ictc/other/tools/QuestaDVA/questasim/verilog_src/uvm-1.2/src/reg/uvm_reg_predictor.svh(225) @ 93327000: uvm_test_top.env.ahb_predictor [REG_PREDICT] Observed READ transaction to register regmodel.FSR: value='h2
# ===== POSITIVE INTERRUPT DETECTED =====
# UVM_INFO ./../tb/dut_scoreboard.sv(165) @ 93328000: uvm_test_top.env.dut_sb [dut_scoreboard] Interurpt = 1, state = INT_FULL_DEASSERT
# UVM_ERROR ./../tb/dut_scoreboard.sv(194) @ 93328000: uvm_test_top.env.dut_sb [dut_scoreboard] ===== Interrupt should be deasserted =====
# UVM_INFO ./../regmodel/uart_reg2ahb_adapter.sv(42) @ 93337000: reporter [uart_reg2ahb_adapter] bus2reg: address = 0x14 data = 0x6 kind = UVM_READ status = UVM_IS_OK
# UVM_INFO /ictc/other/tools/QuestaDVA/questasim/verilog_src/uvm-1.2/src/reg/uvm_reg_predictor.svh(225) @ 93337000: uvm_test_top.env.ahb_predictor [REG_PREDICT] Observed READ transaction to register regmodel.FSR: value='h6
# after read
# ===== NEGEDGE INTERRUPT DETECTED =====
# UVM_INFO ./../tb/dut_scoreboard.sv(165) @ 103347000: uvm_test_top.env.dut_sb [dut_scoreboard] Interurpt = 0, state = INT_FULL_DEASSERT
# UVM_INFO ./../tb/dut_scoreboard.sv(190) @ 103347000: uvm_test_top.env.dut_sb [dut_scoreboard] ===== Interrupt is deasserted =====
# UVM_INFO ./../testcases/uart_rxd_interrupt_full.sv(44) @ 103347000: uvm_test_top [uart_rxd_interrupt_full] --------------------------------------------------------------
# Name                Type                Size  Value           
# --------------------------------------------------------------
# cfg                 uart_configuration  -     @360            
#   parity_mode       parity_mode_e       32    UART_PARITY_NONE
#   sampling          sampling_mode_e     32    MODE_X13        
#   data_width        integral            32    'h5             
#   num_of_stop_bit   integral            32    'h1             
#   baud_rate         integral            32    'h960           
#   baud_rate_enable  integral            1     'h0             
#   parity_enable     integral            1     'h0             
#   interrupt_enable  integral            1     'h0             
# --------------------------------------------------------------
# 
# UVM_INFO ./../regmodel/uart_reg2ahb_adapter.sv(42) @ 103347000: reporter [uart_reg2ahb_adapter] bus2reg: address = 0x0 data = 0x1 kind = UVM_WRITE status = UVM_IS_OK
# UVM_INFO /ictc/other/tools/QuestaDVA/questasim/verilog_src/uvm-1.2/src/reg/uvm_reg_predictor.svh(221) @ 103347000: uvm_test_top.env.ahb_predictor [REG_PREDICT] Observed WRITE transaction to register regmodel.MDR: value='h1 : updated value = 'h1
# UVM_INFO ./../regmodel/uart_reg2ahb_adapter.sv(42) @ 103347000: reporter [uart_reg2ahb_adapter] bus2reg: address = 0x4 data = 0x85 kind = UVM_WRITE status = UVM_IS_OK
# UVM_INFO /ictc/other/tools/QuestaDVA/questasim/verilog_src/uvm-1.2/src/reg/uvm_reg_predictor.svh(221) @ 103347000: uvm_test_top.env.ahb_predictor [REG_PREDICT] Observed WRITE transaction to register regmodel.DLL: value='h85 : updated value = 'h85
# UVM_INFO ./../regmodel/uart_reg2ahb_adapter.sv(42) @ 103347000: reporter [uart_reg2ahb_adapter] bus2reg: address = 0x8 data = 0xc kind = UVM_WRITE status = UVM_IS_OK
# UVM_INFO /ictc/other/tools/QuestaDVA/questasim/verilog_src/uvm-1.2/src/reg/uvm_reg_predictor.svh(221) @ 103347000: uvm_test_top.env.ahb_predictor [REG_PREDICT] Observed WRITE transaction to register regmodel.DLH: value='hc : updated value = 'hc
# UVM_INFO ./../regmodel/uart_reg2ahb_adapter.sv(42) @ 103347000: reporter [uart_reg2ahb_adapter] bus2reg: address = 0xc data = 0x20 kind = UVM_WRITE status = UVM_IS_OK
# UVM_INFO /ictc/other/tools/QuestaDVA/questasim/verilog_src/uvm-1.2/src/reg/uvm_reg_predictor.svh(221) @ 103347000: uvm_test_top.env.ahb_predictor [REG_PREDICT] Observed WRITE transaction to register regmodel.LCR: value='h20 : updated value = 'h20
# UVM_INFO ./../regmodel/uart_reg2ahb_adapter.sv(42) @ 103347000: reporter [uart_reg2ahb_adapter] bus2reg: address = 0x10 data = 0x4 kind = UVM_WRITE status = UVM_IS_OK
# UVM_INFO /ictc/other/tools/QuestaDVA/questasim/verilog_src/uvm-1.2/src/reg/uvm_reg_predictor.svh(221) @ 103347000: uvm_test_top.env.ahb_predictor [REG_PREDICT] Observed WRITE transaction to register regmodel.IER: value='h4 : updated value = 'h4
# ===== Received Data from IER =====
# ===== IER[2] || IER[1] enabled -> DEASSERTED =====
#  after rx full
# before uart write           0
# after uart write
# before uart write           1
# after uart write
# before uart write           2
# after uart write
# before uart write           3
# after uart write
# before uart write           4
# after uart write
# before uart write           5
# after uart write
# before uart write           6
# after uart write
# before uart write           7
# after uart write
# before uart write           8
# after uart write
# before uart write           9
# after uart write
# before uart write          10
# after uart write
# before uart write          11
# after uart write
# before uart write          12
# after uart write
# before uart write          13
# after uart write
# before uart write          14
# after uart write
# before uart write          15
# after uart write
# before read
# UVM_INFO ./../regmodel/uart_reg2ahb_adapter.sv(42) @ 196644000: reporter [uart_reg2ahb_adapter] bus2reg: address = 0x14 data = 0x2 kind = UVM_READ status = UVM_IS_OK
# UVM_INFO /ictc/other/tools/QuestaDVA/questasim/verilog_src/uvm-1.2/src/reg/uvm_reg_predictor.svh(225) @ 196644000: uvm_test_top.env.ahb_predictor [REG_PREDICT] Observed READ transaction to register regmodel.FSR: value='h2
# UVM_INFO ./../regmodel/uart_reg2ahb_adapter.sv(42) @ 196654000: reporter [uart_reg2ahb_adapter] bus2reg: address = 0x14 data = 0x2 kind = UVM_READ status = UVM_IS_OK
# UVM_INFO /ictc/other/tools/QuestaDVA/questasim/verilog_src/uvm-1.2/src/reg/uvm_reg_predictor.svh(225) @ 196654000: uvm_test_top.env.ahb_predictor [REG_PREDICT] Observed READ transaction to register regmodel.FSR: value='h2
# UVM_INFO ./../regmodel/uart_reg2ahb_adapter.sv(42) @ 196664000: reporter [uart_reg2ahb_adapter] bus2reg: address = 0x14 data = 0x2 kind = UVM_READ status = UVM_IS_OK
# UVM_INFO /ictc/other/tools/QuestaDVA/questasim/verilog_src/uvm-1.2/src/reg/uvm_reg_predictor.svh(225) @ 196664000: uvm_test_top.env.ahb_predictor [REG_PREDICT] Observed READ transaction to register regmodel.FSR: value='h2
# UVM_INFO ./../regmodel/uart_reg2ahb_adapter.sv(42) @ 196674000: reporter [uart_reg2ahb_adapter] bus2reg: address = 0x14 data = 0x2 kind = UVM_READ status = UVM_IS_OK
# UVM_INFO /ictc/other/tools/QuestaDVA/questasim/verilog_src/uvm-1.2/src/reg/uvm_reg_predictor.svh(225) @ 196674000: uvm_test_top.env.ahb_predictor [REG_PREDICT] Observed READ transaction to register regmodel.FSR: value='h2
# ===== POSITIVE INTERRUPT DETECTED =====
# UVM_INFO ./../tb/dut_scoreboard.sv(165) @ 196677000: uvm_test_top.env.dut_sb [dut_scoreboard] Interurpt = 1, state = INT_FULL_DEASSERT
# UVM_ERROR ./../tb/dut_scoreboard.sv(194) @ 196677000: uvm_test_top.env.dut_sb [dut_scoreboard] ===== Interrupt should be deasserted =====
# UVM_INFO ./../regmodel/uart_reg2ahb_adapter.sv(42) @ 196684000: reporter [uart_reg2ahb_adapter] bus2reg: address = 0x14 data = 0x6 kind = UVM_READ status = UVM_IS_OK
# UVM_INFO /ictc/other/tools/QuestaDVA/questasim/verilog_src/uvm-1.2/src/reg/uvm_reg_predictor.svh(225) @ 196684000: uvm_test_top.env.ahb_predictor [REG_PREDICT] Observed READ transaction to register regmodel.FSR: value='h6
# after read
# ===== NEGEDGE INTERRUPT DETECTED =====
# UVM_INFO ./../tb/dut_scoreboard.sv(165) @ 206694000: uvm_test_top.env.dut_sb [dut_scoreboard] Interurpt = 0, state = INT_FULL_DEASSERT
# UVM_INFO ./../tb/dut_scoreboard.sv(190) @ 206694000: uvm_test_top.env.dut_sb [dut_scoreboard] ===== Interrupt is deasserted =====
# UVM_INFO ./../testcases/uart_rxd_interrupt_full.sv(44) @ 206694000: uvm_test_top [uart_rxd_interrupt_full] --------------------------------------------------------------
# Name                Type                Size  Value           
# --------------------------------------------------------------
# cfg                 uart_configuration  -     @360            
#   parity_mode       parity_mode_e       32    UART_PARITY_NONE
#   sampling          sampling_mode_e     32    MODE_X16        
#   data_width        integral            32    'h5             
#   num_of_stop_bit   integral            32    'h1             
#   baud_rate         integral            32    'h12c0          
#   baud_rate_enable  integral            1     'h0             
#   parity_enable     integral            1     'h0             
#   interrupt_enable  integral            1     'h0             
# --------------------------------------------------------------
# 
# UVM_INFO ./../regmodel/uart_reg2ahb_adapter.sv(42) @ 206694000: reporter [uart_reg2ahb_adapter] bus2reg: address = 0x0 data = 0x0 kind = UVM_WRITE status = UVM_IS_OK
# UVM_INFO /ictc/other/tools/QuestaDVA/questasim/verilog_src/uvm-1.2/src/reg/uvm_reg_predictor.svh(221) @ 206694000: uvm_test_top.env.ahb_predictor [REG_PREDICT] Observed WRITE transaction to register regmodel.MDR: value='h0 : updated value = 'h0
# UVM_INFO ./../regmodel/uart_reg2ahb_adapter.sv(42) @ 206694000: reporter [uart_reg2ahb_adapter] bus2reg: address = 0x4 data = 0x16 kind = UVM_WRITE status = UVM_IS_OK
# UVM_INFO /ictc/other/tools/QuestaDVA/questasim/verilog_src/uvm-1.2/src/reg/uvm_reg_predictor.svh(221) @ 206694000: uvm_test_top.env.ahb_predictor [REG_PREDICT] Observed WRITE transaction to register regmodel.DLL: value='h16 : updated value = 'h16
# UVM_INFO ./../regmodel/uart_reg2ahb_adapter.sv(42) @ 206694000: reporter [uart_reg2ahb_adapter] bus2reg: address = 0x8 data = 0x5 kind = UVM_WRITE status = UVM_IS_OK
# UVM_INFO /ictc/other/tools/QuestaDVA/questasim/verilog_src/uvm-1.2/src/reg/uvm_reg_predictor.svh(221) @ 206694000: uvm_test_top.env.ahb_predictor [REG_PREDICT] Observed WRITE transaction to register regmodel.DLH: value='h5 : updated value = 'h5
# UVM_INFO ./../regmodel/uart_reg2ahb_adapter.sv(42) @ 206694000: reporter [uart_reg2ahb_adapter] bus2reg: address = 0xc data = 0x20 kind = UVM_WRITE status = UVM_IS_OK
# UVM_INFO /ictc/other/tools/QuestaDVA/questasim/verilog_src/uvm-1.2/src/reg/uvm_reg_predictor.svh(221) @ 206694000: uvm_test_top.env.ahb_predictor [REG_PREDICT] Observed WRITE transaction to register regmodel.LCR: value='h20 : updated value = 'h20
# UVM_INFO ./../regmodel/uart_reg2ahb_adapter.sv(42) @ 206694000: reporter [uart_reg2ahb_adapter] bus2reg: address = 0x10 data = 0x4 kind = UVM_WRITE status = UVM_IS_OK
# UVM_INFO /ictc/other/tools/QuestaDVA/questasim/verilog_src/uvm-1.2/src/reg/uvm_reg_predictor.svh(221) @ 206694000: uvm_test_top.env.ahb_predictor [REG_PREDICT] Observed WRITE transaction to register regmodel.IER: value='h4 : updated value = 'h4
# ===== Received Data from IER =====
# ===== IER[2] || IER[1] enabled -> DEASSERTED =====
#  after rx full
# before uart write           0
# after uart write
# before uart write           1
# after uart write
# before uart write           2
# after uart write
# before uart write           3
# after uart write
# before uart write           4
# after uart write
# before uart write           5
# after uart write
# before uart write           6
# after uart write
# before uart write           7
# after uart write
# before uart write           8
# after uart write
# before uart write           9
# after uart write
# before uart write          10
# after uart write
# before uart write          11
# after uart write
# before uart write          12
# after uart write
# before uart write          13
# after uart write
# before uart write          14
# after uart write
# before uart write          15
# ===== POSITIVE INTERRUPT DETECTED =====
# UVM_INFO ./../tb/dut_scoreboard.sv(165) @ 253384000: uvm_test_top.env.dut_sb [dut_scoreboard] Interurpt = 1, state = INT_FULL_DEASSERT
# UVM_ERROR ./../tb/dut_scoreboard.sv(194) @ 253384000: uvm_test_top.env.dut_sb [dut_scoreboard] ===== Interrupt should be deasserted =====
# after uart write
# before read
# UVM_INFO ./../regmodel/uart_reg2ahb_adapter.sv(42) @ 253399000: reporter [uart_reg2ahb_adapter] bus2reg: address = 0x14 data = 0x6 kind = UVM_READ status = UVM_IS_OK
# UVM_INFO /ictc/other/tools/QuestaDVA/questasim/verilog_src/uvm-1.2/src/reg/uvm_reg_predictor.svh(225) @ 253399000: uvm_test_top.env.ahb_predictor [REG_PREDICT] Observed READ transaction to register regmodel.FSR: value='h6
# after read
# ===== NEGEDGE INTERRUPT DETECTED =====
# UVM_INFO ./../tb/dut_scoreboard.sv(165) @ 263409000: uvm_test_top.env.dut_sb [dut_scoreboard] Interurpt = 0, state = INT_FULL_DEASSERT
# UVM_INFO ./../tb/dut_scoreboard.sv(190) @ 263409000: uvm_test_top.env.dut_sb [dut_scoreboard] ===== Interrupt is deasserted =====
# UVM_INFO ./../testcases/uart_rxd_interrupt_full.sv(44) @ 263409000: uvm_test_top [uart_rxd_interrupt_full] --------------------------------------------------------------
# Name                Type                Size  Value           
# --------------------------------------------------------------
# cfg                 uart_configuration  -     @360            
#   parity_mode       parity_mode_e       32    UART_PARITY_NONE
#   sampling          sampling_mode_e     32    MODE_X13        
#   data_width        integral            32    'h5             
#   num_of_stop_bit   integral            32    'h1             
#   baud_rate         integral            32    'h12c0          
#   baud_rate_enable  integral            1     'h0             
#   parity_enable     integral            1     'h0             
#   interrupt_enable  integral            1     'h0             
# --------------------------------------------------------------
# 
# UVM_INFO ./../regmodel/uart_reg2ahb_adapter.sv(42) @ 263409000: reporter [uart_reg2ahb_adapter] bus2reg: address = 0x0 data = 0x1 kind = UVM_WRITE status = UVM_IS_OK
# UVM_INFO /ictc/other/tools/QuestaDVA/questasim/verilog_src/uvm-1.2/src/reg/uvm_reg_predictor.svh(221) @ 263409000: uvm_test_top.env.ahb_predictor [REG_PREDICT] Observed WRITE transaction to register regmodel.MDR: value='h1 : updated value = 'h1
# UVM_INFO ./../regmodel/uart_reg2ahb_adapter.sv(42) @ 263409000: reporter [uart_reg2ahb_adapter] bus2reg: address = 0x4 data = 0x42 kind = UVM_WRITE status = UVM_IS_OK
# UVM_INFO /ictc/other/tools/QuestaDVA/questasim/verilog_src/uvm-1.2/src/reg/uvm_reg_predictor.svh(221) @ 263409000: uvm_test_top.env.ahb_predictor [REG_PREDICT] Observed WRITE transaction to register regmodel.DLL: value='h42 : updated value = 'h42
# UVM_INFO ./../regmodel/uart_reg2ahb_adapter.sv(42) @ 263409000: reporter [uart_reg2ahb_adapter] bus2reg: address = 0x8 data = 0x6 kind = UVM_WRITE status = UVM_IS_OK
# UVM_INFO /ictc/other/tools/QuestaDVA/questasim/verilog_src/uvm-1.2/src/reg/uvm_reg_predictor.svh(221) @ 263409000: uvm_test_top.env.ahb_predictor [REG_PREDICT] Observed WRITE transaction to register regmodel.DLH: value='h6 : updated value = 'h6
# UVM_INFO ./../regmodel/uart_reg2ahb_adapter.sv(42) @ 263409000: reporter [uart_reg2ahb_adapter] bus2reg: address = 0xc data = 0x20 kind = UVM_WRITE status = UVM_IS_OK
# UVM_INFO /ictc/other/tools/QuestaDVA/questasim/verilog_src/uvm-1.2/src/reg/uvm_reg_predictor.svh(221) @ 263409000: uvm_test_top.env.ahb_predictor [REG_PREDICT] Observed WRITE transaction to register regmodel.LCR: value='h20 : updated value = 'h20
# UVM_INFO ./../regmodel/uart_reg2ahb_adapter.sv(42) @ 263409000: reporter [uart_reg2ahb_adapter] bus2reg: address = 0x10 data = 0x4 kind = UVM_WRITE status = UVM_IS_OK
# UVM_INFO /ictc/other/tools/QuestaDVA/questasim/verilog_src/uvm-1.2/src/reg/uvm_reg_predictor.svh(221) @ 263409000: uvm_test_top.env.ahb_predictor [REG_PREDICT] Observed WRITE transaction to register regmodel.IER: value='h4 : updated value = 'h4
# ===== Received Data from IER =====
# ===== IER[2] || IER[1] enabled -> DEASSERTED =====
#  after rx full
# before uart write           0
# after uart write
# before uart write           1
# after uart write
# before uart write           2
# after uart write
# before uart write           3
# after uart write
# before uart write           4
# after uart write
# before uart write           5
# after uart write
# before uart write           6
# after uart write
# before uart write           7
# after uart write
# before uart write           8
# after uart write
# before uart write           9
# after uart write
# before uart write          10
# after uart write
# before uart write          11
# after uart write
# before uart write          12
# after uart write
# before uart write          13
# after uart write
# before uart write          14
# after uart write
# before uart write          15
# ===== POSITIVE INTERRUPT DETECTED =====
# UVM_INFO ./../tb/dut_scoreboard.sv(165) @ 310091000: uvm_test_top.env.dut_sb [dut_scoreboard] Interurpt = 1, state = INT_FULL_DEASSERT
# UVM_ERROR ./../tb/dut_scoreboard.sv(194) @ 310091000: uvm_test_top.env.dut_sb [dut_scoreboard] ===== Interrupt should be deasserted =====
# after uart write
# before read
# UVM_INFO ./../regmodel/uart_reg2ahb_adapter.sv(42) @ 310113000: reporter [uart_reg2ahb_adapter] bus2reg: address = 0x14 data = 0x6 kind = UVM_READ status = UVM_IS_OK
# UVM_INFO /ictc/other/tools/QuestaDVA/questasim/verilog_src/uvm-1.2/src/reg/uvm_reg_predictor.svh(225) @ 310113000: uvm_test_top.env.ahb_predictor [REG_PREDICT] Observed READ transaction to register regmodel.FSR: value='h6
# after read
# ===== NEGEDGE INTERRUPT DETECTED =====
# UVM_INFO ./../tb/dut_scoreboard.sv(165) @ 320123000: uvm_test_top.env.dut_sb [dut_scoreboard] Interurpt = 0, state = INT_FULL_DEASSERT
# UVM_INFO ./../tb/dut_scoreboard.sv(190) @ 320123000: uvm_test_top.env.dut_sb [dut_scoreboard] ===== Interrupt is deasserted =====
# UVM_INFO ./../testcases/uart_rxd_interrupt_full.sv(44) @ 320123000: uvm_test_top [uart_rxd_interrupt_full] --------------------------------------------------------------
# Name                Type                Size  Value           
# --------------------------------------------------------------
# cfg                 uart_configuration  -     @360            
#   parity_mode       parity_mode_e       32    UART_PARITY_NONE
#   sampling          sampling_mode_e     32    MODE_X16        
#   data_width        integral            32    'h5             
#   num_of_stop_bit   integral            32    'h1             
#   baud_rate         integral            32    'h2580          
#   baud_rate_enable  integral            1     'h0             
#   parity_enable     integral            1     'h0             
#   interrupt_enable  integral            1     'h0             
# --------------------------------------------------------------
# 
# UVM_INFO ./../regmodel/uart_reg2ahb_adapter.sv(42) @ 320123000: reporter [uart_reg2ahb_adapter] bus2reg: address = 0x0 data = 0x0 kind = UVM_WRITE status = UVM_IS_OK
# UVM_INFO /ictc/other/tools/QuestaDVA/questasim/verilog_src/uvm-1.2/src/reg/uvm_reg_predictor.svh(221) @ 320123000: uvm_test_top.env.ahb_predictor [REG_PREDICT] Observed WRITE transaction to register regmodel.MDR: value='h0 : updated value = 'h0
# UVM_INFO ./../regmodel/uart_reg2ahb_adapter.sv(42) @ 320123000: reporter [uart_reg2ahb_adapter] bus2reg: address = 0x4 data = 0x8b kind = UVM_WRITE status = UVM_IS_OK
# UVM_INFO /ictc/other/tools/QuestaDVA/questasim/verilog_src/uvm-1.2/src/reg/uvm_reg_predictor.svh(221) @ 320123000: uvm_test_top.env.ahb_predictor [REG_PREDICT] Observed WRITE transaction to register regmodel.DLL: value='h8b : updated value = 'h8b
# UVM_INFO ./../regmodel/uart_reg2ahb_adapter.sv(42) @ 320124000: reporter [uart_reg2ahb_adapter] bus2reg: address = 0x8 data = 0x2 kind = UVM_WRITE status = UVM_IS_OK
# UVM_INFO /ictc/other/tools/QuestaDVA/questasim/verilog_src/uvm-1.2/src/reg/uvm_reg_predictor.svh(221) @ 320124000: uvm_test_top.env.ahb_predictor [REG_PREDICT] Observed WRITE transaction to register regmodel.DLH: value='h2 : updated value = 'h2
# UVM_INFO ./../regmodel/uart_reg2ahb_adapter.sv(42) @ 320124000: reporter [uart_reg2ahb_adapter] bus2reg: address = 0xc data = 0x20 kind = UVM_WRITE status = UVM_IS_OK
# UVM_INFO /ictc/other/tools/QuestaDVA/questasim/verilog_src/uvm-1.2/src/reg/uvm_reg_predictor.svh(221) @ 320124000: uvm_test_top.env.ahb_predictor [REG_PREDICT] Observed WRITE transaction to register regmodel.LCR: value='h20 : updated value = 'h20
# UVM_INFO ./../regmodel/uart_reg2ahb_adapter.sv(42) @ 320124000: reporter [uart_reg2ahb_adapter] bus2reg: address = 0x10 data = 0x4 kind = UVM_WRITE status = UVM_IS_OK
# UVM_INFO /ictc/other/tools/QuestaDVA/questasim/verilog_src/uvm-1.2/src/reg/uvm_reg_predictor.svh(221) @ 320124000: uvm_test_top.env.ahb_predictor [REG_PREDICT] Observed WRITE transaction to register regmodel.IER: value='h4 : updated value = 'h4
# ===== Received Data from IER =====
# ===== IER[2] || IER[1] enabled -> DEASSERTED =====
#  after rx full
# before uart write           0
# after uart write
# before uart write           1
# after uart write
# before uart write           2
# after uart write
# before uart write           3
# after uart write
# before uart write           4
# after uart write
# before uart write           5
# after uart write
# before uart write           6
# after uart write
# before uart write           7
# after uart write
# before uart write           8
# after uart write
# before uart write           9
# after uart write
# before uart write          10
# after uart write
# before uart write          11
# after uart write
# before uart write          12
# after uart write
# before uart write          13
# after uart write
# before uart write          14
# after uart write
# before uart write          15
# after uart write
# before read
# UVM_INFO ./../regmodel/uart_reg2ahb_adapter.sv(42) @ 343420000: reporter [uart_reg2ahb_adapter] bus2reg: address = 0x14 data = 0x2 kind = UVM_READ status = UVM_IS_OK
# UVM_INFO /ictc/other/tools/QuestaDVA/questasim/verilog_src/uvm-1.2/src/reg/uvm_reg_predictor.svh(225) @ 343420000: uvm_test_top.env.ahb_predictor [REG_PREDICT] Observed READ transaction to register regmodel.FSR: value='h2
# UVM_INFO ./../regmodel/uart_reg2ahb_adapter.sv(42) @ 343430000: reporter [uart_reg2ahb_adapter] bus2reg: address = 0x14 data = 0x2 kind = UVM_READ status = UVM_IS_OK
# UVM_INFO /ictc/other/tools/QuestaDVA/questasim/verilog_src/uvm-1.2/src/reg/uvm_reg_predictor.svh(225) @ 343430000: uvm_test_top.env.ahb_predictor [REG_PREDICT] Observed READ transaction to register regmodel.FSR: value='h2
# UVM_INFO ./../regmodel/uart_reg2ahb_adapter.sv(42) @ 343440000: reporter [uart_reg2ahb_adapter] bus2reg: address = 0x14 data = 0x2 kind = UVM_READ status = UVM_IS_OK
# UVM_INFO /ictc/other/tools/QuestaDVA/questasim/verilog_src/uvm-1.2/src/reg/uvm_reg_predictor.svh(225) @ 343440000: uvm_test_top.env.ahb_predictor [REG_PREDICT] Observed READ transaction to register regmodel.FSR: value='h2
# UVM_INFO ./../regmodel/uart_reg2ahb_adapter.sv(42) @ 343450000: reporter [uart_reg2ahb_adapter] bus2reg: address = 0x14 data = 0x2 kind = UVM_READ status = UVM_IS_OK
# UVM_INFO /ictc/other/tools/QuestaDVA/questasim/verilog_src/uvm-1.2/src/reg/uvm_reg_predictor.svh(225) @ 343450000: uvm_test_top.env.ahb_predictor [REG_PREDICT] Observed READ transaction to register regmodel.FSR: value='h2
# ===== POSITIVE INTERRUPT DETECTED =====
# UVM_INFO ./../tb/dut_scoreboard.sv(165) @ 343456000: uvm_test_top.env.dut_sb [dut_scoreboard] Interurpt = 1, state = INT_FULL_DEASSERT
# UVM_ERROR ./../tb/dut_scoreboard.sv(194) @ 343456000: uvm_test_top.env.dut_sb [dut_scoreboard] ===== Interrupt should be deasserted =====
# UVM_INFO ./../regmodel/uart_reg2ahb_adapter.sv(42) @ 343460000: reporter [uart_reg2ahb_adapter] bus2reg: address = 0x14 data = 0x6 kind = UVM_READ status = UVM_IS_OK
# UVM_INFO /ictc/other/tools/QuestaDVA/questasim/verilog_src/uvm-1.2/src/reg/uvm_reg_predictor.svh(225) @ 343460000: uvm_test_top.env.ahb_predictor [REG_PREDICT] Observed READ transaction to register regmodel.FSR: value='h6
# after read
# ===== NEGEDGE INTERRUPT DETECTED =====
# UVM_INFO ./../tb/dut_scoreboard.sv(165) @ 353470000: uvm_test_top.env.dut_sb [dut_scoreboard] Interurpt = 0, state = INT_FULL_DEASSERT
# UVM_INFO ./../tb/dut_scoreboard.sv(190) @ 353470000: uvm_test_top.env.dut_sb [dut_scoreboard] ===== Interrupt is deasserted =====
# UVM_INFO ./../testcases/uart_rxd_interrupt_full.sv(44) @ 353470000: uvm_test_top [uart_rxd_interrupt_full] --------------------------------------------------------------
# Name                Type                Size  Value           
# --------------------------------------------------------------
# cfg                 uart_configuration  -     @360            
#   parity_mode       parity_mode_e       32    UART_PARITY_NONE
#   sampling          sampling_mode_e     32    MODE_X13        
#   data_width        integral            32    'h5             
#   num_of_stop_bit   integral            32    'h1             
#   baud_rate         integral            32    'h2580          
#   baud_rate_enable  integral            1     'h0             
#   parity_enable     integral            1     'h0             
#   interrupt_enable  integral            1     'h0             
# --------------------------------------------------------------
# 
# UVM_INFO ./../regmodel/uart_reg2ahb_adapter.sv(42) @ 353470000: reporter [uart_reg2ahb_adapter] bus2reg: address = 0x0 data = 0x1 kind = UVM_WRITE status = UVM_IS_OK
# UVM_INFO /ictc/other/tools/QuestaDVA/questasim/verilog_src/uvm-1.2/src/reg/uvm_reg_predictor.svh(221) @ 353470000: uvm_test_top.env.ahb_predictor [REG_PREDICT] Observed WRITE transaction to register regmodel.MDR: value='h1 : updated value = 'h1
# UVM_INFO ./../regmodel/uart_reg2ahb_adapter.sv(42) @ 353470000: reporter [uart_reg2ahb_adapter] bus2reg: address = 0x4 data = 0x21 kind = UVM_WRITE status = UVM_IS_OK
# UVM_INFO /ictc/other/tools/QuestaDVA/questasim/verilog_src/uvm-1.2/src/reg/uvm_reg_predictor.svh(221) @ 353470000: uvm_test_top.env.ahb_predictor [REG_PREDICT] Observed WRITE transaction to register regmodel.DLL: value='h21 : updated value = 'h21
# UVM_INFO ./../regmodel/uart_reg2ahb_adapter.sv(42) @ 353471000: reporter [uart_reg2ahb_adapter] bus2reg: address = 0x8 data = 0x3 kind = UVM_WRITE status = UVM_IS_OK
# UVM_INFO /ictc/other/tools/QuestaDVA/questasim/verilog_src/uvm-1.2/src/reg/uvm_reg_predictor.svh(221) @ 353471000: uvm_test_top.env.ahb_predictor [REG_PREDICT] Observed WRITE transaction to register regmodel.DLH: value='h3 : updated value = 'h3
# UVM_INFO ./../regmodel/uart_reg2ahb_adapter.sv(42) @ 353471000: reporter [uart_reg2ahb_adapter] bus2reg: address = 0xc data = 0x20 kind = UVM_WRITE status = UVM_IS_OK
# UVM_INFO /ictc/other/tools/QuestaDVA/questasim/verilog_src/uvm-1.2/src/reg/uvm_reg_predictor.svh(221) @ 353471000: uvm_test_top.env.ahb_predictor [REG_PREDICT] Observed WRITE transaction to register regmodel.LCR: value='h20 : updated value = 'h20
# UVM_INFO ./../regmodel/uart_reg2ahb_adapter.sv(42) @ 353471000: reporter [uart_reg2ahb_adapter] bus2reg: address = 0x10 data = 0x4 kind = UVM_WRITE status = UVM_IS_OK
# UVM_INFO /ictc/other/tools/QuestaDVA/questasim/verilog_src/uvm-1.2/src/reg/uvm_reg_predictor.svh(221) @ 353471000: uvm_test_top.env.ahb_predictor [REG_PREDICT] Observed WRITE transaction to register regmodel.IER: value='h4 : updated value = 'h4
# ===== Received Data from IER =====
# ===== IER[2] || IER[1] enabled -> DEASSERTED =====
#  after rx full
# before uart write           0
# after uart write
# before uart write           1
# after uart write
# before uart write           2
# after uart write
# before uart write           3
# after uart write
# before uart write           4
# after uart write
# before uart write           5
# after uart write
# before uart write           6
# after uart write
# before uart write           7
# after uart write
# before uart write           8
# after uart write
# before uart write           9
# after uart write
# before uart write          10
# after uart write
# before uart write          11
# after uart write
# before uart write          12
# after uart write
# before uart write          13
# after uart write
# before uart write          14
# after uart write
# before uart write          15
# after uart write
# before read
# UVM_INFO ./../regmodel/uart_reg2ahb_adapter.sv(42) @ 376767000: reporter [uart_reg2ahb_adapter] bus2reg: address = 0x14 data = 0x2 kind = UVM_READ status = UVM_IS_OK
# UVM_INFO /ictc/other/tools/QuestaDVA/questasim/verilog_src/uvm-1.2/src/reg/uvm_reg_predictor.svh(225) @ 376767000: uvm_test_top.env.ahb_predictor [REG_PREDICT] Observed READ transaction to register regmodel.FSR: value='h2
# UVM_INFO ./../regmodel/uart_reg2ahb_adapter.sv(42) @ 376777000: reporter [uart_reg2ahb_adapter] bus2reg: address = 0x14 data = 0x2 kind = UVM_READ status = UVM_IS_OK
# UVM_INFO /ictc/other/tools/QuestaDVA/questasim/verilog_src/uvm-1.2/src/reg/uvm_reg_predictor.svh(225) @ 376777000: uvm_test_top.env.ahb_predictor [REG_PREDICT] Observed READ transaction to register regmodel.FSR: value='h2
# UVM_INFO ./../regmodel/uart_reg2ahb_adapter.sv(42) @ 376787000: reporter [uart_reg2ahb_adapter] bus2reg: address = 0x14 data = 0x2 kind = UVM_READ status = UVM_IS_OK
# UVM_INFO /ictc/other/tools/QuestaDVA/questasim/verilog_src/uvm-1.2/src/reg/uvm_reg_predictor.svh(225) @ 376787000: uvm_test_top.env.ahb_predictor [REG_PREDICT] Observed READ transaction to register regmodel.FSR: value='h2
# ===== POSITIVE INTERRUPT DETECTED =====
# UVM_INFO ./../tb/dut_scoreboard.sv(165) @ 376796000: uvm_test_top.env.dut_sb [dut_scoreboard] Interurpt = 1, state = INT_FULL_DEASSERT
# UVM_ERROR ./../tb/dut_scoreboard.sv(194) @ 376796000: uvm_test_top.env.dut_sb [dut_scoreboard] ===== Interrupt should be deasserted =====
# UVM_INFO ./../regmodel/uart_reg2ahb_adapter.sv(42) @ 376797000: reporter [uart_reg2ahb_adapter] bus2reg: address = 0x14 data = 0x6 kind = UVM_READ status = UVM_IS_OK
# UVM_INFO /ictc/other/tools/QuestaDVA/questasim/verilog_src/uvm-1.2/src/reg/uvm_reg_predictor.svh(225) @ 376797000: uvm_test_top.env.ahb_predictor [REG_PREDICT] Observed READ transaction to register regmodel.FSR: value='h6
# after read
# ===== NEGEDGE INTERRUPT DETECTED =====
# UVM_INFO ./../tb/dut_scoreboard.sv(165) @ 386807000: uvm_test_top.env.dut_sb [dut_scoreboard] Interurpt = 0, state = INT_FULL_DEASSERT
# UVM_INFO ./../tb/dut_scoreboard.sv(190) @ 386807000: uvm_test_top.env.dut_sb [dut_scoreboard] ===== Interrupt is deasserted =====
# UVM_INFO ./../testcases/uart_rxd_interrupt_full.sv(44) @ 386807000: uvm_test_top [uart_rxd_interrupt_full] --------------------------------------------------------------
# Name                Type                Size  Value           
# --------------------------------------------------------------
# cfg                 uart_configuration  -     @360            
#   parity_mode       parity_mode_e       32    UART_PARITY_NONE
#   sampling          sampling_mode_e     32    MODE_X16        
#   data_width        integral            32    'h5             
#   num_of_stop_bit   integral            32    'h1             
#   baud_rate         integral            32    'h4b00          
#   baud_rate_enable  integral            1     'h0             
#   parity_enable     integral            1     'h0             
#   interrupt_enable  integral            1     'h0             
# --------------------------------------------------------------
# 
# UVM_INFO ./../regmodel/uart_reg2ahb_adapter.sv(42) @ 386807000: reporter [uart_reg2ahb_adapter] bus2reg: address = 0x0 data = 0x0 kind = UVM_WRITE status = UVM_IS_OK
# UVM_INFO /ictc/other/tools/QuestaDVA/questasim/verilog_src/uvm-1.2/src/reg/uvm_reg_predictor.svh(221) @ 386807000: uvm_test_top.env.ahb_predictor [REG_PREDICT] Observed WRITE transaction to register regmodel.MDR: value='h0 : updated value = 'h0
# UVM_INFO ./../regmodel/uart_reg2ahb_adapter.sv(42) @ 386807000: reporter [uart_reg2ahb_adapter] bus2reg: address = 0x4 data = 0x45 kind = UVM_WRITE status = UVM_IS_OK
# UVM_INFO /ictc/other/tools/QuestaDVA/questasim/verilog_src/uvm-1.2/src/reg/uvm_reg_predictor.svh(221) @ 386807000: uvm_test_top.env.ahb_predictor [REG_PREDICT] Observed WRITE transaction to register regmodel.DLL: value='h45 : updated value = 'h45
# UVM_INFO ./../regmodel/uart_reg2ahb_adapter.sv(42) @ 386807000: reporter [uart_reg2ahb_adapter] bus2reg: address = 0x8 data = 0x1 kind = UVM_WRITE status = UVM_IS_OK
# UVM_INFO /ictc/other/tools/QuestaDVA/questasim/verilog_src/uvm-1.2/src/reg/uvm_reg_predictor.svh(221) @ 386807000: uvm_test_top.env.ahb_predictor [REG_PREDICT] Observed WRITE transaction to register regmodel.DLH: value='h1 : updated value = 'h1
# UVM_INFO ./../regmodel/uart_reg2ahb_adapter.sv(42) @ 386807000: reporter [uart_reg2ahb_adapter] bus2reg: address = 0xc data = 0x20 kind = UVM_WRITE status = UVM_IS_OK
# UVM_INFO /ictc/other/tools/QuestaDVA/questasim/verilog_src/uvm-1.2/src/reg/uvm_reg_predictor.svh(221) @ 386807000: uvm_test_top.env.ahb_predictor [REG_PREDICT] Observed WRITE transaction to register regmodel.LCR: value='h20 : updated value = 'h20
# UVM_INFO ./../regmodel/uart_reg2ahb_adapter.sv(42) @ 386808000: reporter [uart_reg2ahb_adapter] bus2reg: address = 0x10 data = 0x4 kind = UVM_WRITE status = UVM_IS_OK
# UVM_INFO /ictc/other/tools/QuestaDVA/questasim/verilog_src/uvm-1.2/src/reg/uvm_reg_predictor.svh(221) @ 386808000: uvm_test_top.env.ahb_predictor [REG_PREDICT] Observed WRITE transaction to register regmodel.IER: value='h4 : updated value = 'h4
# ===== Received Data from IER =====
# ===== IER[2] || IER[1] enabled -> DEASSERTED =====
#  after rx full
# before uart write           0
# after uart write
# before uart write           1
# after uart write
# before uart write           2
# after uart write
# before uart write           3
# after uart write
# before uart write           4
# after uart write
# before uart write           5
# after uart write
# before uart write           6
# after uart write
# before uart write           7
# after uart write
# before uart write           8
# after uart write
# before uart write           9
# after uart write
# before uart write          10
# after uart write
# before uart write          11
# after uart write
# before uart write          12
# after uart write
# before uart write          13
# after uart write
# before uart write          14
# after uart write
# before uart write          15
# ===== POSITIVE INTERRUPT DETECTED =====
# UVM_INFO ./../tb/dut_scoreboard.sv(165) @ 398456000: uvm_test_top.env.dut_sb [dut_scoreboard] Interurpt = 1, state = INT_FULL_DEASSERT
# UVM_ERROR ./../tb/dut_scoreboard.sv(194) @ 398456000: uvm_test_top.env.dut_sb [dut_scoreboard] ===== Interrupt should be deasserted =====
# after uart write
# before read
# UVM_INFO ./../regmodel/uart_reg2ahb_adapter.sv(42) @ 398456000: reporter [uart_reg2ahb_adapter] bus2reg: address = 0x14 data = 0x6 kind = UVM_READ status = UVM_IS_OK
# UVM_INFO /ictc/other/tools/QuestaDVA/questasim/verilog_src/uvm-1.2/src/reg/uvm_reg_predictor.svh(225) @ 398456000: uvm_test_top.env.ahb_predictor [REG_PREDICT] Observed READ transaction to register regmodel.FSR: value='h6
# after read
# ===== NEGEDGE INTERRUPT DETECTED =====
# UVM_INFO ./../tb/dut_scoreboard.sv(165) @ 408466000: uvm_test_top.env.dut_sb [dut_scoreboard] Interurpt = 0, state = INT_FULL_DEASSERT
# UVM_INFO ./../tb/dut_scoreboard.sv(190) @ 408466000: uvm_test_top.env.dut_sb [dut_scoreboard] ===== Interrupt is deasserted =====
# UVM_INFO ./../testcases/uart_rxd_interrupt_full.sv(44) @ 408466000: uvm_test_top [uart_rxd_interrupt_full] --------------------------------------------------------------
# Name                Type                Size  Value           
# --------------------------------------------------------------
# cfg                 uart_configuration  -     @360            
#   parity_mode       parity_mode_e       32    UART_PARITY_NONE
#   sampling          sampling_mode_e     32    MODE_X13        
#   data_width        integral            32    'h5             
#   num_of_stop_bit   integral            32    'h1             
#   baud_rate         integral            32    'h4b00          
#   baud_rate_enable  integral            1     'h0             
#   parity_enable     integral            1     'h0             
#   interrupt_enable  integral            1     'h0             
# --------------------------------------------------------------
# 
# UVM_INFO ./../regmodel/uart_reg2ahb_adapter.sv(42) @ 408466000: reporter [uart_reg2ahb_adapter] bus2reg: address = 0x0 data = 0x1 kind = UVM_WRITE status = UVM_IS_OK
# UVM_INFO /ictc/other/tools/QuestaDVA/questasim/verilog_src/uvm-1.2/src/reg/uvm_reg_predictor.svh(221) @ 408466000: uvm_test_top.env.ahb_predictor [REG_PREDICT] Observed WRITE transaction to register regmodel.MDR: value='h1 : updated value = 'h1
# UVM_INFO ./../regmodel/uart_reg2ahb_adapter.sv(42) @ 408466000: reporter [uart_reg2ahb_adapter] bus2reg: address = 0x4 data = 0x91 kind = UVM_WRITE status = UVM_IS_OK
# UVM_INFO /ictc/other/tools/QuestaDVA/questasim/verilog_src/uvm-1.2/src/reg/uvm_reg_predictor.svh(221) @ 408466000: uvm_test_top.env.ahb_predictor [REG_PREDICT] Observed WRITE transaction to register regmodel.DLL: value='h91 : updated value = 'h91
# UVM_INFO ./../regmodel/uart_reg2ahb_adapter.sv(42) @ 408466000: reporter [uart_reg2ahb_adapter] bus2reg: address = 0x8 data = 0x1 kind = UVM_WRITE status = UVM_IS_OK
# UVM_INFO /ictc/other/tools/QuestaDVA/questasim/verilog_src/uvm-1.2/src/reg/uvm_reg_predictor.svh(221) @ 408466000: uvm_test_top.env.ahb_predictor [REG_PREDICT] Observed WRITE transaction to register regmodel.DLH: value='h1 : updated value = 'h1
# UVM_INFO ./../regmodel/uart_reg2ahb_adapter.sv(42) @ 408466000: reporter [uart_reg2ahb_adapter] bus2reg: address = 0xc data = 0x20 kind = UVM_WRITE status = UVM_IS_OK
# UVM_INFO /ictc/other/tools/QuestaDVA/questasim/verilog_src/uvm-1.2/src/reg/uvm_reg_predictor.svh(221) @ 408466000: uvm_test_top.env.ahb_predictor [REG_PREDICT] Observed WRITE transaction to register regmodel.LCR: value='h20 : updated value = 'h20
# UVM_INFO ./../regmodel/uart_reg2ahb_adapter.sv(42) @ 408466000: reporter [uart_reg2ahb_adapter] bus2reg: address = 0x10 data = 0x4 kind = UVM_WRITE status = UVM_IS_OK
# UVM_INFO /ictc/other/tools/QuestaDVA/questasim/verilog_src/uvm-1.2/src/reg/uvm_reg_predictor.svh(221) @ 408466000: uvm_test_top.env.ahb_predictor [REG_PREDICT] Observed WRITE transaction to register regmodel.IER: value='h4 : updated value = 'h4
# ===== Received Data from IER =====
# ===== IER[2] || IER[1] enabled -> DEASSERTED =====
#  after rx full
# before uart write           0
# after uart write
# before uart write           1
# after uart write
# before uart write           2
# after uart write
# before uart write           3
# after uart write
# before uart write           4
# after uart write
# before uart write           5
# after uart write
# before uart write           6
# after uart write
# before uart write           7
# after uart write
# before uart write           8
# after uart write
# before uart write           9
# after uart write
# before uart write          10
# after uart write
# before uart write          11
# after uart write
# before uart write          12
# after uart write
# before uart write          13
# after uart write
# before uart write          14
# after uart write
# before uart write          15
# after uart write
# before read
# UVM_INFO ./../regmodel/uart_reg2ahb_adapter.sv(42) @ 420114000: reporter [uart_reg2ahb_adapter] bus2reg: address = 0x14 data = 0x2 kind = UVM_READ status = UVM_IS_OK
# UVM_INFO /ictc/other/tools/QuestaDVA/questasim/verilog_src/uvm-1.2/src/reg/uvm_reg_predictor.svh(225) @ 420114000: uvm_test_top.env.ahb_predictor [REG_PREDICT] Observed READ transaction to register regmodel.FSR: value='h2
# UVM_INFO ./../regmodel/uart_reg2ahb_adapter.sv(42) @ 420124000: reporter [uart_reg2ahb_adapter] bus2reg: address = 0x14 data = 0x2 kind = UVM_READ status = UVM_IS_OK
# UVM_INFO /ictc/other/tools/QuestaDVA/questasim/verilog_src/uvm-1.2/src/reg/uvm_reg_predictor.svh(225) @ 420124000: uvm_test_top.env.ahb_predictor [REG_PREDICT] Observed READ transaction to register regmodel.FSR: value='h2
# UVM_INFO ./../regmodel/uart_reg2ahb_adapter.sv(42) @ 420134000: reporter [uart_reg2ahb_adapter] bus2reg: address = 0x14 data = 0x2 kind = UVM_READ status = UVM_IS_OK
# UVM_INFO /ictc/other/tools/QuestaDVA/questasim/verilog_src/uvm-1.2/src/reg/uvm_reg_predictor.svh(225) @ 420134000: uvm_test_top.env.ahb_predictor [REG_PREDICT] Observed READ transaction to register regmodel.FSR: value='h2
# ===== POSITIVE INTERRUPT DETECTED =====
# UVM_INFO ./../tb/dut_scoreboard.sv(165) @ 420143000: uvm_test_top.env.dut_sb [dut_scoreboard] Interurpt = 1, state = INT_FULL_DEASSERT
# UVM_ERROR ./../tb/dut_scoreboard.sv(194) @ 420143000: uvm_test_top.env.dut_sb [dut_scoreboard] ===== Interrupt should be deasserted =====
# UVM_INFO ./../regmodel/uart_reg2ahb_adapter.sv(42) @ 420145000: reporter [uart_reg2ahb_adapter] bus2reg: address = 0x14 data = 0x6 kind = UVM_READ status = UVM_IS_OK
# UVM_INFO /ictc/other/tools/QuestaDVA/questasim/verilog_src/uvm-1.2/src/reg/uvm_reg_predictor.svh(225) @ 420145000: uvm_test_top.env.ahb_predictor [REG_PREDICT] Observed READ transaction to register regmodel.FSR: value='h6
# after read
# ===== NEGEDGE INTERRUPT DETECTED =====
# UVM_INFO ./../tb/dut_scoreboard.sv(165) @ 430155000: uvm_test_top.env.dut_sb [dut_scoreboard] Interurpt = 0, state = INT_FULL_DEASSERT
# UVM_INFO ./../tb/dut_scoreboard.sv(190) @ 430155000: uvm_test_top.env.dut_sb [dut_scoreboard] ===== Interrupt is deasserted =====
# UVM_INFO ./../testcases/uart_rxd_interrupt_full.sv(44) @ 430155000: uvm_test_top [uart_rxd_interrupt_full] --------------------------------------------------------------
# Name                Type                Size  Value           
# --------------------------------------------------------------
# cfg                 uart_configuration  -     @360            
#   parity_mode       parity_mode_e       32    UART_PARITY_NONE
#   sampling          sampling_mode_e     32    MODE_X16        
#   data_width        integral            32    'h5             
#   num_of_stop_bit   integral            32    'h1             
#   baud_rate         integral            32    'h9600          
#   baud_rate_enable  integral            1     'h0             
#   parity_enable     integral            1     'h0             
#   interrupt_enable  integral            1     'h0             
# --------------------------------------------------------------
# 
# UVM_INFO ./../regmodel/uart_reg2ahb_adapter.sv(42) @ 430155000: reporter [uart_reg2ahb_adapter] bus2reg: address = 0x0 data = 0x0 kind = UVM_WRITE status = UVM_IS_OK
# UVM_INFO /ictc/other/tools/QuestaDVA/questasim/verilog_src/uvm-1.2/src/reg/uvm_reg_predictor.svh(221) @ 430155000: uvm_test_top.env.ahb_predictor [REG_PREDICT] Observed WRITE transaction to register regmodel.MDR: value='h0 : updated value = 'h0
# UVM_INFO ./../regmodel/uart_reg2ahb_adapter.sv(42) @ 430155000: reporter [uart_reg2ahb_adapter] bus2reg: address = 0x4 data = 0xa4 kind = UVM_WRITE status = UVM_IS_OK
# UVM_INFO /ictc/other/tools/QuestaDVA/questasim/verilog_src/uvm-1.2/src/reg/uvm_reg_predictor.svh(221) @ 430155000: uvm_test_top.env.ahb_predictor [REG_PREDICT] Observed WRITE transaction to register regmodel.DLL: value='ha4 : updated value = 'ha4
# UVM_INFO ./../regmodel/uart_reg2ahb_adapter.sv(42) @ 430155000: reporter [uart_reg2ahb_adapter] bus2reg: address = 0x8 data = 0x0 kind = UVM_WRITE status = UVM_IS_OK
# UVM_INFO /ictc/other/tools/QuestaDVA/questasim/verilog_src/uvm-1.2/src/reg/uvm_reg_predictor.svh(221) @ 430155000: uvm_test_top.env.ahb_predictor [REG_PREDICT] Observed WRITE transaction to register regmodel.DLH: value='h0 : updated value = 'h0
# UVM_INFO ./../regmodel/uart_reg2ahb_adapter.sv(42) @ 430155000: reporter [uart_reg2ahb_adapter] bus2reg: address = 0xc data = 0x20 kind = UVM_WRITE status = UVM_IS_OK
# UVM_INFO /ictc/other/tools/QuestaDVA/questasim/verilog_src/uvm-1.2/src/reg/uvm_reg_predictor.svh(221) @ 430155000: uvm_test_top.env.ahb_predictor [REG_PREDICT] Observed WRITE transaction to register regmodel.LCR: value='h20 : updated value = 'h20
# UVM_INFO ./../regmodel/uart_reg2ahb_adapter.sv(42) @ 430155000: reporter [uart_reg2ahb_adapter] bus2reg: address = 0x10 data = 0x4 kind = UVM_WRITE status = UVM_IS_OK
# UVM_INFO /ictc/other/tools/QuestaDVA/questasim/verilog_src/uvm-1.2/src/reg/uvm_reg_predictor.svh(221) @ 430155000: uvm_test_top.env.ahb_predictor [REG_PREDICT] Observed WRITE transaction to register regmodel.IER: value='h4 : updated value = 'h4
# ===== Received Data from IER =====
# ===== IER[2] || IER[1] enabled -> DEASSERTED =====
#  after rx full
# before uart write           0
# after uart write
# before uart write           1
# after uart write
# before uart write           2
# after uart write
# before uart write           3
# after uart write
# before uart write           4
# after uart write
# before uart write           5
# after uart write
# before uart write           6
# after uart write
# before uart write           7
# after uart write
# before uart write           8
# after uart write
# before uart write           9
# after uart write
# before uart write          10
# after uart write
# before uart write          11
# after uart write
# before uart write          12
# after uart write
# before uart write          13
# after uart write
# before uart write          14
# after uart write
# before uart write          15
# after uart write
# before read
# UVM_INFO ./../regmodel/uart_reg2ahb_adapter.sv(42) @ 435979000: reporter [uart_reg2ahb_adapter] bus2reg: address = 0x14 data = 0x2 kind = UVM_READ status = UVM_IS_OK
# UVM_INFO /ictc/other/tools/QuestaDVA/questasim/verilog_src/uvm-1.2/src/reg/uvm_reg_predictor.svh(225) @ 435979000: uvm_test_top.env.ahb_predictor [REG_PREDICT] Observed READ transaction to register regmodel.FSR: value='h2
# UVM_INFO ./../regmodel/uart_reg2ahb_adapter.sv(42) @ 435989000: reporter [uart_reg2ahb_adapter] bus2reg: address = 0x14 data = 0x2 kind = UVM_READ status = UVM_IS_OK
# UVM_INFO /ictc/other/tools/QuestaDVA/questasim/verilog_src/uvm-1.2/src/reg/uvm_reg_predictor.svh(225) @ 435989000: uvm_test_top.env.ahb_predictor [REG_PREDICT] Observed READ transaction to register regmodel.FSR: value='h2
# UVM_INFO ./../regmodel/uart_reg2ahb_adapter.sv(42) @ 435999000: reporter [uart_reg2ahb_adapter] bus2reg: address = 0x14 data = 0x2 kind = UVM_READ status = UVM_IS_OK
# UVM_INFO /ictc/other/tools/QuestaDVA/questasim/verilog_src/uvm-1.2/src/reg/uvm_reg_predictor.svh(225) @ 435999000: uvm_test_top.env.ahb_predictor [REG_PREDICT] Observed READ transaction to register regmodel.FSR: value='h2
# UVM_INFO ./../regmodel/uart_reg2ahb_adapter.sv(42) @ 436009000: reporter [uart_reg2ahb_adapter] bus2reg: address = 0x14 data = 0x2 kind = UVM_READ status = UVM_IS_OK
# UVM_INFO /ictc/other/tools/QuestaDVA/questasim/verilog_src/uvm-1.2/src/reg/uvm_reg_predictor.svh(225) @ 436009000: uvm_test_top.env.ahb_predictor [REG_PREDICT] Observed READ transaction to register regmodel.FSR: value='h2
# UVM_INFO ./../regmodel/uart_reg2ahb_adapter.sv(42) @ 436020000: reporter [uart_reg2ahb_adapter] bus2reg: address = 0x14 data = 0x2 kind = UVM_READ status = UVM_IS_OK
# UVM_INFO /ictc/other/tools/QuestaDVA/questasim/verilog_src/uvm-1.2/src/reg/uvm_reg_predictor.svh(225) @ 436020000: uvm_test_top.env.ahb_predictor [REG_PREDICT] Observed READ transaction to register regmodel.FSR: value='h2
# UVM_INFO ./../regmodel/uart_reg2ahb_adapter.sv(42) @ 436030000: reporter [uart_reg2ahb_adapter] bus2reg: address = 0x14 data = 0x2 kind = UVM_READ status = UVM_IS_OK
# UVM_INFO /ictc/other/tools/QuestaDVA/questasim/verilog_src/uvm-1.2/src/reg/uvm_reg_predictor.svh(225) @ 436030000: uvm_test_top.env.ahb_predictor [REG_PREDICT] Observed READ transaction to register regmodel.FSR: value='h2
# ===== POSITIVE INTERRUPT DETECTED =====
# UVM_INFO ./../tb/dut_scoreboard.sv(165) @ 436033000: uvm_test_top.env.dut_sb [dut_scoreboard] Interurpt = 1, state = INT_FULL_DEASSERT
# UVM_ERROR ./../tb/dut_scoreboard.sv(194) @ 436033000: uvm_test_top.env.dut_sb [dut_scoreboard] ===== Interrupt should be deasserted =====
# UVM_INFO ./../regmodel/uart_reg2ahb_adapter.sv(42) @ 436040000: reporter [uart_reg2ahb_adapter] bus2reg: address = 0x14 data = 0x6 kind = UVM_READ status = UVM_IS_OK
# UVM_INFO /ictc/other/tools/QuestaDVA/questasim/verilog_src/uvm-1.2/src/reg/uvm_reg_predictor.svh(225) @ 436040000: uvm_test_top.env.ahb_predictor [REG_PREDICT] Observed READ transaction to register regmodel.FSR: value='h6
# after read
# ===== NEGEDGE INTERRUPT DETECTED =====
# UVM_INFO ./../tb/dut_scoreboard.sv(165) @ 446050000: uvm_test_top.env.dut_sb [dut_scoreboard] Interurpt = 0, state = INT_FULL_DEASSERT
# UVM_INFO ./../tb/dut_scoreboard.sv(190) @ 446050000: uvm_test_top.env.dut_sb [dut_scoreboard] ===== Interrupt is deasserted =====
# UVM_INFO ./../testcases/uart_rxd_interrupt_full.sv(44) @ 446050000: uvm_test_top [uart_rxd_interrupt_full] --------------------------------------------------------------
# Name                Type                Size  Value           
# --------------------------------------------------------------
# cfg                 uart_configuration  -     @360            
#   parity_mode       parity_mode_e       32    UART_PARITY_NONE
#   sampling          sampling_mode_e     32    MODE_X13        
#   data_width        integral            32    'h5             
#   num_of_stop_bit   integral            32    'h1             
#   baud_rate         integral            32    'h9600          
#   baud_rate_enable  integral            1     'h0             
#   parity_enable     integral            1     'h0             
#   interrupt_enable  integral            1     'h0             
# --------------------------------------------------------------
# 
# UVM_INFO ./../regmodel/uart_reg2ahb_adapter.sv(42) @ 446050000: reporter [uart_reg2ahb_adapter] bus2reg: address = 0x0 data = 0x1 kind = UVM_WRITE status = UVM_IS_OK
# UVM_INFO /ictc/other/tools/QuestaDVA/questasim/verilog_src/uvm-1.2/src/reg/uvm_reg_predictor.svh(221) @ 446050000: uvm_test_top.env.ahb_predictor [REG_PREDICT] Observed WRITE transaction to register regmodel.MDR: value='h1 : updated value = 'h1
# UVM_INFO ./../regmodel/uart_reg2ahb_adapter.sv(42) @ 446050000: reporter [uart_reg2ahb_adapter] bus2reg: address = 0x4 data = 0xc8 kind = UVM_WRITE status = UVM_IS_OK
# UVM_INFO /ictc/other/tools/QuestaDVA/questasim/verilog_src/uvm-1.2/src/reg/uvm_reg_predictor.svh(221) @ 446050000: uvm_test_top.env.ahb_predictor [REG_PREDICT] Observed WRITE transaction to register regmodel.DLL: value='hc8 : updated value = 'hc8
# UVM_INFO ./../regmodel/uart_reg2ahb_adapter.sv(42) @ 446050000: reporter [uart_reg2ahb_adapter] bus2reg: address = 0x8 data = 0x0 kind = UVM_WRITE status = UVM_IS_OK
# UVM_INFO /ictc/other/tools/QuestaDVA/questasim/verilog_src/uvm-1.2/src/reg/uvm_reg_predictor.svh(221) @ 446050000: uvm_test_top.env.ahb_predictor [REG_PREDICT] Observed WRITE transaction to register regmodel.DLH: value='h0 : updated value = 'h0
# UVM_INFO ./../regmodel/uart_reg2ahb_adapter.sv(42) @ 446050000: reporter [uart_reg2ahb_adapter] bus2reg: address = 0xc data = 0x20 kind = UVM_WRITE status = UVM_IS_OK
# UVM_INFO /ictc/other/tools/QuestaDVA/questasim/verilog_src/uvm-1.2/src/reg/uvm_reg_predictor.svh(221) @ 446050000: uvm_test_top.env.ahb_predictor [REG_PREDICT] Observed WRITE transaction to register regmodel.LCR: value='h20 : updated value = 'h20
# UVM_INFO ./../regmodel/uart_reg2ahb_adapter.sv(42) @ 446050000: reporter [uart_reg2ahb_adapter] bus2reg: address = 0x10 data = 0x4 kind = UVM_WRITE status = UVM_IS_OK
# UVM_INFO /ictc/other/tools/QuestaDVA/questasim/verilog_src/uvm-1.2/src/reg/uvm_reg_predictor.svh(221) @ 446050000: uvm_test_top.env.ahb_predictor [REG_PREDICT] Observed WRITE transaction to register regmodel.IER: value='h4 : updated value = 'h4
# ===== Received Data from IER =====
# ===== IER[2] || IER[1] enabled -> DEASSERTED =====
#  after rx full
# before uart write           0
# after uart write
# before uart write           1
# after uart write
# before uart write           2
# after uart write
# before uart write           3
# after uart write
# before uart write           4
# after uart write
# before uart write           5
# after uart write
# before uart write           6
# after uart write
# before uart write           7
# after uart write
# before uart write           8
# after uart write
# before uart write           9
# after uart write
# before uart write          10
# after uart write
# before uart write          11
# after uart write
# before uart write          12
# after uart write
# before uart write          13
# after uart write
# before uart write          14
# after uart write
# before uart write          15
# ===== POSITIVE INTERRUPT DETECTED =====
# UVM_INFO ./../tb/dut_scoreboard.sv(165) @ 451874000: uvm_test_top.env.dut_sb [dut_scoreboard] Interurpt = 1, state = INT_FULL_DEASSERT
# UVM_ERROR ./../tb/dut_scoreboard.sv(194) @ 451874000: uvm_test_top.env.dut_sb [dut_scoreboard] ===== Interrupt should be deasserted =====
# after uart write
# before read
# UVM_INFO ./../regmodel/uart_reg2ahb_adapter.sv(42) @ 451874000: reporter [uart_reg2ahb_adapter] bus2reg: address = 0x14 data = 0x6 kind = UVM_READ status = UVM_IS_OK
# UVM_INFO /ictc/other/tools/QuestaDVA/questasim/verilog_src/uvm-1.2/src/reg/uvm_reg_predictor.svh(225) @ 451874000: uvm_test_top.env.ahb_predictor [REG_PREDICT] Observed READ transaction to register regmodel.FSR: value='h6
# after read
# ===== NEGEDGE INTERRUPT DETECTED =====
# UVM_INFO ./../tb/dut_scoreboard.sv(165) @ 461884000: uvm_test_top.env.dut_sb [dut_scoreboard] Interurpt = 0, state = INT_FULL_DEASSERT
# UVM_INFO ./../tb/dut_scoreboard.sv(190) @ 461884000: uvm_test_top.env.dut_sb [dut_scoreboard] ===== Interrupt is deasserted =====
# UVM_INFO ./../testcases/uart_rxd_interrupt_full.sv(44) @ 461884000: uvm_test_top [uart_rxd_interrupt_full] --------------------------------------------------------------
# Name                Type                Size  Value           
# --------------------------------------------------------------
# cfg                 uart_configuration  -     @360            
#   parity_mode       parity_mode_e       32    UART_PARITY_NONE
#   sampling          sampling_mode_e     32    MODE_X16        
#   data_width        integral            32    'h5             
#   num_of_stop_bit   integral            32    'h1             
#   baud_rate         integral            32    'h12c00         
#   baud_rate_enable  integral            1     'h0             
#   parity_enable     integral            1     'h0             
#   interrupt_enable  integral            1     'h0             
# --------------------------------------------------------------
# 
# UVM_INFO ./../regmodel/uart_reg2ahb_adapter.sv(42) @ 461885000: reporter [uart_reg2ahb_adapter] bus2reg: address = 0x0 data = 0x0 kind = UVM_WRITE status = UVM_IS_OK
# UVM_INFO /ictc/other/tools/QuestaDVA/questasim/verilog_src/uvm-1.2/src/reg/uvm_reg_predictor.svh(221) @ 461885000: uvm_test_top.env.ahb_predictor [REG_PREDICT] Observed WRITE transaction to register regmodel.MDR: value='h0 : updated value = 'h0
# UVM_INFO ./../regmodel/uart_reg2ahb_adapter.sv(42) @ 461885000: reporter [uart_reg2ahb_adapter] bus2reg: address = 0x4 data = 0x51 kind = UVM_WRITE status = UVM_IS_OK
# UVM_INFO /ictc/other/tools/QuestaDVA/questasim/verilog_src/uvm-1.2/src/reg/uvm_reg_predictor.svh(221) @ 461885000: uvm_test_top.env.ahb_predictor [REG_PREDICT] Observed WRITE transaction to register regmodel.DLL: value='h51 : updated value = 'h51
# UVM_INFO ./../regmodel/uart_reg2ahb_adapter.sv(42) @ 461885000: reporter [uart_reg2ahb_adapter] bus2reg: address = 0x8 data = 0x0 kind = UVM_WRITE status = UVM_IS_OK
# UVM_INFO /ictc/other/tools/QuestaDVA/questasim/verilog_src/uvm-1.2/src/reg/uvm_reg_predictor.svh(221) @ 461885000: uvm_test_top.env.ahb_predictor [REG_PREDICT] Observed WRITE transaction to register regmodel.DLH: value='h0 : updated value = 'h0
# UVM_INFO ./../regmodel/uart_reg2ahb_adapter.sv(42) @ 461885000: reporter [uart_reg2ahb_adapter] bus2reg: address = 0xc data = 0x20 kind = UVM_WRITE status = UVM_IS_OK
# UVM_INFO /ictc/other/tools/QuestaDVA/questasim/verilog_src/uvm-1.2/src/reg/uvm_reg_predictor.svh(221) @ 461885000: uvm_test_top.env.ahb_predictor [REG_PREDICT] Observed WRITE transaction to register regmodel.LCR: value='h20 : updated value = 'h20
# UVM_INFO ./../regmodel/uart_reg2ahb_adapter.sv(42) @ 461885000: reporter [uart_reg2ahb_adapter] bus2reg: address = 0x10 data = 0x4 kind = UVM_WRITE status = UVM_IS_OK
# UVM_INFO /ictc/other/tools/QuestaDVA/questasim/verilog_src/uvm-1.2/src/reg/uvm_reg_predictor.svh(221) @ 461885000: uvm_test_top.env.ahb_predictor [REG_PREDICT] Observed WRITE transaction to register regmodel.IER: value='h4 : updated value = 'h4
# ===== Received Data from IER =====
# ===== IER[2] || IER[1] enabled -> DEASSERTED =====
#  after rx full
# before uart write           0
# after uart write
# before uart write           1
# after uart write
# before uart write           2
# after uart write
# before uart write           3
# after uart write
# before uart write           4
# after uart write
# before uart write           5
# after uart write
# before uart write           6
# after uart write
# before uart write           7
# after uart write
# before uart write           8
# after uart write
# before uart write           9
# after uart write
# before uart write          10
# after uart write
# before uart write          11
# after uart write
# before uart write          12
# after uart write
# before uart write          13
# after uart write
# before uart write          14
# after uart write
# before uart write          15
# ===== POSITIVE INTERRUPT DETECTED =====
# UVM_INFO ./../tb/dut_scoreboard.sv(165) @ 464796000: uvm_test_top.env.dut_sb [dut_scoreboard] Interurpt = 1, state = INT_FULL_DEASSERT
# UVM_ERROR ./../tb/dut_scoreboard.sv(194) @ 464796000: uvm_test_top.env.dut_sb [dut_scoreboard] ===== Interrupt should be deasserted =====
# after uart write
# before read
# UVM_INFO ./../regmodel/uart_reg2ahb_adapter.sv(42) @ 464797000: reporter [uart_reg2ahb_adapter] bus2reg: address = 0x14 data = 0x6 kind = UVM_READ status = UVM_IS_OK
# UVM_INFO /ictc/other/tools/QuestaDVA/questasim/verilog_src/uvm-1.2/src/reg/uvm_reg_predictor.svh(225) @ 464797000: uvm_test_top.env.ahb_predictor [REG_PREDICT] Observed READ transaction to register regmodel.FSR: value='h6
# after read
# ===== NEGEDGE INTERRUPT DETECTED =====
# UVM_INFO ./../tb/dut_scoreboard.sv(165) @ 474807000: uvm_test_top.env.dut_sb [dut_scoreboard] Interurpt = 0, state = INT_FULL_DEASSERT
# UVM_INFO ./../tb/dut_scoreboard.sv(190) @ 474807000: uvm_test_top.env.dut_sb [dut_scoreboard] ===== Interrupt is deasserted =====
# UVM_INFO ./../testcases/uart_rxd_interrupt_full.sv(44) @ 474807000: uvm_test_top [uart_rxd_interrupt_full] --------------------------------------------------------------
# Name                Type                Size  Value           
# --------------------------------------------------------------
# cfg                 uart_configuration  -     @360            
#   parity_mode       parity_mode_e       32    UART_PARITY_NONE
#   sampling          sampling_mode_e     32    MODE_X13        
#   data_width        integral            32    'h5             
#   num_of_stop_bit   integral            32    'h1             
#   baud_rate         integral            32    'h12c00         
#   baud_rate_enable  integral            1     'h0             
#   parity_enable     integral            1     'h0             
#   interrupt_enable  integral            1     'h0             
# --------------------------------------------------------------
# 
# UVM_INFO ./../regmodel/uart_reg2ahb_adapter.sv(42) @ 474807000: reporter [uart_reg2ahb_adapter] bus2reg: address = 0x0 data = 0x1 kind = UVM_WRITE status = UVM_IS_OK
# UVM_INFO /ictc/other/tools/QuestaDVA/questasim/verilog_src/uvm-1.2/src/reg/uvm_reg_predictor.svh(221) @ 474807000: uvm_test_top.env.ahb_predictor [REG_PREDICT] Observed WRITE transaction to register regmodel.MDR: value='h1 : updated value = 'h1
# UVM_INFO ./../regmodel/uart_reg2ahb_adapter.sv(42) @ 474807000: reporter [uart_reg2ahb_adapter] bus2reg: address = 0x4 data = 0x64 kind = UVM_WRITE status = UVM_IS_OK
# UVM_INFO /ictc/other/tools/QuestaDVA/questasim/verilog_src/uvm-1.2/src/reg/uvm_reg_predictor.svh(221) @ 474807000: uvm_test_top.env.ahb_predictor [REG_PREDICT] Observed WRITE transaction to register regmodel.DLL: value='h64 : updated value = 'h64
# UVM_INFO ./../regmodel/uart_reg2ahb_adapter.sv(42) @ 474807000: reporter [uart_reg2ahb_adapter] bus2reg: address = 0x8 data = 0x0 kind = UVM_WRITE status = UVM_IS_OK
# UVM_INFO /ictc/other/tools/QuestaDVA/questasim/verilog_src/uvm-1.2/src/reg/uvm_reg_predictor.svh(221) @ 474807000: uvm_test_top.env.ahb_predictor [REG_PREDICT] Observed WRITE transaction to register regmodel.DLH: value='h0 : updated value = 'h0
# UVM_INFO ./../regmodel/uart_reg2ahb_adapter.sv(42) @ 474807000: reporter [uart_reg2ahb_adapter] bus2reg: address = 0xc data = 0x20 kind = UVM_WRITE status = UVM_IS_OK
# UVM_INFO /ictc/other/tools/QuestaDVA/questasim/verilog_src/uvm-1.2/src/reg/uvm_reg_predictor.svh(221) @ 474807000: uvm_test_top.env.ahb_predictor [REG_PREDICT] Observed WRITE transaction to register regmodel.LCR: value='h20 : updated value = 'h20
# UVM_INFO ./../regmodel/uart_reg2ahb_adapter.sv(42) @ 474807000: reporter [uart_reg2ahb_adapter] bus2reg: address = 0x10 data = 0x4 kind = UVM_WRITE status = UVM_IS_OK
# UVM_INFO /ictc/other/tools/QuestaDVA/questasim/verilog_src/uvm-1.2/src/reg/uvm_reg_predictor.svh(221) @ 474807000: uvm_test_top.env.ahb_predictor [REG_PREDICT] Observed WRITE transaction to register regmodel.IER: value='h4 : updated value = 'h4
# ===== Received Data from IER =====
# ===== IER[2] || IER[1] enabled -> DEASSERTED =====
#  after rx full
# before uart write           0
# after uart write
# before uart write           1
# after uart write
# before uart write           2
# after uart write
# before uart write           3
# after uart write
# before uart write           4
# after uart write
# before uart write           5
# after uart write
# before uart write           6
# after uart write
# before uart write           7
# after uart write
# before uart write           8
# after uart write
# before uart write           9
# after uart write
# before uart write          10
# after uart write
# before uart write          11
# after uart write
# before uart write          12
# after uart write
# before uart write          13
# after uart write
# before uart write          14
# after uart write
# before uart write          15
# ===== POSITIVE INTERRUPT DETECTED =====
# UVM_INFO ./../tb/dut_scoreboard.sv(165) @ 477719000: uvm_test_top.env.dut_sb [dut_scoreboard] Interurpt = 1, state = INT_FULL_DEASSERT
# UVM_ERROR ./../tb/dut_scoreboard.sv(194) @ 477719000: uvm_test_top.env.dut_sb [dut_scoreboard] ===== Interrupt should be deasserted =====
# after uart write
# before read
# UVM_INFO ./../regmodel/uart_reg2ahb_adapter.sv(42) @ 477720000: reporter [uart_reg2ahb_adapter] bus2reg: address = 0x14 data = 0x6 kind = UVM_READ status = UVM_IS_OK
# UVM_INFO /ictc/other/tools/QuestaDVA/questasim/verilog_src/uvm-1.2/src/reg/uvm_reg_predictor.svh(225) @ 477720000: uvm_test_top.env.ahb_predictor [REG_PREDICT] Observed READ transaction to register regmodel.FSR: value='h6
# after read
# ===== NEGEDGE INTERRUPT DETECTED =====
# UVM_INFO ./../tb/dut_scoreboard.sv(165) @ 487730000: uvm_test_top.env.dut_sb [dut_scoreboard] Interurpt = 0, state = INT_FULL_DEASSERT
# UVM_INFO ./../tb/dut_scoreboard.sv(190) @ 487730000: uvm_test_top.env.dut_sb [dut_scoreboard] ===== Interrupt is deasserted =====
# UVM_INFO ./../testcases/uart_rxd_interrupt_full.sv(44) @ 487730000: uvm_test_top [uart_rxd_interrupt_full] --------------------------------------------------------------
# Name                Type                Size  Value           
# --------------------------------------------------------------
# cfg                 uart_configuration  -     @360            
#   parity_mode       parity_mode_e       32    UART_PARITY_NONE
#   sampling          sampling_mode_e     32    MODE_X16        
#   data_width        integral            32    'h5             
#   num_of_stop_bit   integral            32    'h1             
#   baud_rate         integral            32    'h1c200         
#   baud_rate_enable  integral            1     'h0             
#   parity_enable     integral            1     'h0             
#   interrupt_enable  integral            1     'h0             
# --------------------------------------------------------------
# 
# UVM_INFO ./../regmodel/uart_reg2ahb_adapter.sv(42) @ 487730000: reporter [uart_reg2ahb_adapter] bus2reg: address = 0x0 data = 0x0 kind = UVM_WRITE status = UVM_IS_OK
# UVM_INFO /ictc/other/tools/QuestaDVA/questasim/verilog_src/uvm-1.2/src/reg/uvm_reg_predictor.svh(221) @ 487730000: uvm_test_top.env.ahb_predictor [REG_PREDICT] Observed WRITE transaction to register regmodel.MDR: value='h0 : updated value = 'h0
# UVM_INFO ./../regmodel/uart_reg2ahb_adapter.sv(42) @ 487730000: reporter [uart_reg2ahb_adapter] bus2reg: address = 0x4 data = 0x36 kind = UVM_WRITE status = UVM_IS_OK
# UVM_INFO /ictc/other/tools/QuestaDVA/questasim/verilog_src/uvm-1.2/src/reg/uvm_reg_predictor.svh(221) @ 487730000: uvm_test_top.env.ahb_predictor [REG_PREDICT] Observed WRITE transaction to register regmodel.DLL: value='h36 : updated value = 'h36
# UVM_INFO ./../regmodel/uart_reg2ahb_adapter.sv(42) @ 487730000: reporter [uart_reg2ahb_adapter] bus2reg: address = 0x8 data = 0x0 kind = UVM_WRITE status = UVM_IS_OK
# UVM_INFO /ictc/other/tools/QuestaDVA/questasim/verilog_src/uvm-1.2/src/reg/uvm_reg_predictor.svh(221) @ 487730000: uvm_test_top.env.ahb_predictor [REG_PREDICT] Observed WRITE transaction to register regmodel.DLH: value='h0 : updated value = 'h0
# UVM_INFO ./../regmodel/uart_reg2ahb_adapter.sv(42) @ 487730000: reporter [uart_reg2ahb_adapter] bus2reg: address = 0xc data = 0x20 kind = UVM_WRITE status = UVM_IS_OK
# UVM_INFO /ictc/other/tools/QuestaDVA/questasim/verilog_src/uvm-1.2/src/reg/uvm_reg_predictor.svh(221) @ 487730000: uvm_test_top.env.ahb_predictor [REG_PREDICT] Observed WRITE transaction to register regmodel.LCR: value='h20 : updated value = 'h20
# UVM_INFO ./../regmodel/uart_reg2ahb_adapter.sv(42) @ 487730000: reporter [uart_reg2ahb_adapter] bus2reg: address = 0x10 data = 0x4 kind = UVM_WRITE status = UVM_IS_OK
# UVM_INFO /ictc/other/tools/QuestaDVA/questasim/verilog_src/uvm-1.2/src/reg/uvm_reg_predictor.svh(221) @ 487730000: uvm_test_top.env.ahb_predictor [REG_PREDICT] Observed WRITE transaction to register regmodel.IER: value='h4 : updated value = 'h4
# ===== Received Data from IER =====
# ===== IER[2] || IER[1] enabled -> DEASSERTED =====
#  after rx full
# before uart write           0
# after uart write
# before uart write           1
# after uart write
# before uart write           2
# after uart write
# before uart write           3
# after uart write
# before uart write           4
# after uart write
# before uart write           5
# after uart write
# before uart write           6
# after uart write
# before uart write           7
# after uart write
# before uart write           8
# after uart write
# before uart write           9
# after uart write
# before uart write          10
# after uart write
# before uart write          11
# after uart write
# before uart write          12
# after uart write
# before uart write          13
# after uart write
# before uart write          14
# after uart write
# before uart write          15
# after uart write
# before read
# UVM_INFO ./../regmodel/uart_reg2ahb_adapter.sv(42) @ 489634000: reporter [uart_reg2ahb_adapter] bus2reg: address = 0x14 data = 0x2 kind = UVM_READ status = UVM_IS_OK
# UVM_INFO /ictc/other/tools/QuestaDVA/questasim/verilog_src/uvm-1.2/src/reg/uvm_reg_predictor.svh(225) @ 489634000: uvm_test_top.env.ahb_predictor [REG_PREDICT] Observed READ transaction to register regmodel.FSR: value='h2
# UVM_INFO ./../regmodel/uart_reg2ahb_adapter.sv(42) @ 489644000: reporter [uart_reg2ahb_adapter] bus2reg: address = 0x14 data = 0x2 kind = UVM_READ status = UVM_IS_OK
# UVM_INFO /ictc/other/tools/QuestaDVA/questasim/verilog_src/uvm-1.2/src/reg/uvm_reg_predictor.svh(225) @ 489644000: uvm_test_top.env.ahb_predictor [REG_PREDICT] Observed READ transaction to register regmodel.FSR: value='h2
# UVM_INFO ./../regmodel/uart_reg2ahb_adapter.sv(42) @ 489654000: reporter [uart_reg2ahb_adapter] bus2reg: address = 0x14 data = 0x2 kind = UVM_READ status = UVM_IS_OK
# UVM_INFO /ictc/other/tools/QuestaDVA/questasim/verilog_src/uvm-1.2/src/reg/uvm_reg_predictor.svh(225) @ 489654000: uvm_test_top.env.ahb_predictor [REG_PREDICT] Observed READ transaction to register regmodel.FSR: value='h2
# UVM_INFO ./../regmodel/uart_reg2ahb_adapter.sv(42) @ 489664000: reporter [uart_reg2ahb_adapter] bus2reg: address = 0x14 data = 0x2 kind = UVM_READ status = UVM_IS_OK
# UVM_INFO /ictc/other/tools/QuestaDVA/questasim/verilog_src/uvm-1.2/src/reg/uvm_reg_predictor.svh(225) @ 489664000: uvm_test_top.env.ahb_predictor [REG_PREDICT] Observed READ transaction to register regmodel.FSR: value='h2
# UVM_INFO ./../regmodel/uart_reg2ahb_adapter.sv(42) @ 489675000: reporter [uart_reg2ahb_adapter] bus2reg: address = 0x14 data = 0x2 kind = UVM_READ status = UVM_IS_OK
# UVM_INFO /ictc/other/tools/QuestaDVA/questasim/verilog_src/uvm-1.2/src/reg/uvm_reg_predictor.svh(225) @ 489675000: uvm_test_top.env.ahb_predictor [REG_PREDICT] Observed READ transaction to register regmodel.FSR: value='h2
# UVM_INFO ./../regmodel/uart_reg2ahb_adapter.sv(42) @ 489685000: reporter [uart_reg2ahb_adapter] bus2reg: address = 0x14 data = 0x2 kind = UVM_READ status = UVM_IS_OK
# UVM_INFO /ictc/other/tools/QuestaDVA/questasim/verilog_src/uvm-1.2/src/reg/uvm_reg_predictor.svh(225) @ 489685000: uvm_test_top.env.ahb_predictor [REG_PREDICT] Observed READ transaction to register regmodel.FSR: value='h2
# UVM_INFO ./../regmodel/uart_reg2ahb_adapter.sv(42) @ 489695000: reporter [uart_reg2ahb_adapter] bus2reg: address = 0x14 data = 0x2 kind = UVM_READ status = UVM_IS_OK
# UVM_INFO /ictc/other/tools/QuestaDVA/questasim/verilog_src/uvm-1.2/src/reg/uvm_reg_predictor.svh(225) @ 489695000: uvm_test_top.env.ahb_predictor [REG_PREDICT] Observed READ transaction to register regmodel.FSR: value='h2
# UVM_INFO ./../regmodel/uart_reg2ahb_adapter.sv(42) @ 489705000: reporter [uart_reg2ahb_adapter] bus2reg: address = 0x14 data = 0x2 kind = UVM_READ status = UVM_IS_OK
# UVM_INFO /ictc/other/tools/QuestaDVA/questasim/verilog_src/uvm-1.2/src/reg/uvm_reg_predictor.svh(225) @ 489705000: uvm_test_top.env.ahb_predictor [REG_PREDICT] Observed READ transaction to register regmodel.FSR: value='h2
# UVM_INFO ./../regmodel/uart_reg2ahb_adapter.sv(42) @ 489715000: reporter [uart_reg2ahb_adapter] bus2reg: address = 0x14 data = 0x2 kind = UVM_READ status = UVM_IS_OK
# UVM_INFO /ictc/other/tools/QuestaDVA/questasim/verilog_src/uvm-1.2/src/reg/uvm_reg_predictor.svh(225) @ 489715000: uvm_test_top.env.ahb_predictor [REG_PREDICT] Observed READ transaction to register regmodel.FSR: value='h2
# UVM_INFO ./../regmodel/uart_reg2ahb_adapter.sv(42) @ 489725000: reporter [uart_reg2ahb_adapter] bus2reg: address = 0x14 data = 0x2 kind = UVM_READ status = UVM_IS_OK
# UVM_INFO /ictc/other/tools/QuestaDVA/questasim/verilog_src/uvm-1.2/src/reg/uvm_reg_predictor.svh(225) @ 489725000: uvm_test_top.env.ahb_predictor [REG_PREDICT] Observed READ transaction to register regmodel.FSR: value='h2
# UVM_INFO ./../regmodel/uart_reg2ahb_adapter.sv(42) @ 489735000: reporter [uart_reg2ahb_adapter] bus2reg: address = 0x14 data = 0x2 kind = UVM_READ status = UVM_IS_OK
# UVM_INFO /ictc/other/tools/QuestaDVA/questasim/verilog_src/uvm-1.2/src/reg/uvm_reg_predictor.svh(225) @ 489735000: uvm_test_top.env.ahb_predictor [REG_PREDICT] Observed READ transaction to register regmodel.FSR: value='h2
# UVM_INFO ./../regmodel/uart_reg2ahb_adapter.sv(42) @ 489745000: reporter [uart_reg2ahb_adapter] bus2reg: address = 0x14 data = 0x2 kind = UVM_READ status = UVM_IS_OK
# UVM_INFO /ictc/other/tools/QuestaDVA/questasim/verilog_src/uvm-1.2/src/reg/uvm_reg_predictor.svh(225) @ 489745000: uvm_test_top.env.ahb_predictor [REG_PREDICT] Observed READ transaction to register regmodel.FSR: value='h2
# UVM_INFO ./../regmodel/uart_reg2ahb_adapter.sv(42) @ 489755000: reporter [uart_reg2ahb_adapter] bus2reg: address = 0x14 data = 0x2 kind = UVM_READ status = UVM_IS_OK
# UVM_INFO /ictc/other/tools/QuestaDVA/questasim/verilog_src/uvm-1.2/src/reg/uvm_reg_predictor.svh(225) @ 489755000: uvm_test_top.env.ahb_predictor [REG_PREDICT] Observed READ transaction to register regmodel.FSR: value='h2
# UVM_INFO ./../regmodel/uart_reg2ahb_adapter.sv(42) @ 489765000: reporter [uart_reg2ahb_adapter] bus2reg: address = 0x14 data = 0x2 kind = UVM_READ status = UVM_IS_OK
# UVM_INFO /ictc/other/tools/QuestaDVA/questasim/verilog_src/uvm-1.2/src/reg/uvm_reg_predictor.svh(225) @ 489765000: uvm_test_top.env.ahb_predictor [REG_PREDICT] Observed READ transaction to register regmodel.FSR: value='h2
# UVM_INFO ./../regmodel/uart_reg2ahb_adapter.sv(42) @ 489775000: reporter [uart_reg2ahb_adapter] bus2reg: address = 0x14 data = 0x2 kind = UVM_READ status = UVM_IS_OK
# UVM_INFO /ictc/other/tools/QuestaDVA/questasim/verilog_src/uvm-1.2/src/reg/uvm_reg_predictor.svh(225) @ 489775000: uvm_test_top.env.ahb_predictor [REG_PREDICT] Observed READ transaction to register regmodel.FSR: value='h2
# UVM_INFO ./../regmodel/uart_reg2ahb_adapter.sv(42) @ 489785000: reporter [uart_reg2ahb_adapter] bus2reg: address = 0x14 data = 0x2 kind = UVM_READ status = UVM_IS_OK
# UVM_INFO /ictc/other/tools/QuestaDVA/questasim/verilog_src/uvm-1.2/src/reg/uvm_reg_predictor.svh(225) @ 489785000: uvm_test_top.env.ahb_predictor [REG_PREDICT] Observed READ transaction to register regmodel.FSR: value='h2
# UVM_INFO ./../regmodel/uart_reg2ahb_adapter.sv(42) @ 489796000: reporter [uart_reg2ahb_adapter] bus2reg: address = 0x14 data = 0x2 kind = UVM_READ status = UVM_IS_OK
# UVM_INFO /ictc/other/tools/QuestaDVA/questasim/verilog_src/uvm-1.2/src/reg/uvm_reg_predictor.svh(225) @ 489796000: uvm_test_top.env.ahb_predictor [REG_PREDICT] Observed READ transaction to register regmodel.FSR: value='h2
# UVM_INFO ./../regmodel/uart_reg2ahb_adapter.sv(42) @ 489806000: reporter [uart_reg2ahb_adapter] bus2reg: address = 0x14 data = 0x2 kind = UVM_READ status = UVM_IS_OK
# UVM_INFO /ictc/other/tools/QuestaDVA/questasim/verilog_src/uvm-1.2/src/reg/uvm_reg_predictor.svh(225) @ 489806000: uvm_test_top.env.ahb_predictor [REG_PREDICT] Observed READ transaction to register regmodel.FSR: value='h2
# UVM_INFO ./../regmodel/uart_reg2ahb_adapter.sv(42) @ 489816000: reporter [uart_reg2ahb_adapter] bus2reg: address = 0x14 data = 0x2 kind = UVM_READ status = UVM_IS_OK
# UVM_INFO /ictc/other/tools/QuestaDVA/questasim/verilog_src/uvm-1.2/src/reg/uvm_reg_predictor.svh(225) @ 489816000: uvm_test_top.env.ahb_predictor [REG_PREDICT] Observed READ transaction to register regmodel.FSR: value='h2
# UVM_INFO ./../regmodel/uart_reg2ahb_adapter.sv(42) @ 489826000: reporter [uart_reg2ahb_adapter] bus2reg: address = 0x14 data = 0x2 kind = UVM_READ status = UVM_IS_OK
# UVM_INFO /ictc/other/tools/QuestaDVA/questasim/verilog_src/uvm-1.2/src/reg/uvm_reg_predictor.svh(225) @ 489826000: uvm_test_top.env.ahb_predictor [REG_PREDICT] Observed READ transaction to register regmodel.FSR: value='h2
# UVM_INFO ./../regmodel/uart_reg2ahb_adapter.sv(42) @ 489836000: reporter [uart_reg2ahb_adapter] bus2reg: address = 0x14 data = 0x2 kind = UVM_READ status = UVM_IS_OK
# UVM_INFO /ictc/other/tools/QuestaDVA/questasim/verilog_src/uvm-1.2/src/reg/uvm_reg_predictor.svh(225) @ 489836000: uvm_test_top.env.ahb_predictor [REG_PREDICT] Observed READ transaction to register regmodel.FSR: value='h2
# UVM_INFO ./../regmodel/uart_reg2ahb_adapter.sv(42) @ 489846000: reporter [uart_reg2ahb_adapter] bus2reg: address = 0x14 data = 0x2 kind = UVM_READ status = UVM_IS_OK
# UVM_INFO /ictc/other/tools/QuestaDVA/questasim/verilog_src/uvm-1.2/src/reg/uvm_reg_predictor.svh(225) @ 489846000: uvm_test_top.env.ahb_predictor [REG_PREDICT] Observed READ transaction to register regmodel.FSR: value='h2
# UVM_INFO ./../regmodel/uart_reg2ahb_adapter.sv(42) @ 489856000: reporter [uart_reg2ahb_adapter] bus2reg: address = 0x14 data = 0x2 kind = UVM_READ status = UVM_IS_OK
# UVM_INFO /ictc/other/tools/QuestaDVA/questasim/verilog_src/uvm-1.2/src/reg/uvm_reg_predictor.svh(225) @ 489856000: uvm_test_top.env.ahb_predictor [REG_PREDICT] Observed READ transaction to register regmodel.FSR: value='h2
# UVM_INFO ./../regmodel/uart_reg2ahb_adapter.sv(42) @ 489866000: reporter [uart_reg2ahb_adapter] bus2reg: address = 0x14 data = 0x2 kind = UVM_READ status = UVM_IS_OK
# UVM_INFO /ictc/other/tools/QuestaDVA/questasim/verilog_src/uvm-1.2/src/reg/uvm_reg_predictor.svh(225) @ 489866000: uvm_test_top.env.ahb_predictor [REG_PREDICT] Observed READ transaction to register regmodel.FSR: value='h2
# UVM_INFO ./../regmodel/uart_reg2ahb_adapter.sv(42) @ 489876000: reporter [uart_reg2ahb_adapter] bus2reg: address = 0x14 data = 0x2 kind = UVM_READ status = UVM_IS_OK
# UVM_INFO /ictc/other/tools/QuestaDVA/questasim/verilog_src/uvm-1.2/src/reg/uvm_reg_predictor.svh(225) @ 489876000: uvm_test_top.env.ahb_predictor [REG_PREDICT] Observed READ transaction to register regmodel.FSR: value='h2
# UVM_INFO ./../regmodel/uart_reg2ahb_adapter.sv(42) @ 489886000: reporter [uart_reg2ahb_adapter] bus2reg: address = 0x14 data = 0x2 kind = UVM_READ status = UVM_IS_OK
# UVM_INFO /ictc/other/tools/QuestaDVA/questasim/verilog_src/uvm-1.2/src/reg/uvm_reg_predictor.svh(225) @ 489886000: uvm_test_top.env.ahb_predictor [REG_PREDICT] Observed READ transaction to register regmodel.FSR: value='h2
# UVM_INFO ./../regmodel/uart_reg2ahb_adapter.sv(42) @ 489896000: reporter [uart_reg2ahb_adapter] bus2reg: address = 0x14 data = 0x2 kind = UVM_READ status = UVM_IS_OK
# UVM_INFO /ictc/other/tools/QuestaDVA/questasim/verilog_src/uvm-1.2/src/reg/uvm_reg_predictor.svh(225) @ 489896000: uvm_test_top.env.ahb_predictor [REG_PREDICT] Observed READ transaction to register regmodel.FSR: value='h2
# UVM_INFO ./../regmodel/uart_reg2ahb_adapter.sv(42) @ 489906000: reporter [uart_reg2ahb_adapter] bus2reg: address = 0x14 data = 0x2 kind = UVM_READ status = UVM_IS_OK
# UVM_INFO /ictc/other/tools/QuestaDVA/questasim/verilog_src/uvm-1.2/src/reg/uvm_reg_predictor.svh(225) @ 489906000: uvm_test_top.env.ahb_predictor [REG_PREDICT] Observed READ transaction to register regmodel.FSR: value='h2
# UVM_INFO ./../regmodel/uart_reg2ahb_adapter.sv(42) @ 489916000: reporter [uart_reg2ahb_adapter] bus2reg: address = 0x14 data = 0x2 kind = UVM_READ status = UVM_IS_OK
# UVM_INFO /ictc/other/tools/QuestaDVA/questasim/verilog_src/uvm-1.2/src/reg/uvm_reg_predictor.svh(225) @ 489916000: uvm_test_top.env.ahb_predictor [REG_PREDICT] Observed READ transaction to register regmodel.FSR: value='h2
# UVM_INFO ./../regmodel/uart_reg2ahb_adapter.sv(42) @ 489927000: reporter [uart_reg2ahb_adapter] bus2reg: address = 0x14 data = 0x2 kind = UVM_READ status = UVM_IS_OK
# UVM_INFO /ictc/other/tools/QuestaDVA/questasim/verilog_src/uvm-1.2/src/reg/uvm_reg_predictor.svh(225) @ 489927000: uvm_test_top.env.ahb_predictor [REG_PREDICT] Observed READ transaction to register regmodel.FSR: value='h2
# UVM_INFO ./../regmodel/uart_reg2ahb_adapter.sv(42) @ 489937000: reporter [uart_reg2ahb_adapter] bus2reg: address = 0x14 data = 0x2 kind = UVM_READ status = UVM_IS_OK
# UVM_INFO /ictc/other/tools/QuestaDVA/questasim/verilog_src/uvm-1.2/src/reg/uvm_reg_predictor.svh(225) @ 489937000: uvm_test_top.env.ahb_predictor [REG_PREDICT] Observed READ transaction to register regmodel.FSR: value='h2
# UVM_INFO ./../regmodel/uart_reg2ahb_adapter.sv(42) @ 489947000: reporter [uart_reg2ahb_adapter] bus2reg: address = 0x14 data = 0x2 kind = UVM_READ status = UVM_IS_OK
# UVM_INFO /ictc/other/tools/QuestaDVA/questasim/verilog_src/uvm-1.2/src/reg/uvm_reg_predictor.svh(225) @ 489947000: uvm_test_top.env.ahb_predictor [REG_PREDICT] Observed READ transaction to register regmodel.FSR: value='h2
# UVM_INFO ./../regmodel/uart_reg2ahb_adapter.sv(42) @ 489957000: reporter [uart_reg2ahb_adapter] bus2reg: address = 0x14 data = 0x2 kind = UVM_READ status = UVM_IS_OK
# UVM_INFO /ictc/other/tools/QuestaDVA/questasim/verilog_src/uvm-1.2/src/reg/uvm_reg_predictor.svh(225) @ 489957000: uvm_test_top.env.ahb_predictor [REG_PREDICT] Observed READ transaction to register regmodel.FSR: value='h2
# UVM_INFO ./../regmodel/uart_reg2ahb_adapter.sv(42) @ 489967000: reporter [uart_reg2ahb_adapter] bus2reg: address = 0x14 data = 0x2 kind = UVM_READ status = UVM_IS_OK
# UVM_INFO /ictc/other/tools/QuestaDVA/questasim/verilog_src/uvm-1.2/src/reg/uvm_reg_predictor.svh(225) @ 489967000: uvm_test_top.env.ahb_predictor [REG_PREDICT] Observed READ transaction to register regmodel.FSR: value='h2
# UVM_INFO ./../regmodel/uart_reg2ahb_adapter.sv(42) @ 489977000: reporter [uart_reg2ahb_adapter] bus2reg: address = 0x14 data = 0x2 kind = UVM_READ status = UVM_IS_OK
# UVM_INFO /ictc/other/tools/QuestaDVA/questasim/verilog_src/uvm-1.2/src/reg/uvm_reg_predictor.svh(225) @ 489977000: uvm_test_top.env.ahb_predictor [REG_PREDICT] Observed READ transaction to register regmodel.FSR: value='h2
# UVM_INFO ./../regmodel/uart_reg2ahb_adapter.sv(42) @ 489987000: reporter [uart_reg2ahb_adapter] bus2reg: address = 0x14 data = 0x2 kind = UVM_READ status = UVM_IS_OK
# UVM_INFO /ictc/other/tools/QuestaDVA/questasim/verilog_src/uvm-1.2/src/reg/uvm_reg_predictor.svh(225) @ 489987000: uvm_test_top.env.ahb_predictor [REG_PREDICT] Observed READ transaction to register regmodel.FSR: value='h2
# UVM_INFO ./../regmodel/uart_reg2ahb_adapter.sv(42) @ 489997000: reporter [uart_reg2ahb_adapter] bus2reg: address = 0x14 data = 0x2 kind = UVM_READ status = UVM_IS_OK
# UVM_INFO /ictc/other/tools/QuestaDVA/questasim/verilog_src/uvm-1.2/src/reg/uvm_reg_predictor.svh(225) @ 489997000: uvm_test_top.env.ahb_predictor [REG_PREDICT] Observed READ transaction to register regmodel.FSR: value='h2
# UVM_INFO ./../regmodel/uart_reg2ahb_adapter.sv(42) @ 490007000: reporter [uart_reg2ahb_adapter] bus2reg: address = 0x14 data = 0x2 kind = UVM_READ status = UVM_IS_OK
# UVM_INFO /ictc/other/tools/QuestaDVA/questasim/verilog_src/uvm-1.2/src/reg/uvm_reg_predictor.svh(225) @ 490007000: uvm_test_top.env.ahb_predictor [REG_PREDICT] Observed READ transaction to register regmodel.FSR: value='h2
# UVM_INFO ./../regmodel/uart_reg2ahb_adapter.sv(42) @ 490017000: reporter [uart_reg2ahb_adapter] bus2reg: address = 0x14 data = 0x2 kind = UVM_READ status = UVM_IS_OK
# UVM_INFO /ictc/other/tools/QuestaDVA/questasim/verilog_src/uvm-1.2/src/reg/uvm_reg_predictor.svh(225) @ 490017000: uvm_test_top.env.ahb_predictor [REG_PREDICT] Observed READ transaction to register regmodel.FSR: value='h2
# UVM_INFO ./../regmodel/uart_reg2ahb_adapter.sv(42) @ 490027000: reporter [uart_reg2ahb_adapter] bus2reg: address = 0x14 data = 0x2 kind = UVM_READ status = UVM_IS_OK
# UVM_INFO /ictc/other/tools/QuestaDVA/questasim/verilog_src/uvm-1.2/src/reg/uvm_reg_predictor.svh(225) @ 490027000: uvm_test_top.env.ahb_predictor [REG_PREDICT] Observed READ transaction to register regmodel.FSR: value='h2
# UVM_INFO ./../regmodel/uart_reg2ahb_adapter.sv(42) @ 490037000: reporter [uart_reg2ahb_adapter] bus2reg: address = 0x14 data = 0x2 kind = UVM_READ status = UVM_IS_OK
# UVM_INFO /ictc/other/tools/QuestaDVA/questasim/verilog_src/uvm-1.2/src/reg/uvm_reg_predictor.svh(225) @ 490037000: uvm_test_top.env.ahb_predictor [REG_PREDICT] Observed READ transaction to register regmodel.FSR: value='h2
# UVM_INFO ./../regmodel/uart_reg2ahb_adapter.sv(42) @ 490048000: reporter [uart_reg2ahb_adapter] bus2reg: address = 0x14 data = 0x2 kind = UVM_READ status = UVM_IS_OK
# UVM_INFO /ictc/other/tools/QuestaDVA/questasim/verilog_src/uvm-1.2/src/reg/uvm_reg_predictor.svh(225) @ 490048000: uvm_test_top.env.ahb_predictor [REG_PREDICT] Observed READ transaction to register regmodel.FSR: value='h2
# UVM_INFO ./../regmodel/uart_reg2ahb_adapter.sv(42) @ 490058000: reporter [uart_reg2ahb_adapter] bus2reg: address = 0x14 data = 0x2 kind = UVM_READ status = UVM_IS_OK
# UVM_INFO /ictc/other/tools/QuestaDVA/questasim/verilog_src/uvm-1.2/src/reg/uvm_reg_predictor.svh(225) @ 490058000: uvm_test_top.env.ahb_predictor [REG_PREDICT] Observed READ transaction to register regmodel.FSR: value='h2
# UVM_INFO ./../regmodel/uart_reg2ahb_adapter.sv(42) @ 490068000: reporter [uart_reg2ahb_adapter] bus2reg: address = 0x14 data = 0x2 kind = UVM_READ status = UVM_IS_OK
# UVM_INFO /ictc/other/tools/QuestaDVA/questasim/verilog_src/uvm-1.2/src/reg/uvm_reg_predictor.svh(225) @ 490068000: uvm_test_top.env.ahb_predictor [REG_PREDICT] Observed READ transaction to register regmodel.FSR: value='h2
# UVM_INFO ./../regmodel/uart_reg2ahb_adapter.sv(42) @ 490078000: reporter [uart_reg2ahb_adapter] bus2reg: address = 0x14 data = 0x2 kind = UVM_READ status = UVM_IS_OK
# UVM_INFO /ictc/other/tools/QuestaDVA/questasim/verilog_src/uvm-1.2/src/reg/uvm_reg_predictor.svh(225) @ 490078000: uvm_test_top.env.ahb_predictor [REG_PREDICT] Observed READ transaction to register regmodel.FSR: value='h2
# UVM_INFO ./../regmodel/uart_reg2ahb_adapter.sv(42) @ 490088000: reporter [uart_reg2ahb_adapter] bus2reg: address = 0x14 data = 0x2 kind = UVM_READ status = UVM_IS_OK
# UVM_INFO /ictc/other/tools/QuestaDVA/questasim/verilog_src/uvm-1.2/src/reg/uvm_reg_predictor.svh(225) @ 490088000: uvm_test_top.env.ahb_predictor [REG_PREDICT] Observed READ transaction to register regmodel.FSR: value='h2
# UVM_INFO ./../regmodel/uart_reg2ahb_adapter.sv(42) @ 490098000: reporter [uart_reg2ahb_adapter] bus2reg: address = 0x14 data = 0x2 kind = UVM_READ status = UVM_IS_OK
# UVM_INFO /ictc/other/tools/QuestaDVA/questasim/verilog_src/uvm-1.2/src/reg/uvm_reg_predictor.svh(225) @ 490098000: uvm_test_top.env.ahb_predictor [REG_PREDICT] Observed READ transaction to register regmodel.FSR: value='h2
# UVM_INFO ./../regmodel/uart_reg2ahb_adapter.sv(42) @ 490108000: reporter [uart_reg2ahb_adapter] bus2reg: address = 0x14 data = 0x2 kind = UVM_READ status = UVM_IS_OK
# UVM_INFO /ictc/other/tools/QuestaDVA/questasim/verilog_src/uvm-1.2/src/reg/uvm_reg_predictor.svh(225) @ 490108000: uvm_test_top.env.ahb_predictor [REG_PREDICT] Observed READ transaction to register regmodel.FSR: value='h2
# UVM_INFO ./../regmodel/uart_reg2ahb_adapter.sv(42) @ 490118000: reporter [uart_reg2ahb_adapter] bus2reg: address = 0x14 data = 0x2 kind = UVM_READ status = UVM_IS_OK
