# vsim -sv_seed 1 -voptargs="+acc" -assertdebug -c testbench -do " log -r /*;run -all;" -l uart_txd_interrupt_empty_1.log "+UVM_TESTNAME=uart_txd_interrupt_empty" "+UVM_VERBOSITY=UVM_HIGH" 
# Start time: 13:38:41 on Aug 07,2026
# Loading /tmp/khaminh_3008@ictc-eda-ldap.ipa.test_dpi_111791/linux_x86_64_gcc-11/export_tramp.so
# ** Note: (vsim-3813) Design is being optimized due to module recompilation...
# ** Warning: ./../testcases/uart_txd_x16_parity.sv(20): (vopt-2240) Treating stand-alone use of function 'randomize' as an implicit VOID cast.
# ** Warning: ./../testcases/uart_txd_x16_data_frame.sv(20): (vopt-2240) Treating stand-alone use of function 'randomize' as an implicit VOID cast.
# ** Warning: ./../testcases/uart_txd_x16_stop_bit.sv(20): (vopt-2240) Treating stand-alone use of function 'randomize' as an implicit VOID cast.
# ** Warning: ./../testcases/uart_txd_x16_baud_rate.sv(22): (vopt-2240) Treating stand-alone use of function 'randomize' as an implicit VOID cast.
# ** Warning: ./../testcases/uart_txd_x16_random.sv(26): (vopt-2240) Treating stand-alone use of function 'randomize' as an implicit VOID cast.
# ** Warning: ./../testcases/uart_txd_x13_parity.sv(20): (vopt-2240) Treating stand-alone use of function 'randomize' as an implicit VOID cast.
# ** Warning: ./../testcases/uart_txd_x13_data_frame.sv(20): (vopt-2240) Treating stand-alone use of function 'randomize' as an implicit VOID cast.
# ** Warning: ./../testcases/uart_txd_x13_stop_bit.sv(20): (vopt-2240) Treating stand-alone use of function 'randomize' as an implicit VOID cast.
# ** Warning: ./../testcases/uart_txd_x13_baud_rate.sv(22): (vopt-2240) Treating stand-alone use of function 'randomize' as an implicit VOID cast.
# ** Warning: ./../testcases/uart_txd_x13_random.sv(26): (vopt-2240) Treating stand-alone use of function 'randomize' as an implicit VOID cast.
# ** Warning: ./../testcases/uart_rxd_random.sv(30): (vopt-2240) Treating stand-alone use of function 'randomize' as an implicit VOID cast.
# ** Warning: ./../testcases/uart_rxd_parity_status.sv(30): (vopt-2240) Treating stand-alone use of function 'randomize' as an implicit VOID cast.
# ** Warning: ./../testcases/uart_rxd_parity_status_clear.sv(30): (vopt-2240) Treating stand-alone use of function 'randomize' as an implicit VOID cast.
# ** Warning: ./../testcases/uart_rxd_interrupt_empty.sv(34): (vopt-2240) Treating stand-alone use of function 'randomize' as an implicit VOID cast.
# ** Warning: ./../testcases/uart_txd_interrupt_empty.sv(33): (vopt-2240) Treating stand-alone use of function 'randomize' as an implicit VOID cast.
# //  Questa Sim-64
# //  Version 10.6d_1 linux_x86_64 Apr 11 2018
# //
# //  Copyright 1991-2018 Mentor Graphics Corporation
# //  All Rights Reserved.
# //
# //  QuestaSim and its associated documentation contain trade
# //  secrets and commercial or financial information that are the property of
# //  Mentor Graphics Corporation and are privileged, confidential,
# //  and exempt from disclosure under the Freedom of Information Act,
# //  5 U.S.C. Section 552. Furthermore, this information
# //  is prohibited from disclosure under the Trade Secrets Act,
# //  18 U.S.C. Section 1905.
# //
# Loading sv_std.std
# Loading work.uart_if(fast)
# Loading work.ahb_if(fast)
# Loading work.uvm_pkg(fast)
# Loading work.uart_register_pkg(fast)
# ** Note: (vsim-8785) UVM-aware debugging capabilities will be disabled since no compiled "questa_uvm_pkg" can be found.
# This also means that later if you turn on UVM-aware debugging your debug simulations may have
# different random seeds from your non-debug simulations.
# Loading work.ahb_pkg(fast)
# Loading work.uart_regmodel_pkg(fast)
# Loading work.uart_pkg(fast)
# Loading work.seq_pkg(fast)
# Loading work.env_pkg(fast)
# Loading work.test_pkg(fast)
# Loading work.testbench(fast)
# Loading work.ahb_if(fast)
# Loading work.uart_if(fast)
# Loading work.uart_top(fast)
# Loading work.cmsdk_ahb_to_apb(fast)
# Loading work.apb_decoder(fast)
# Loading work.uart_fifo(fast)
# Loading work.uart_transmitter(fast)
# Loading work.uart_receiver(fast)
# Loading work.uart_interrupt(fast)
# Loading work.baud_generator(fast)
# Compiling /tmp/khaminh_3008@ictc-eda-ldap.ipa.test_dpi_111791/linux_x86_64_gcc-5.3.0/exportwrapper.c
# Compiling /tmp/khaminh_3008@ictc-eda-ldap.ipa.test_dpi_111791/linux_x86_64_gcc-11/exportwrapper.c
# Loading /tmp/khaminh_3008@ictc-eda-ldap.ipa.test_dpi_111791/linux_x86_64_gcc-11/vsim_auto_compile.so
#  log -r /*
# run -all
# UVM_INFO /ictc/other/tools/QuestaDVA/questasim/verilog_src/uvm-1.2/src/base/uvm_root.svh(392) @ 0: reporter [UVM/RELNOTES] 
# ----------------------------------------------------------------
# UVM-1.2
# (C) 2007-2014 Mentor Graphics Corporation
# (C) 2007-2014 Cadence Design Systems, Inc.
# (C) 2006-2014 Synopsys, Inc.
# (C) 2011-2013 Cypress Semiconductor Corp.
# (C) 2013-2014 NVIDIA Corporation
# ----------------------------------------------------------------
# 
#   ***********       IMPORTANT RELEASE NOTES         ************
# 
#   You are using a version of the UVM library that has been compiled
#   with `UVM_NO_DEPRECATED undefined.
#   See http://www.eda.org/svdb/view.php?id=3313 for more details.
# 
#   You are using a version of the UVM library that has been compiled
#   with `UVM_OBJECT_DO_NOT_NEED_CONSTRUCTOR undefined.
#   See http://www.eda.org/svdb/view.php?id=3770 for more details.
# 
#       (Specify +UVM_NO_RELNOTES to turn off this notice)
# 
# UVM_INFO /ictc/other/tools/QuestaDVA/questasim/verilog_src/uvm-1.2/src/base/uvm_root.svh(453) @ 0: reporter [NO_DPI_TSTNAME] UVM_NO_DPI defined--getting UVM_TESTNAME directly, without DPI
# UVM_INFO @ 0: reporter [RNTST] Running test uart_txd_interrupt_empty...
# UVM_INFO ./../vip/ahb_vip/ahb_agent.sv(20) @ 0: uvm_test_top.env.ahb_agt [ahb_agent] Active agent is configued
# ENTER SCOREBOARD BUILD PHASE
# UVM_INFO ./../vip/uart_vip/uart_agent.sv(25) @ 0: uvm_test_top.env.uart_agt [uart_agent] Active agent is configured
# UVM_INFO /ictc/other/tools/QuestaDVA/questasim/verilog_src/uvm-1.2/src/base/uvm_root.svh(579) @ 0: reporter [UVMTOP] UVM testbench topology:
# ----------------------------------------------------------------------------
# Name                       Type                                  Size  Value
# ----------------------------------------------------------------------------
# uvm_test_top               uart_txd_interrupt_empty              -     @347 
#   env                      dut_environment                       -     @371 
#     ahb_agt                ahb_agent                             -     @392 
#       driver               ahb_driver                            -     @499 
#         rsp_port           uvm_analysis_port                     -     @518 
#         seq_item_port      uvm_seq_item_pull_port                -     @508 
#       monitor              ahb_monitor                           -     @665 
#         a_port             uvm_analysis_port                     -     @674 
#       sequencer            ahb_sequencer                         -     @528 
#         rsp_export         uvm_analysis_export                   -     @537 
#         seq_item_export    uvm_seq_item_pull_imp                 -     @655 
#         arbitration_queue  array                                 0     -    
#         lock_queue         array                                 0     -    
#         num_last_reqs      integral                              32    'd1  
#         num_last_rsps      integral                              32    'd1  
#     ahb_predictor          uvm_reg_predictor #(ahb_transaction)  -     @410 
#       bus_in               uvm_analysis_imp                      -     @419 
#       reg_ap               uvm_analysis_port                     -     @429 
#     dut_sb                 dut_scoreboard                        -     @383 
#       ahb_a_export         uvm_analysis_imp_ahb                  -     @694 
#       interrupt_a_export   uvm_analysis_imp_interrupt            -     @714 
#       uart_a_export        uvm_analysis_imp_uart                 -     @704 
#     uart_agt               uart_agent                            -     @401 
#       driver               uart_driver                           -     @730 
#         rsp_port           uvm_analysis_port                     -     @749 
#         seq_item_port      uvm_seq_item_pull_port                -     @739 
#         uart_a_port        uvm_analysis_port                     -     @759 
#       monitor              uart_monitor                          -     @769 
#         interrupt_a_port   uvm_analysis_port                     -     @788 
#         uart_a_port        uvm_analysis_port                     -     @778 
#       sequencer            uart_sequencer                        -     @798 
#         rsp_export         uvm_analysis_export                   -     @807 
#         seq_item_export    uvm_seq_item_pull_imp                 -     @925 
#         arbitration_queue  array                                 0     -    
#         lock_queue         array                                 0     -    
#         num_last_reqs      integral                              32    'd1  
#         num_last_rsps      integral                              32    'd1  
# ----------------------------------------------------------------------------
# 
# UVM_INFO /ictc/other/tools/QuestaDVA/questasim/verilog_src/uvm-1.2/src/base/uvm_traversal.svh(279) @ 0: reporter [UVM/COMP/NAMECHECK] This implementation of the component name checks requires DPI to be enabled
# ===== ENTER MONITOR =====
# UVM_INFO ./../testcases/uart_txd_interrupt_empty.sv(43) @ 0: uvm_test_top [uart_txd_interrupt_empty] --------------------------------------------------------------
# Name                Type                Size  Value           
# --------------------------------------------------------------
# cfg                 uart_configuration  -     @360            
#   parity_mode       parity_mode_e       32    UART_PARITY_NONE
#   sampling          sampling_mode_e     32    MODE_X16        
#   data_width        integral            32    'h5             
#   num_of_stop_bit   integral            32    'h1             
#   baud_rate         integral            32    'h960           
#   baud_rate_enable  integral            1     'h0             
#   parity_enable     integral            1     'h0             
#   interrupt_enable  integral            1     'h0             
# --------------------------------------------------------------
# 
# UVM_INFO ./../regmodel/uart_reg2ahb_adapter.sv(42) @ 0: reporter [uart_reg2ahb_adapter] bus2reg: address = 0x0 data = 0x0 kind = UVM_WRITE status = UVM_IS_OK
# UVM_INFO /ictc/other/tools/QuestaDVA/questasim/verilog_src/uvm-1.2/src/reg/uvm_reg_predictor.svh(221) @ 0: uvm_test_top.env.ahb_predictor [REG_PREDICT] Observed WRITE transaction to register regmodel.MDR: value='h0 : updated value = 'h0
# UVM_INFO ./../regmodel/uart_reg2ahb_adapter.sv(42) @ 0: reporter [uart_reg2ahb_adapter] bus2reg: address = 0x4 data = 0x2c kind = UVM_WRITE status = UVM_IS_OK
# UVM_INFO /ictc/other/tools/QuestaDVA/questasim/verilog_src/uvm-1.2/src/reg/uvm_reg_predictor.svh(221) @ 0: uvm_test_top.env.ahb_predictor [REG_PREDICT] Observed WRITE transaction to register regmodel.DLL: value='h2c : updated value = 'h2c
# UVM_INFO ./../regmodel/uart_reg2ahb_adapter.sv(42) @ 0: reporter [uart_reg2ahb_adapter] bus2reg: address = 0x8 data = 0xa kind = UVM_WRITE status = UVM_IS_OK
# UVM_INFO /ictc/other/tools/QuestaDVA/questasim/verilog_src/uvm-1.2/src/reg/uvm_reg_predictor.svh(221) @ 0: uvm_test_top.env.ahb_predictor [REG_PREDICT] Observed WRITE transaction to register regmodel.DLH: value='ha : updated value = 'ha
# UVM_INFO ./../regmodel/uart_reg2ahb_adapter.sv(42) @ 0: reporter [uart_reg2ahb_adapter] bus2reg: address = 0xc data = 0x20 kind = UVM_WRITE status = UVM_IS_OK
# UVM_INFO /ictc/other/tools/QuestaDVA/questasim/verilog_src/uvm-1.2/src/reg/uvm_reg_predictor.svh(221) @ 0: uvm_test_top.env.ahb_predictor [REG_PREDICT] Observed WRITE transaction to register regmodel.LCR: value='h20 : updated value = 'h20
# UVM_INFO ./../regmodel/uart_reg2ahb_adapter.sv(42) @ 1000: reporter [uart_reg2ahb_adapter] bus2reg: address = 0x10 data = 0x2 kind = UVM_WRITE status = UVM_IS_OK
# UVM_INFO /ictc/other/tools/QuestaDVA/questasim/verilog_src/uvm-1.2/src/reg/uvm_reg_predictor.svh(221) @ 1000: uvm_test_top.env.ahb_predictor [REG_PREDICT] Observed WRITE transaction to register regmodel.IER: value='h2 : updated value = 'h2
# ===== Received Data from IER =====
# ===== IER[3] enabled -> ASSERTED =====
# ===== POSITIVE INTERRUPT DETECTED =====
# UVM_INFO ./../tb/dut_scoreboard.sv(160) @ 1000: uvm_test_top.env.dut_sb [dut_scoreboard] Interurpt = 1, state = INT_ASSERT
# UVM_INFO ./../tb/dut_scoreboard.sv(167) @ 1000: uvm_test_top.env.dut_sb [dut_scoreboard] ===== Interrupt is asserted =====
# UVM_INFO ./../regmodel/uart_reg2ahb_adapter.sv(42) @ 1000: reporter [uart_reg2ahb_adapter] bus2reg: address = 0x18 data = 0xf57281b4 kind = UVM_WRITE status = UVM_IS_OK
# UVM_INFO /ictc/other/tools/QuestaDVA/questasim/verilog_src/uvm-1.2/src/reg/uvm_reg_predictor.svh(221) @ 1000: uvm_test_top.env.ahb_predictor [REG_PREDICT] Observed WRITE transaction to register regmodel.TBR: value='hf57281b4 : updated value = 'hb4
# UVM_INFO ./../tb/dut_scoreboard.sv(92) @ 1000: uvm_test_top.env.dut_sb [SCOREBOARD] 
# ===== Captured data from AHB: 0xf57281b4
# ===== NEGEDGE INTERRUPT DETECTED =====
# UVM_INFO ./../tb/dut_scoreboard.sv(160) @ 1000: uvm_test_top.env.dut_sb [dut_scoreboard] Interurpt = 0, state = INT_DEASSERT
# UVM_INFO ./../tb/dut_scoreboard.sv(176) @ 1000: uvm_test_top.env.dut_sb [dut_scoreboard] ===== PASSED SUCCESSFULLY!!! =====
# ===== POSITIVE INTERRUPT DETECTED =====
# UVM_INFO ./../tb/dut_scoreboard.sv(160) @ 1000: uvm_test_top.env.dut_sb [dut_scoreboard] Interurpt = 1, state = INT_IDLE
# UVM_INFO ./../regmodel/uart_reg2ahb_adapter.sv(42) @ 1000: reporter [uart_reg2ahb_adapter] bus2reg: address = 0x14 data = 0xa kind = UVM_READ status = UVM_IS_OK
# UVM_INFO /ictc/other/tools/QuestaDVA/questasim/verilog_src/uvm-1.2/src/reg/uvm_reg_predictor.svh(225) @ 1000: uvm_test_top.env.ahb_predictor [REG_PREDICT] Observed READ transaction to register regmodel.FSR: value='ha
# UVM_INFO ./../regmodel/uart_reg2ahb_adapter.sv(42) @ 11000: reporter [uart_reg2ahb_adapter] bus2reg: address = 0x14 data = 0xa kind = UVM_READ status = UVM_IS_OK
# UVM_INFO /ictc/other/tools/QuestaDVA/questasim/verilog_src/uvm-1.2/src/reg/uvm_reg_predictor.svh(225) @ 11000: uvm_test_top.env.ahb_predictor [REG_PREDICT] Observed READ transaction to register regmodel.FSR: value='ha
# UVM_INFO ./../regmodel/uart_reg2ahb_adapter.sv(42) @ 21000: reporter [uart_reg2ahb_adapter] bus2reg: address = 0x14 data = 0xa kind = UVM_READ status = UVM_IS_OK
# UVM_INFO /ictc/other/tools/QuestaDVA/questasim/verilog_src/uvm-1.2/src/reg/uvm_reg_predictor.svh(225) @ 21000: uvm_test_top.env.ahb_predictor [REG_PREDICT] Observed READ transaction to register regmodel.FSR: value='ha
# UVM_INFO ./../regmodel/uart_reg2ahb_adapter.sv(42) @ 31000: reporter [uart_reg2ahb_adapter] bus2reg: address = 0x14 data = 0xa kind = UVM_READ status = UVM_IS_OK
# UVM_INFO /ictc/other/tools/QuestaDVA/questasim/verilog_src/uvm-1.2/src/reg/uvm_reg_predictor.svh(225) @ 31000: uvm_test_top.env.ahb_predictor [REG_PREDICT] Observed READ transaction to register regmodel.FSR: value='ha
# UVM_INFO ./../regmodel/uart_reg2ahb_adapter.sv(42) @ 41000: reporter [uart_reg2ahb_adapter] bus2reg: address = 0x14 data = 0xa kind = UVM_READ status = UVM_IS_OK
# UVM_INFO /ictc/other/tools/QuestaDVA/questasim/verilog_src/uvm-1.2/src/reg/uvm_reg_predictor.svh(225) @ 41000: uvm_test_top.env.ahb_predictor [REG_PREDICT] Observed READ transaction to register regmodel.FSR: value='ha
# UVM_INFO ./../regmodel/uart_reg2ahb_adapter.sv(42) @ 51000: reporter [uart_reg2ahb_adapter] bus2reg: address = 0x14 data = 0xa kind = UVM_READ status = UVM_IS_OK
# UVM_INFO /ictc/other/tools/QuestaDVA/questasim/verilog_src/uvm-1.2/src/reg/uvm_reg_predictor.svh(225) @ 51000: uvm_test_top.env.ahb_predictor [REG_PREDICT] Observed READ transaction to register regmodel.FSR: value='ha
# UVM_INFO ./../regmodel/uart_reg2ahb_adapter.sv(42) @ 61000: reporter [uart_reg2ahb_adapter] bus2reg: address = 0x14 data = 0xa kind = UVM_READ status = UVM_IS_OK
# UVM_INFO /ictc/other/tools/QuestaDVA/questasim/verilog_src/uvm-1.2/src/reg/uvm_reg_predictor.svh(225) @ 61000: uvm_test_top.env.ahb_predictor [REG_PREDICT] Observed READ transaction to register regmodel.FSR: value='ha
# UVM_INFO ./../regmodel/uart_reg2ahb_adapter.sv(42) @ 71000: reporter [uart_reg2ahb_adapter] bus2reg: address = 0x14 data = 0xa kind = UVM_READ status = UVM_IS_OK
# UVM_INFO /ictc/other/tools/QuestaDVA/questasim/verilog_src/uvm-1.2/src/reg/uvm_reg_predictor.svh(225) @ 71000: uvm_test_top.env.ahb_predictor [REG_PREDICT] Observed READ transaction to register regmodel.FSR: value='ha
# UVM_INFO ./../regmodel/uart_reg2ahb_adapter.sv(42) @ 81000: reporter [uart_reg2ahb_adapter] bus2reg: address = 0x14 data = 0xa kind = UVM_READ status = UVM_IS_OK
# UVM_INFO /ictc/other/tools/QuestaDVA/questasim/verilog_src/uvm-1.2/src/reg/uvm_reg_predictor.svh(225) @ 81000: uvm_test_top.env.ahb_predictor [REG_PREDICT] Observed READ transaction to register regmodel.FSR: value='ha
# UVM_INFO ./../regmodel/uart_reg2ahb_adapter.sv(42) @ 91000: reporter [uart_reg2ahb_adapter] bus2reg: address = 0x14 data = 0xa kind = UVM_READ status = UVM_IS_OK
# UVM_INFO /ictc/other/tools/QuestaDVA/questasim/verilog_src/uvm-1.2/src/reg/uvm_reg_predictor.svh(225) @ 91000: uvm_test_top.env.ahb_predictor [REG_PREDICT] Observed READ transaction to register regmodel.FSR: value='ha
# UVM_INFO ./../regmodel/uart_reg2ahb_adapter.sv(42) @ 102000: reporter [uart_reg2ahb_adapter] bus2reg: address = 0x14 data = 0xa kind = UVM_READ status = UVM_IS_OK
# UVM_INFO /ictc/other/tools/QuestaDVA/questasim/verilog_src/uvm-1.2/src/reg/uvm_reg_predictor.svh(225) @ 102000: uvm_test_top.env.ahb_predictor [REG_PREDICT] Observed READ transaction to register regmodel.FSR: value='ha
# UVM_INFO ./../regmodel/uart_reg2ahb_adapter.sv(42) @ 112000: reporter [uart_reg2ahb_adapter] bus2reg: address = 0x14 data = 0xa kind = UVM_READ status = UVM_IS_OK
# UVM_INFO /ictc/other/tools/QuestaDVA/questasim/verilog_src/uvm-1.2/src/reg/uvm_reg_predictor.svh(225) @ 112000: uvm_test_top.env.ahb_predictor [REG_PREDICT] Observed READ transaction to register regmodel.FSR: value='ha
# UVM_INFO ./../regmodel/uart_reg2ahb_adapter.sv(42) @ 122000: reporter [uart_reg2ahb_adapter] bus2reg: address = 0x14 data = 0xa kind = UVM_READ status = UVM_IS_OK
# UVM_INFO /ictc/other/tools/QuestaDVA/questasim/verilog_src/uvm-1.2/src/reg/uvm_reg_predictor.svh(225) @ 122000: uvm_test_top.env.ahb_predictor [REG_PREDICT] Observed READ transaction to register regmodel.FSR: value='ha
# UVM_INFO ./../regmodel/uart_reg2ahb_adapter.sv(42) @ 132000: reporter [uart_reg2ahb_adapter] bus2reg: address = 0x14 data = 0xa kind = UVM_READ status = UVM_IS_OK
# UVM_INFO /ictc/other/tools/QuestaDVA/questasim/verilog_src/uvm-1.2/src/reg/uvm_reg_predictor.svh(225) @ 132000: uvm_test_top.env.ahb_predictor [REG_PREDICT] Observed READ transaction to register regmodel.FSR: value='ha
# UVM_INFO ./../regmodel/uart_reg2ahb_adapter.sv(42) @ 142000: reporter [uart_reg2ahb_adapter] bus2reg: address = 0x14 data = 0xa kind = UVM_READ status = UVM_IS_OK
# UVM_INFO /ictc/other/tools/QuestaDVA/questasim/verilog_src/uvm-1.2/src/reg/uvm_reg_predictor.svh(225) @ 142000: uvm_test_top.env.ahb_predictor [REG_PREDICT] Observed READ transaction to register regmodel.FSR: value='ha
# UVM_INFO ./../regmodel/uart_reg2ahb_adapter.sv(42) @ 152000: reporter [uart_reg2ahb_adapter] bus2reg: address = 0x14 data = 0xa kind = UVM_READ status = UVM_IS_OK
# UVM_INFO /ictc/other/tools/QuestaDVA/questasim/verilog_src/uvm-1.2/src/reg/uvm_reg_predictor.svh(225) @ 152000: uvm_test_top.env.ahb_predictor [REG_PREDICT] Observed READ transaction to register regmodel.FSR: value='ha
# UVM_INFO ./../regmodel/uart_reg2ahb_adapter.sv(42) @ 162000: reporter [uart_reg2ahb_adapter] bus2reg: address = 0x14 data = 0xa kind = UVM_READ status = UVM_IS_OK
# UVM_INFO /ictc/other/tools/QuestaDVA/questasim/verilog_src/uvm-1.2/src/reg/uvm_reg_predictor.svh(225) @ 162000: uvm_test_top.env.ahb_predictor [REG_PREDICT] Observed READ transaction to register regmodel.FSR: value='ha
# UVM_INFO ./../regmodel/uart_reg2ahb_adapter.sv(42) @ 172000: reporter [uart_reg2ahb_adapter] bus2reg: address = 0x14 data = 0xa kind = UVM_READ status = UVM_IS_OK
# UVM_INFO /ictc/other/tools/QuestaDVA/questasim/verilog_src/uvm-1.2/src/reg/uvm_reg_predictor.svh(225) @ 172000: uvm_test_top.env.ahb_predictor [REG_PREDICT] Observed READ transaction to register regmodel.FSR: value='ha
# UVM_INFO ./../regmodel/uart_reg2ahb_adapter.sv(42) @ 182000: reporter [uart_reg2ahb_adapter] bus2reg: address = 0x14 data = 0xa kind = UVM_READ status = UVM_IS_OK
# UVM_INFO /ictc/other/tools/QuestaDVA/questasim/verilog_src/uvm-1.2/src/reg/uvm_reg_predictor.svh(225) @ 182000: uvm_test_top.env.ahb_predictor [REG_PREDICT] Observed READ transaction to register regmodel.FSR: value='ha
# UVM_INFO ./../regmodel/uart_reg2ahb_adapter.sv(42) @ 192000: reporter [uart_reg2ahb_adapter] bus2reg: address = 0x14 data = 0xa kind = UVM_READ status = UVM_IS_OK
# UVM_INFO /ictc/other/tools/QuestaDVA/questasim/verilog_src/uvm-1.2/src/reg/uvm_reg_predictor.svh(225) @ 192000: uvm_test_top.env.ahb_predictor [REG_PREDICT] Observed READ transaction to register regmodel.FSR: value='ha
# UVM_INFO ./../regmodel/uart_reg2ahb_adapter.sv(42) @ 202000: reporter [uart_reg2ahb_adapter] bus2reg: address = 0x14 data = 0xa kind = UVM_READ status = UVM_IS_OK
# UVM_INFO /ictc/other/tools/QuestaDVA/questasim/verilog_src/uvm-1.2/src/reg/uvm_reg_predictor.svh(225) @ 202000: uvm_test_top.env.ahb_predictor [REG_PREDICT] Observed READ transaction to register regmodel.FSR: value='ha
# UVM_INFO ./../regmodel/uart_reg2ahb_adapter.sv(42) @ 212000: reporter [uart_reg2ahb_adapter] bus2reg: address = 0x14 data = 0xa kind = UVM_READ status = UVM_IS_OK
# UVM_INFO /ictc/other/tools/QuestaDVA/questasim/verilog_src/uvm-1.2/src/reg/uvm_reg_predictor.svh(225) @ 212000: uvm_test_top.env.ahb_predictor [REG_PREDICT] Observed READ transaction to register regmodel.FSR: value='ha
# UVM_INFO ./../regmodel/uart_reg2ahb_adapter.sv(42) @ 222000: reporter [uart_reg2ahb_adapter] bus2reg: address = 0x14 data = 0xa kind = UVM_READ status = UVM_IS_OK
# UVM_INFO /ictc/other/tools/QuestaDVA/questasim/verilog_src/uvm-1.2/src/reg/uvm_reg_predictor.svh(225) @ 222000: uvm_test_top.env.ahb_predictor [REG_PREDICT] Observed READ transaction to register regmodel.FSR: value='ha
# UVM_INFO ./../regmodel/uart_reg2ahb_adapter.sv(42) @ 233000: reporter [uart_reg2ahb_adapter] bus2reg: address = 0x14 data = 0xa kind = UVM_READ status = UVM_IS_OK
# UVM_INFO /ictc/other/tools/QuestaDVA/questasim/verilog_src/uvm-1.2/src/reg/uvm_reg_predictor.svh(225) @ 233000: uvm_test_top.env.ahb_predictor [REG_PREDICT] Observed READ transaction to register regmodel.FSR: value='ha
# UVM_INFO ./../regmodel/uart_reg2ahb_adapter.sv(42) @ 243000: reporter [uart_reg2ahb_adapter] bus2reg: address = 0x14 data = 0xa kind = UVM_READ status = UVM_IS_OK
# UVM_INFO /ictc/other/tools/QuestaDVA/questasim/verilog_src/uvm-1.2/src/reg/uvm_reg_predictor.svh(225) @ 243000: uvm_test_top.env.ahb_predictor [REG_PREDICT] Observed READ transaction to register regmodel.FSR: value='ha
# UVM_INFO ./../regmodel/uart_reg2ahb_adapter.sv(42) @ 253000: reporter [uart_reg2ahb_adapter] bus2reg: address = 0x14 data = 0xa kind = UVM_READ status = UVM_IS_OK
# UVM_INFO /ictc/other/tools/QuestaDVA/questasim/verilog_src/uvm-1.2/src/reg/uvm_reg_predictor.svh(225) @ 253000: uvm_test_top.env.ahb_predictor [REG_PREDICT] Observed READ transaction to register regmodel.FSR: value='ha
# UVM_INFO ./../regmodel/uart_reg2ahb_adapter.sv(42) @ 263000: reporter [uart_reg2ahb_adapter] bus2reg: address = 0x14 data = 0xa kind = UVM_READ status = UVM_IS_OK
# UVM_INFO /ictc/other/tools/QuestaDVA/questasim/verilog_src/uvm-1.2/src/reg/uvm_reg_predictor.svh(225) @ 263000: uvm_test_top.env.ahb_predictor [REG_PREDICT] Observed READ transaction to register regmodel.FSR: value='ha
# UVM_INFO ./../regmodel/uart_reg2ahb_adapter.sv(42) @ 273000: reporter [uart_reg2ahb_adapter] bus2reg: address = 0x14 data = 0xa kind = UVM_READ status = UVM_IS_OK
# UVM_INFO /ictc/other/tools/QuestaDVA/questasim/verilog_src/uvm-1.2/src/reg/uvm_reg_predictor.svh(225) @ 273000: uvm_test_top.env.ahb_predictor [REG_PREDICT] Observed READ transaction to register regmodel.FSR: value='ha
# UVM_INFO ./../regmodel/uart_reg2ahb_adapter.sv(42) @ 283000: reporter [uart_reg2ahb_adapter] bus2reg: address = 0x14 data = 0xa kind = UVM_READ status = UVM_IS_OK
# UVM_INFO /ictc/other/tools/QuestaDVA/questasim/verilog_src/uvm-1.2/src/reg/uvm_reg_predictor.svh(225) @ 283000: uvm_test_top.env.ahb_predictor [REG_PREDICT] Observed READ transaction to register regmodel.FSR: value='ha
# UVM_INFO ./../regmodel/uart_reg2ahb_adapter.sv(42) @ 293000: reporter [uart_reg2ahb_adapter] bus2reg: address = 0x14 data = 0xa kind = UVM_READ status = UVM_IS_OK
# UVM_INFO /ictc/other/tools/QuestaDVA/questasim/verilog_src/uvm-1.2/src/reg/uvm_reg_predictor.svh(225) @ 293000: uvm_test_top.env.ahb_predictor [REG_PREDICT] Observed READ transaction to register regmodel.FSR: value='ha
# UVM_INFO ./../regmodel/uart_reg2ahb_adapter.sv(42) @ 303000: reporter [uart_reg2ahb_adapter] bus2reg: address = 0x14 data = 0xa kind = UVM_READ status = UVM_IS_OK
# UVM_INFO /ictc/other/tools/QuestaDVA/questasim/verilog_src/uvm-1.2/src/reg/uvm_reg_predictor.svh(225) @ 303000: uvm_test_top.env.ahb_predictor [REG_PREDICT] Observed READ transaction to register regmodel.FSR: value='ha
# UVM_INFO ./../regmodel/uart_reg2ahb_adapter.sv(42) @ 313000: reporter [uart_reg2ahb_adapter] bus2reg: address = 0x14 data = 0xa kind = UVM_READ status = UVM_IS_OK
# UVM_INFO /ictc/other/tools/QuestaDVA/questasim/verilog_src/uvm-1.2/src/reg/uvm_reg_predictor.svh(225) @ 313000: uvm_test_top.env.ahb_predictor [REG_PREDICT] Observed READ transaction to register regmodel.FSR: value='ha
# UVM_INFO ./../regmodel/uart_reg2ahb_adapter.sv(42) @ 323000: reporter [uart_reg2ahb_adapter] bus2reg: address = 0x14 data = 0xa kind = UVM_READ status = UVM_IS_OK
# UVM_INFO /ictc/other/tools/QuestaDVA/questasim/verilog_src/uvm-1.2/src/reg/uvm_reg_predictor.svh(225) @ 323000: uvm_test_top.env.ahb_predictor [REG_PREDICT] Observed READ transaction to register regmodel.FSR: value='ha
# UVM_INFO ./../regmodel/uart_reg2ahb_adapter.sv(42) @ 333000: reporter [uart_reg2ahb_adapter] bus2reg: address = 0x14 data = 0xa kind = UVM_READ status = UVM_IS_OK
# UVM_INFO /ictc/other/tools/QuestaDVA/questasim/verilog_src/uvm-1.2/src/reg/uvm_reg_predictor.svh(225) @ 333000: uvm_test_top.env.ahb_predictor [REG_PREDICT] Observed READ transaction to register regmodel.FSR: value='ha
# UVM_INFO ./../regmodel/uart_reg2ahb_adapter.sv(42) @ 343000: reporter [uart_reg2ahb_adapter] bus2reg: address = 0x14 data = 0xa kind = UVM_READ status = UVM_IS_OK
# UVM_INFO /ictc/other/tools/QuestaDVA/questasim/verilog_src/uvm-1.2/src/reg/uvm_reg_predictor.svh(225) @ 343000: uvm_test_top.env.ahb_predictor [REG_PREDICT] Observed READ transaction to register regmodel.FSR: value='ha
# UVM_INFO ./../regmodel/uart_reg2ahb_adapter.sv(42) @ 354000: reporter [uart_reg2ahb_adapter] bus2reg: address = 0x14 data = 0xa kind = UVM_READ status = UVM_IS_OK
# UVM_INFO /ictc/other/tools/QuestaDVA/questasim/verilog_src/uvm-1.2/src/reg/uvm_reg_predictor.svh(225) @ 354000: uvm_test_top.env.ahb_predictor [REG_PREDICT] Observed READ transaction to register regmodel.FSR: value='ha
# UVM_INFO ./../regmodel/uart_reg2ahb_adapter.sv(42) @ 364000: reporter [uart_reg2ahb_adapter] bus2reg: address = 0x14 data = 0xa kind = UVM_READ status = UVM_IS_OK
# UVM_INFO /ictc/other/tools/QuestaDVA/questasim/verilog_src/uvm-1.2/src/reg/uvm_reg_predictor.svh(225) @ 364000: uvm_test_top.env.ahb_predictor [REG_PREDICT] Observed READ transaction to register regmodel.FSR: value='ha
# UVM_INFO ./../regmodel/uart_reg2ahb_adapter.sv(42) @ 374000: reporter [uart_reg2ahb_adapter] bus2reg: address = 0x14 data = 0xa kind = UVM_READ status = UVM_IS_OK
# UVM_INFO /ictc/other/tools/QuestaDVA/questasim/verilog_src/uvm-1.2/src/reg/uvm_reg_predictor.svh(225) @ 374000: uvm_test_top.env.ahb_predictor [REG_PREDICT] Observed READ transaction to register regmodel.FSR: value='ha
# UVM_INFO ./../regmodel/uart_reg2ahb_adapter.sv(42) @ 384000: reporter [uart_reg2ahb_adapter] bus2reg: address = 0x14 data = 0xa kind = UVM_READ status = UVM_IS_OK
# UVM_INFO /ictc/other/tools/QuestaDVA/questasim/verilog_src/uvm-1.2/src/reg/uvm_reg_predictor.svh(225) @ 384000: uvm_test_top.env.ahb_predictor [REG_PREDICT] Observed READ transaction to register regmodel.FSR: value='ha
# UVM_INFO ./../regmodel/uart_reg2ahb_adapter.sv(42) @ 394000: reporter [uart_reg2ahb_adapter] bus2reg: address = 0x14 data = 0xa kind = UVM_READ status = UVM_IS_OK
# UVM_INFO /ictc/other/tools/QuestaDVA/questasim/verilog_src/uvm-1.2/src/reg/uvm_reg_predictor.svh(225) @ 394000: uvm_test_top.env.ahb_predictor [REG_PREDICT] Observed READ transaction to register regmodel.FSR: value='ha
# UVM_INFO ./../regmodel/uart_reg2ahb_adapter.sv(42) @ 404000: reporter [uart_reg2ahb_adapter] bus2reg: address = 0x14 data = 0xa kind = UVM_READ status = UVM_IS_OK
# UVM_INFO /ictc/other/tools/QuestaDVA/questasim/verilog_src/uvm-1.2/src/reg/uvm_reg_predictor.svh(225) @ 404000: uvm_test_top.env.ahb_predictor [REG_PREDICT] Observed READ transaction to register regmodel.FSR: value='ha
# UVM_INFO ./../regmodel/uart_reg2ahb_adapter.sv(42) @ 414000: reporter [uart_reg2ahb_adapter] bus2reg: address = 0x14 data = 0xa kind = UVM_READ status = UVM_IS_OK
# UVM_INFO /ictc/other/tools/QuestaDVA/questasim/verilog_src/uvm-1.2/src/reg/uvm_reg_predictor.svh(225) @ 414000: uvm_test_top.env.ahb_predictor [REG_PREDICT] Observed READ transaction to register regmodel.FSR: value='ha
# UVM_INFO ./../regmodel/uart_reg2ahb_adapter.sv(42) @ 424000: reporter [uart_reg2ahb_adapter] bus2reg: address = 0x14 data = 0xa kind = UVM_READ status = UVM_IS_OK
# UVM_INFO /ictc/other/tools/QuestaDVA/questasim/verilog_src/uvm-1.2/src/reg/uvm_reg_predictor.svh(225) @ 424000: uvm_test_top.env.ahb_predictor [REG_PREDICT] Observed READ transaction to register regmodel.FSR: value='ha
# UVM_INFO ./../regmodel/uart_reg2ahb_adapter.sv(42) @ 434000: reporter [uart_reg2ahb_adapter] bus2reg: address = 0x14 data = 0xa kind = UVM_READ status = UVM_IS_OK
# UVM_INFO /ictc/other/tools/QuestaDVA/questasim/verilog_src/uvm-1.2/src/reg/uvm_reg_predictor.svh(225) @ 434000: uvm_test_top.env.ahb_predictor [REG_PREDICT] Observed READ transaction to register regmodel.FSR: value='ha
# UVM_INFO ./../regmodel/uart_reg2ahb_adapter.sv(42) @ 444000: reporter [uart_reg2ahb_adapter] bus2reg: address = 0x14 data = 0xa kind = UVM_READ status = UVM_IS_OK
# UVM_INFO /ictc/other/tools/QuestaDVA/questasim/verilog_src/uvm-1.2/src/reg/uvm_reg_predictor.svh(225) @ 444000: uvm_test_top.env.ahb_predictor [REG_PREDICT] Observed READ transaction to register regmodel.FSR: value='ha
# UVM_INFO ./../regmodel/uart_reg2ahb_adapter.sv(42) @ 454000: reporter [uart_reg2ahb_adapter] bus2reg: address = 0x14 data = 0xa kind = UVM_READ status = UVM_IS_OK
# UVM_INFO /ictc/other/tools/QuestaDVA/questasim/verilog_src/uvm-1.2/src/reg/uvm_reg_predictor.svh(225) @ 454000: uvm_test_top.env.ahb_predictor [REG_PREDICT] Observed READ transaction to register regmodel.FSR: value='ha
# UVM_INFO ./../regmodel/uart_reg2ahb_adapter.sv(42) @ 464000: reporter [uart_reg2ahb_adapter] bus2reg: address = 0x14 data = 0xa kind = UVM_READ status = UVM_IS_OK
# UVM_INFO /ictc/other/tools/QuestaDVA/questasim/verilog_src/uvm-1.2/src/reg/uvm_reg_predictor.svh(225) @ 464000: uvm_test_top.env.ahb_predictor [REG_PREDICT] Observed READ transaction to register regmodel.FSR: value='ha
# UVM_INFO ./../regmodel/uart_reg2ahb_adapter.sv(42) @ 474000: reporter [uart_reg2ahb_adapter] bus2reg: address = 0x14 data = 0xa kind = UVM_READ status = UVM_IS_OK
# UVM_INFO /ictc/other/tools/QuestaDVA/questasim/verilog_src/uvm-1.2/src/reg/uvm_reg_predictor.svh(225) @ 474000: uvm_test_top.env.ahb_predictor [REG_PREDICT] Observed READ transaction to register regmodel.FSR: value='ha
# UVM_INFO ./../regmodel/uart_reg2ahb_adapter.sv(42) @ 485000: reporter [uart_reg2ahb_adapter] bus2reg: address = 0x14 data = 0xa kind = UVM_READ status = UVM_IS_OK
# UVM_INFO /ictc/other/tools/QuestaDVA/questasim/verilog_src/uvm-1.2/src/reg/uvm_reg_predictor.svh(225) @ 485000: uvm_test_top.env.ahb_predictor [REG_PREDICT] Observed READ transaction to register regmodel.FSR: value='ha
# UVM_INFO ./../regmodel/uart_reg2ahb_adapter.sv(42) @ 495000: reporter [uart_reg2ahb_adapter] bus2reg: address = 0x14 data = 0xa kind = UVM_READ status = UVM_IS_OK
# UVM_INFO /ictc/other/tools/QuestaDVA/questasim/verilog_src/uvm-1.2/src/reg/uvm_reg_predictor.svh(225) @ 495000: uvm_test_top.env.ahb_predictor [REG_PREDICT] Observed READ transaction to register regmodel.FSR: value='ha
# UVM_INFO ./../regmodel/uart_reg2ahb_adapter.sv(42) @ 505000: reporter [uart_reg2ahb_adapter] bus2reg: address = 0x14 data = 0xa kind = UVM_READ status = UVM_IS_OK
# UVM_INFO /ictc/other/tools/QuestaDVA/questasim/verilog_src/uvm-1.2/src/reg/uvm_reg_predictor.svh(225) @ 505000: uvm_test_top.env.ahb_predictor [REG_PREDICT] Observed READ transaction to register regmodel.FSR: value='ha
# UVM_INFO ./../regmodel/uart_reg2ahb_adapter.sv(42) @ 515000: reporter [uart_reg2ahb_adapter] bus2reg: address = 0x14 data = 0xa kind = UVM_READ status = UVM_IS_OK
# UVM_INFO /ictc/other/tools/QuestaDVA/questasim/verilog_src/uvm-1.2/src/reg/uvm_reg_predictor.svh(225) @ 515000: uvm_test_top.env.ahb_predictor [REG_PREDICT] Observed READ transaction to register regmodel.FSR: value='ha
# UVM_INFO ./../regmodel/uart_reg2ahb_adapter.sv(42) @ 525000: reporter [uart_reg2ahb_adapter] bus2reg: address = 0x14 data = 0xa kind = UVM_READ status = UVM_IS_OK
# UVM_INFO /ictc/other/tools/QuestaDVA/questasim/verilog_src/uvm-1.2/src/reg/uvm_reg_predictor.svh(225) @ 525000: uvm_test_top.env.ahb_predictor [REG_PREDICT] Observed READ transaction to register regmodel.FSR: value='ha
# UVM_INFO ./../regmodel/uart_reg2ahb_adapter.sv(42) @ 535000: reporter [uart_reg2ahb_adapter] bus2reg: address = 0x14 data = 0xa kind = UVM_READ status = UVM_IS_OK
# UVM_INFO /ictc/other/tools/QuestaDVA/questasim/verilog_src/uvm-1.2/src/reg/uvm_reg_predictor.svh(225) @ 535000: uvm_test_top.env.ahb_predictor [REG_PREDICT] Observed READ transaction to register regmodel.FSR: value='ha
# UVM_INFO ./../regmodel/uart_reg2ahb_adapter.sv(42) @ 545000: reporter [uart_reg2ahb_adapter] bus2reg: address = 0x14 data = 0xa kind = UVM_READ status = UVM_IS_OK
# UVM_INFO /ictc/other/tools/QuestaDVA/questasim/verilog_src/uvm-1.2/src/reg/uvm_reg_predictor.svh(225) @ 545000: uvm_test_top.env.ahb_predictor [REG_PREDICT] Observed READ transaction to register regmodel.FSR: value='ha
# UVM_INFO ./../regmodel/uart_reg2ahb_adapter.sv(42) @ 555000: reporter [uart_reg2ahb_adapter] bus2reg: address = 0x14 data = 0xa kind = UVM_READ status = UVM_IS_OK
# UVM_INFO /ictc/other/tools/QuestaDVA/questasim/verilog_src/uvm-1.2/src/reg/uvm_reg_predictor.svh(225) @ 555000: uvm_test_top.env.ahb_predictor [REG_PREDICT] Observed READ transaction to register regmodel.FSR: value='ha
# UVM_INFO ./../regmodel/uart_reg2ahb_adapter.sv(42) @ 565000: reporter [uart_reg2ahb_adapter] bus2reg: address = 0x14 data = 0xa kind = UVM_READ status = UVM_IS_OK
# UVM_INFO /ictc/other/tools/QuestaDVA/questasim/verilog_src/uvm-1.2/src/reg/uvm_reg_predictor.svh(225) @ 565000: uvm_test_top.env.ahb_predictor [REG_PREDICT] Observed READ transaction to register regmodel.FSR: value='ha
# UVM_INFO ./../regmodel/uart_reg2ahb_adapter.sv(42) @ 575000: reporter [uart_reg2ahb_adapter] bus2reg: address = 0x14 data = 0xa kind = UVM_READ status = UVM_IS_OK
# UVM_INFO /ictc/other/tools/QuestaDVA/questasim/verilog_src/uvm-1.2/src/reg/uvm_reg_predictor.svh(225) @ 575000: uvm_test_top.env.ahb_predictor [REG_PREDICT] Observed READ transaction to register regmodel.FSR: value='ha
# UVM_INFO ./../regmodel/uart_reg2ahb_adapter.sv(42) @ 585000: reporter [uart_reg2ahb_adapter] bus2reg: address = 0x14 data = 0xa kind = UVM_READ status = UVM_IS_OK
# UVM_INFO /ictc/other/tools/QuestaDVA/questasim/verilog_src/uvm-1.2/src/reg/uvm_reg_predictor.svh(225) @ 585000: uvm_test_top.env.ahb_predictor [REG_PREDICT] Observed READ transaction to register regmodel.FSR: value='ha
# UVM_INFO ./../regmodel/uart_reg2ahb_adapter.sv(42) @ 595000: reporter [uart_reg2ahb_adapter] bus2reg: address = 0x14 data = 0xa kind = UVM_READ status = UVM_IS_OK
# UVM_INFO /ictc/other/tools/QuestaDVA/questasim/verilog_src/uvm-1.2/src/reg/uvm_reg_predictor.svh(225) @ 595000: uvm_test_top.env.ahb_predictor [REG_PREDICT] Observed READ transaction to register regmodel.FSR: value='ha
# UVM_INFO ./../regmodel/uart_reg2ahb_adapter.sv(42) @ 606000: reporter [uart_reg2ahb_adapter] bus2reg: address = 0x14 data = 0xa kind = UVM_READ status = UVM_IS_OK
# UVM_INFO /ictc/other/tools/QuestaDVA/questasim/verilog_src/uvm-1.2/src/reg/uvm_reg_predictor.svh(225) @ 606000: uvm_test_top.env.ahb_predictor [REG_PREDICT] Observed READ transaction to register regmodel.FSR: value='ha
# UVM_INFO ./../regmodel/uart_reg2ahb_adapter.sv(42) @ 616000: reporter [uart_reg2ahb_adapter] bus2reg: address = 0x14 data = 0xa kind = UVM_READ status = UVM_IS_OK
# UVM_INFO /ictc/other/tools/QuestaDVA/questasim/verilog_src/uvm-1.2/src/reg/uvm_reg_predictor.svh(225) @ 616000: uvm_test_top.env.ahb_predictor [REG_PREDICT] Observed READ transaction to register regmodel.FSR: value='ha
# UVM_INFO ./../regmodel/uart_reg2ahb_adapter.sv(42) @ 626000: reporter [uart_reg2ahb_adapter] bus2reg: address = 0x14 data = 0xa kind = UVM_READ status = UVM_IS_OK
# UVM_INFO /ictc/other/tools/QuestaDVA/questasim/verilog_src/uvm-1.2/src/reg/uvm_reg_predictor.svh(225) @ 626000: uvm_test_top.env.ahb_predictor [REG_PREDICT] Observed READ transaction to register regmodel.FSR: value='ha
# UVM_INFO ./../regmodel/uart_reg2ahb_adapter.sv(42) @ 636000: reporter [uart_reg2ahb_adapter] bus2reg: address = 0x14 data = 0xa kind = UVM_READ status = UVM_IS_OK
# UVM_INFO /ictc/other/tools/QuestaDVA/questasim/verilog_src/uvm-1.2/src/reg/uvm_reg_predictor.svh(225) @ 636000: uvm_test_top.env.ahb_predictor [REG_PREDICT] Observed READ transaction to register regmodel.FSR: value='ha
# UVM_INFO ./../regmodel/uart_reg2ahb_adapter.sv(42) @ 646000: reporter [uart_reg2ahb_adapter] bus2reg: address = 0x14 data = 0xa kind = UVM_READ status = UVM_IS_OK
# UVM_INFO /ictc/other/tools/QuestaDVA/questasim/verilog_src/uvm-1.2/src/reg/uvm_reg_predictor.svh(225) @ 646000: uvm_test_top.env.ahb_predictor [REG_PREDICT] Observed READ transaction to register regmodel.FSR: value='ha
# UVM_INFO ./../regmodel/uart_reg2ahb_adapter.sv(42) @ 656000: reporter [uart_reg2ahb_adapter] bus2reg: address = 0x14 data = 0xa kind = UVM_READ status = UVM_IS_OK
# UVM_INFO /ictc/other/tools/QuestaDVA/questasim/verilog_src/uvm-1.2/src/reg/uvm_reg_predictor.svh(225) @ 656000: uvm_test_top.env.ahb_predictor [REG_PREDICT] Observed READ transaction to register regmodel.FSR: value='ha
# UVM_INFO ./../regmodel/uart_reg2ahb_adapter.sv(42) @ 666000: reporter [uart_reg2ahb_adapter] bus2reg: address = 0x14 data = 0xa kind = UVM_READ status = UVM_IS_OK
# UVM_INFO /ictc/other/tools/QuestaDVA/questasim/verilog_src/uvm-1.2/src/reg/uvm_reg_predictor.svh(225) @ 666000: uvm_test_top.env.ahb_predictor [REG_PREDICT] Observed READ transaction to register regmodel.FSR: value='ha
# UVM_INFO ./../regmodel/uart_reg2ahb_adapter.sv(42) @ 676000: reporter [uart_reg2ahb_adapter] bus2reg: address = 0x14 data = 0xa kind = UVM_READ status = UVM_IS_OK
# UVM_INFO /ictc/other/tools/QuestaDVA/questasim/verilog_src/uvm-1.2/src/reg/uvm_reg_predictor.svh(225) @ 676000: uvm_test_top.env.ahb_predictor [REG_PREDICT] Observed READ transaction to register regmodel.FSR: value='ha
# UVM_INFO ./../regmodel/uart_reg2ahb_adapter.sv(42) @ 686000: reporter [uart_reg2ahb_adapter] bus2reg: address = 0x14 data = 0xa kind = UVM_READ status = UVM_IS_OK
# UVM_INFO /ictc/other/tools/QuestaDVA/questasim/verilog_src/uvm-1.2/src/reg/uvm_reg_predictor.svh(225) @ 686000: uvm_test_top.env.ahb_predictor [REG_PREDICT] Observed READ transaction to register regmodel.FSR: value='ha
# UVM_INFO ./../regmodel/uart_reg2ahb_adapter.sv(42) @ 696000: reporter [uart_reg2ahb_adapter] bus2reg: address = 0x14 data = 0xa kind = UVM_READ status = UVM_IS_OK
# UVM_INFO /ictc/other/tools/QuestaDVA/questasim/verilog_src/uvm-1.2/src/reg/uvm_reg_predictor.svh(225) @ 696000: uvm_test_top.env.ahb_predictor [REG_PREDICT] Observed READ transaction to register regmodel.FSR: value='ha
# UVM_INFO ./../regmodel/uart_reg2ahb_adapter.sv(42) @ 706000: reporter [uart_reg2ahb_adapter] bus2reg: address = 0x14 data = 0xa kind = UVM_READ status = UVM_IS_OK
# UVM_INFO /ictc/other/tools/QuestaDVA/questasim/verilog_src/uvm-1.2/src/reg/uvm_reg_predictor.svh(225) @ 706000: uvm_test_top.env.ahb_predictor [REG_PREDICT] Observed READ transaction to register regmodel.FSR: value='ha
# UVM_INFO ./../regmodel/uart_reg2ahb_adapter.sv(42) @ 716000: reporter [uart_reg2ahb_adapter] bus2reg: address = 0x14 data = 0xa kind = UVM_READ status = UVM_IS_OK
# UVM_INFO /ictc/other/tools/QuestaDVA/questasim/verilog_src/uvm-1.2/src/reg/uvm_reg_predictor.svh(225) @ 716000: uvm_test_top.env.ahb_predictor [REG_PREDICT] Observed READ transaction to register regmodel.FSR: value='ha
# UVM_INFO ./../regmodel/uart_reg2ahb_adapter.sv(42) @ 726000: reporter [uart_reg2ahb_adapter] bus2reg: address = 0x14 data = 0xa kind = UVM_READ status = UVM_IS_OK
# UVM_INFO /ictc/other/tools/QuestaDVA/questasim/verilog_src/uvm-1.2/src/reg/uvm_reg_predictor.svh(225) @ 726000: uvm_test_top.env.ahb_predictor [REG_PREDICT] Observed READ transaction to register regmodel.FSR: value='ha
# UVM_INFO ./../regmodel/uart_reg2ahb_adapter.sv(42) @ 737000: reporter [uart_reg2ahb_adapter] bus2reg: address = 0x14 data = 0xa kind = UVM_READ status = UVM_IS_OK
# UVM_INFO /ictc/other/tools/QuestaDVA/questasim/verilog_src/uvm-1.2/src/reg/uvm_reg_predictor.svh(225) @ 737000: uvm_test_top.env.ahb_predictor [REG_PREDICT] Observed READ transaction to register regmodel.FSR: value='ha
# UVM_INFO ./../regmodel/uart_reg2ahb_adapter.sv(42) @ 747000: reporter [uart_reg2ahb_adapter] bus2reg: address = 0x14 data = 0xa kind = UVM_READ status = UVM_IS_OK
# UVM_INFO /ictc/other/tools/QuestaDVA/questasim/verilog_src/uvm-1.2/src/reg/uvm_reg_predictor.svh(225) @ 747000: uvm_test_top.env.ahb_predictor [REG_PREDICT] Observed READ transaction to register regmodel.FSR: value='ha
# UVM_INFO ./../regmodel/uart_reg2ahb_adapter.sv(42) @ 757000: reporter [uart_reg2ahb_adapter] bus2reg: address = 0x14 data = 0xa kind = UVM_READ status = UVM_IS_OK
# UVM_INFO /ictc/other/tools/QuestaDVA/questasim/verilog_src/uvm-1.2/src/reg/uvm_reg_predictor.svh(225) @ 757000: uvm_test_top.env.ahb_predictor [REG_PREDICT] Observed READ transaction to register regmodel.FSR: value='ha
# UVM_INFO ./../regmodel/uart_reg2ahb_adapter.sv(42) @ 767000: reporter [uart_reg2ahb_adapter] bus2reg: address = 0x14 data = 0xa kind = UVM_READ status = UVM_IS_OK
# UVM_INFO /ictc/other/tools/QuestaDVA/questasim/verilog_src/uvm-1.2/src/reg/uvm_reg_predictor.svh(225) @ 767000: uvm_test_top.env.ahb_predictor [REG_PREDICT] Observed READ transaction to register regmodel.FSR: value='ha
# UVM_INFO ./../regmodel/uart_reg2ahb_adapter.sv(42) @ 777000: reporter [uart_reg2ahb_adapter] bus2reg: address = 0x14 data = 0xa kind = UVM_READ status = UVM_IS_OK
# UVM_INFO /ictc/other/tools/QuestaDVA/questasim/verilog_src/uvm-1.2/src/reg/uvm_reg_predictor.svh(225) @ 777000: uvm_test_top.env.ahb_predictor [REG_PREDICT] Observed READ transaction to register regmodel.FSR: value='ha
# UVM_INFO ./../regmodel/uart_reg2ahb_adapter.sv(42) @ 787000: reporter [uart_reg2ahb_adapter] bus2reg: address = 0x14 data = 0xa kind = UVM_READ status = UVM_IS_OK
# UVM_INFO /ictc/other/tools/QuestaDVA/questasim/verilog_src/uvm-1.2/src/reg/uvm_reg_predictor.svh(225) @ 787000: uvm_test_top.env.ahb_predictor [REG_PREDICT] Observed READ transaction to register regmodel.FSR: value='ha
# UVM_INFO ./../regmodel/uart_reg2ahb_adapter.sv(42) @ 797000: reporter [uart_reg2ahb_adapter] bus2reg: address = 0x14 data = 0xa kind = UVM_READ status = UVM_IS_OK
# UVM_INFO /ictc/other/tools/QuestaDVA/questasim/verilog_src/uvm-1.2/src/reg/uvm_reg_predictor.svh(225) @ 797000: uvm_test_top.env.ahb_predictor [REG_PREDICT] Observed READ transaction to register regmodel.FSR: value='ha
# UVM_INFO ./../regmodel/uart_reg2ahb_adapter.sv(42) @ 807000: reporter [uart_reg2ahb_adapter] bus2reg: address = 0x14 data = 0xa kind = UVM_READ status = UVM_IS_OK
# UVM_INFO /ictc/other/tools/QuestaDVA/questasim/verilog_src/uvm-1.2/src/reg/uvm_reg_predictor.svh(225) @ 807000: uvm_test_top.env.ahb_predictor [REG_PREDICT] Observed READ transaction to register regmodel.FSR: value='ha
# UVM_INFO ./../regmodel/uart_reg2ahb_adapter.sv(42) @ 817000: reporter [uart_reg2ahb_adapter] bus2reg: address = 0x14 data = 0xa kind = UVM_READ status = UVM_IS_OK
# UVM_INFO /ictc/other/tools/QuestaDVA/questasim/verilog_src/uvm-1.2/src/reg/uvm_reg_predictor.svh(225) @ 817000: uvm_test_top.env.ahb_predictor [REG_PREDICT] Observed READ transaction to register regmodel.FSR: value='ha
# UVM_INFO ./../regmodel/uart_reg2ahb_adapter.sv(42) @ 827000: reporter [uart_reg2ahb_adapter] bus2reg: address = 0x14 data = 0xa kind = UVM_READ status = UVM_IS_OK
# UVM_INFO /ictc/other/tools/QuestaDVA/questasim/verilog_src/uvm-1.2/src/reg/uvm_reg_predictor.svh(225) @ 827000: uvm_test_top.env.ahb_predictor [REG_PREDICT] Observed READ transaction to register regmodel.FSR: value='ha
# UVM_INFO ./../regmodel/uart_reg2ahb_adapter.sv(42) @ 837000: reporter [uart_reg2ahb_adapter] bus2reg: address = 0x14 data = 0xa kind = UVM_READ status = UVM_IS_OK
# UVM_INFO /ictc/other/tools/QuestaDVA/questasim/verilog_src/uvm-1.2/src/reg/uvm_reg_predictor.svh(225) @ 837000: uvm_test_top.env.ahb_predictor [REG_PREDICT] Observed READ transaction to register regmodel.FSR: value='ha
# UVM_INFO ./../regmodel/uart_reg2ahb_adapter.sv(42) @ 847000: reporter [uart_reg2ahb_adapter] bus2reg: address = 0x14 data = 0xa kind = UVM_READ status = UVM_IS_OK
# UVM_INFO /ictc/other/tools/QuestaDVA/questasim/verilog_src/uvm-1.2/src/reg/uvm_reg_predictor.svh(225) @ 847000: uvm_test_top.env.ahb_predictor [REG_PREDICT] Observed READ transaction to register regmodel.FSR: value='ha
# UVM_INFO ./../regmodel/uart_reg2ahb_adapter.sv(42) @ 858000: reporter [uart_reg2ahb_adapter] bus2reg: address = 0x14 data = 0xa kind = UVM_READ status = UVM_IS_OK
# UVM_INFO /ictc/other/tools/QuestaDVA/questasim/verilog_src/uvm-1.2/src/reg/uvm_reg_predictor.svh(225) @ 858000: uvm_test_top.env.ahb_predictor [REG_PREDICT] Observed READ transaction to register regmodel.FSR: value='ha
# UVM_INFO ./../regmodel/uart_reg2ahb_adapter.sv(42) @ 868000: reporter [uart_reg2ahb_adapter] bus2reg: address = 0x14 data = 0xa kind = UVM_READ status = UVM_IS_OK
# UVM_INFO /ictc/other/tools/QuestaDVA/questasim/verilog_src/uvm-1.2/src/reg/uvm_reg_predictor.svh(225) @ 868000: uvm_test_top.env.ahb_predictor [REG_PREDICT] Observed READ transaction to register regmodel.FSR: value='ha
# UVM_INFO ./../regmodel/uart_reg2ahb_adapter.sv(42) @ 878000: reporter [uart_reg2ahb_adapter] bus2reg: address = 0x14 data = 0xa kind = UVM_READ status = UVM_IS_OK
# UVM_INFO /ictc/other/tools/QuestaDVA/questasim/verilog_src/uvm-1.2/src/reg/uvm_reg_predictor.svh(225) @ 878000: uvm_test_top.env.ahb_predictor [REG_PREDICT] Observed READ transaction to register regmodel.FSR: value='ha
# UVM_INFO ./../regmodel/uart_reg2ahb_adapter.sv(42) @ 888000: reporter [uart_reg2ahb_adapter] bus2reg: address = 0x14 data = 0xa kind = UVM_READ status = UVM_IS_OK
# UVM_INFO /ictc/other/tools/QuestaDVA/questasim/verilog_src/uvm-1.2/src/reg/uvm_reg_predictor.svh(225) @ 888000: uvm_test_top.env.ahb_predictor [REG_PREDICT] Observed READ transaction to register regmodel.FSR: value='ha
# UVM_INFO ./../regmodel/uart_reg2ahb_adapter.sv(42) @ 898000: reporter [uart_reg2ahb_adapter] bus2reg: address = 0x14 data = 0xa kind = UVM_READ status = UVM_IS_OK
# UVM_INFO /ictc/other/tools/QuestaDVA/questasim/verilog_src/uvm-1.2/src/reg/uvm_reg_predictor.svh(225) @ 898000: uvm_test_top.env.ahb_predictor [REG_PREDICT] Observed READ transaction to register regmodel.FSR: value='ha
# UVM_INFO ./../regmodel/uart_reg2ahb_adapter.sv(42) @ 908000: reporter [uart_reg2ahb_adapter] bus2reg: address = 0x14 data = 0xa kind = UVM_READ status = UVM_IS_OK
# UVM_INFO /ictc/other/tools/QuestaDVA/questasim/verilog_src/uvm-1.2/src/reg/uvm_reg_predictor.svh(225) @ 908000: uvm_test_top.env.ahb_predictor [REG_PREDICT] Observed READ transaction to register regmodel.FSR: value='ha
# UVM_INFO ./../regmodel/uart_reg2ahb_adapter.sv(42) @ 918000: reporter [uart_reg2ahb_adapter] bus2reg: address = 0x14 data = 0xa kind = UVM_READ status = UVM_IS_OK
# UVM_INFO /ictc/other/tools/QuestaDVA/questasim/verilog_src/uvm-1.2/src/reg/uvm_reg_predictor.svh(225) @ 918000: uvm_test_top.env.ahb_predictor [REG_PREDICT] Observed READ transaction to register regmodel.FSR: value='ha
# UVM_INFO ./../regmodel/uart_reg2ahb_adapter.sv(42) @ 928000: reporter [uart_reg2ahb_adapter] bus2reg: address = 0x14 data = 0xa kind = UVM_READ status = UVM_IS_OK
# UVM_INFO /ictc/other/tools/QuestaDVA/questasim/verilog_src/uvm-1.2/src/reg/uvm_reg_predictor.svh(225) @ 928000: uvm_test_top.env.ahb_predictor [REG_PREDICT] Observed READ transaction to register regmodel.FSR: value='ha
# UVM_INFO ./../regmodel/uart_reg2ahb_adapter.sv(42) @ 938000: reporter [uart_reg2ahb_adapter] bus2reg: address = 0x14 data = 0xa kind = UVM_READ status = UVM_IS_OK
# UVM_INFO /ictc/other/tools/QuestaDVA/questasim/verilog_src/uvm-1.2/src/reg/uvm_reg_predictor.svh(225) @ 938000: uvm_test_top.env.ahb_predictor [REG_PREDICT] Observed READ transaction to register regmodel.FSR: value='ha
# UVM_INFO ./../regmodel/uart_reg2ahb_adapter.sv(42) @ 948000: reporter [uart_reg2ahb_adapter] bus2reg: address = 0x14 data = 0xa kind = UVM_READ status = UVM_IS_OK
# UVM_INFO /ictc/other/tools/QuestaDVA/questasim/verilog_src/uvm-1.2/src/reg/uvm_reg_predictor.svh(225) @ 948000: uvm_test_top.env.ahb_predictor [REG_PREDICT] Observed READ transaction to register regmodel.FSR: value='ha
# UVM_INFO ./../regmodel/uart_reg2ahb_adapter.sv(42) @ 958000: reporter [uart_reg2ahb_adapter] bus2reg: address = 0x14 data = 0xa kind = UVM_READ status = UVM_IS_OK
# UVM_INFO /ictc/other/tools/QuestaDVA/questasim/verilog_src/uvm-1.2/src/reg/uvm_reg_predictor.svh(225) @ 958000: uvm_test_top.env.ahb_predictor [REG_PREDICT] Observed READ transaction to register regmodel.FSR: value='ha
# UVM_INFO ./../regmodel/uart_reg2ahb_adapter.sv(42) @ 968000: reporter [uart_reg2ahb_adapter] bus2reg: address = 0x14 data = 0xa kind = UVM_READ status = UVM_IS_OK
# UVM_INFO /ictc/other/tools/QuestaDVA/questasim/verilog_src/uvm-1.2/src/reg/uvm_reg_predictor.svh(225) @ 968000: uvm_test_top.env.ahb_predictor [REG_PREDICT] Observed READ transaction to register regmodel.FSR: value='ha
# UVM_INFO ./../regmodel/uart_reg2ahb_adapter.sv(42) @ 978000: reporter [uart_reg2ahb_adapter] bus2reg: address = 0x14 data = 0xa kind = UVM_READ status = UVM_IS_OK
# UVM_INFO /ictc/other/tools/QuestaDVA/questasim/verilog_src/uvm-1.2/src/reg/uvm_reg_predictor.svh(225) @ 978000: uvm_test_top.env.ahb_predictor [REG_PREDICT] Observed READ transaction to register regmodel.FSR: value='ha
# UVM_INFO ./../regmodel/uart_reg2ahb_adapter.sv(42) @ 989000: reporter [uart_reg2ahb_adapter] bus2reg: address = 0x14 data = 0xa kind = UVM_READ status = UVM_IS_OK
# UVM_INFO /ictc/other/tools/QuestaDVA/questasim/verilog_src/uvm-1.2/src/reg/uvm_reg_predictor.svh(225) @ 989000: uvm_test_top.env.ahb_predictor [REG_PREDICT] Observed READ transaction to register regmodel.FSR: value='ha
# UVM_INFO ./../regmodel/uart_reg2ahb_adapter.sv(42) @ 999000: reporter [uart_reg2ahb_adapter] bus2reg: address = 0x14 data = 0xa kind = UVM_READ status = UVM_IS_OK
# UVM_INFO /ictc/other/tools/QuestaDVA/questasim/verilog_src/uvm-1.2/src/reg/uvm_reg_predictor.svh(225) @ 999000: uvm_test_top.env.ahb_predictor [REG_PREDICT] Observed READ transaction to register regmodel.FSR: value='ha
# UVM_INFO ./../regmodel/uart_reg2ahb_adapter.sv(42) @ 1009000: reporter [uart_reg2ahb_adapter] bus2reg: address = 0x14 data = 0xa kind = UVM_READ status = UVM_IS_OK
# UVM_INFO /ictc/other/tools/QuestaDVA/questasim/verilog_src/uvm-1.2/src/reg/uvm_reg_predictor.svh(225) @ 1009000: uvm_test_top.env.ahb_predictor [REG_PREDICT] Observed READ transaction to register regmodel.FSR: value='ha
# UVM_INFO ./../regmodel/uart_reg2ahb_adapter.sv(42) @ 1019000: reporter [uart_reg2ahb_adapter] bus2reg: address = 0x14 data = 0xa kind = UVM_READ status = UVM_IS_OK
# UVM_INFO /ictc/other/tools/QuestaDVA/questasim/verilog_src/uvm-1.2/src/reg/uvm_reg_predictor.svh(225) @ 1019000: uvm_test_top.env.ahb_predictor [REG_PREDICT] Observed READ transaction to register regmodel.FSR: value='ha
# UVM_INFO ./../regmodel/uart_reg2ahb_adapter.sv(42) @ 1029000: reporter [uart_reg2ahb_adapter] bus2reg: address = 0x14 data = 0xa kind = UVM_READ status = UVM_IS_OK
# UVM_INFO /ictc/other/tools/QuestaDVA/questasim/verilog_src/uvm-1.2/src/reg/uvm_reg_predictor.svh(225) @ 1029000: uvm_test_top.env.ahb_predictor [REG_PREDICT] Observed READ transaction to register regmodel.FSR: value='ha
# UVM_INFO ./../regmodel/uart_reg2ahb_adapter.sv(42) @ 1039000: reporter [uart_reg2ahb_adapter] bus2reg: address = 0x14 data = 0xa kind = UVM_READ status = UVM_IS_OK
# UVM_INFO /ictc/other/tools/QuestaDVA/questasim/verilog_src/uvm-1.2/src/reg/uvm_reg_predictor.svh(225) @ 1039000: uvm_test_top.env.ahb_predictor [REG_PREDICT] Observed READ transaction to register regmodel.FSR: value='ha
# UVM_INFO ./../regmodel/uart_reg2ahb_adapter.sv(42) @ 1049000: reporter [uart_reg2ahb_adapter] bus2reg: address = 0x14 data = 0xa kind = UVM_READ status = UVM_IS_OK
# UVM_INFO /ictc/other/tools/QuestaDVA/questasim/verilog_src/uvm-1.2/src/reg/uvm_reg_predictor.svh(225) @ 1049000: uvm_test_top.env.ahb_predictor [REG_PREDICT] Observed READ transaction to register regmodel.FSR: value='ha
# UVM_INFO ./../regmodel/uart_reg2ahb_adapter.sv(42) @ 1059000: reporter [uart_reg2ahb_adapter] bus2reg: address = 0x14 data = 0xa kind = UVM_READ status = UVM_IS_OK
# UVM_INFO /ictc/other/tools/QuestaDVA/questasim/verilog_src/uvm-1.2/src/reg/uvm_reg_predictor.svh(225) @ 1059000: uvm_test_top.env.ahb_predictor [REG_PREDICT] Observed READ transaction to register regmodel.FSR: value='ha
# UVM_INFO ./../regmodel/uart_reg2ahb_adapter.sv(42) @ 1069000: reporter [uart_reg2ahb_adapter] bus2reg: address = 0x14 data = 0xa kind = UVM_READ status = UVM_IS_OK
# UVM_INFO /ictc/other/tools/QuestaDVA/questasim/verilog_src/uvm-1.2/src/reg/uvm_reg_predictor.svh(225) @ 1069000: uvm_test_top.env.ahb_predictor [REG_PREDICT] Observed READ transaction to register regmodel.FSR: value='ha
# UVM_INFO ./../regmodel/uart_reg2ahb_adapter.sv(42) @ 1079000: reporter [uart_reg2ahb_adapter] bus2reg: address = 0x14 data = 0xa kind = UVM_READ status = UVM_IS_OK
# UVM_INFO /ictc/other/tools/QuestaDVA/questasim/verilog_src/uvm-1.2/src/reg/uvm_reg_predictor.svh(225) @ 1079000: uvm_test_top.env.ahb_predictor [REG_PREDICT] Observed READ transaction to register regmodel.FSR: value='ha
# UVM_INFO ./../regmodel/uart_reg2ahb_adapter.sv(42) @ 1089000: reporter [uart_reg2ahb_adapter] bus2reg: address = 0x14 data = 0xa kind = UVM_READ status = UVM_IS_OK
# UVM_INFO /ictc/other/tools/QuestaDVA/questasim/verilog_src/uvm-1.2/src/reg/uvm_reg_predictor.svh(225) @ 1089000: uvm_test_top.env.ahb_predictor [REG_PREDICT] Observed READ transaction to register regmodel.FSR: value='ha
# UVM_INFO ./../regmodel/uart_reg2ahb_adapter.sv(42) @ 1099000: reporter [uart_reg2ahb_adapter] bus2reg: address = 0x14 data = 0xa kind = UVM_READ status = UVM_IS_OK
# UVM_INFO /ictc/other/tools/QuestaDVA/questasim/verilog_src/uvm-1.2/src/reg/uvm_reg_predictor.svh(225) @ 1099000: uvm_test_top.env.ahb_predictor [REG_PREDICT] Observed READ transaction to register regmodel.FSR: value='ha
# UVM_INFO ./../regmodel/uart_reg2ahb_adapter.sv(42) @ 1110000: reporter [uart_reg2ahb_adapter] bus2reg: address = 0x14 data = 0xa kind = UVM_READ status = UVM_IS_OK
# UVM_INFO /ictc/other/tools/QuestaDVA/questasim/verilog_src/uvm-1.2/src/reg/uvm_reg_predictor.svh(225) @ 1110000: uvm_test_top.env.ahb_predictor [REG_PREDICT] Observed READ transaction to register regmodel.FSR: value='ha
# UVM_INFO ./../regmodel/uart_reg2ahb_adapter.sv(42) @ 1120000: reporter [uart_reg2ahb_adapter] bus2reg: address = 0x14 data = 0xa kind = UVM_READ status = UVM_IS_OK
# UVM_INFO /ictc/other/tools/QuestaDVA/questasim/verilog_src/uvm-1.2/src/reg/uvm_reg_predictor.svh(225) @ 1120000: uvm_test_top.env.ahb_predictor [REG_PREDICT] Observed READ transaction to register regmodel.FSR: value='ha
# UVM_INFO ./../regmodel/uart_reg2ahb_adapter.sv(42) @ 1130000: reporter [uart_reg2ahb_adapter] bus2reg: address = 0x14 data = 0xa kind = UVM_READ status = UVM_IS_OK
# UVM_INFO /ictc/other/tools/QuestaDVA/questasim/verilog_src/uvm-1.2/src/reg/uvm_reg_predictor.svh(225) @ 1130000: uvm_test_top.env.ahb_predictor [REG_PREDICT] Observed READ transaction to register regmodel.FSR: value='ha
# UVM_INFO ./../regmodel/uart_reg2ahb_adapter.sv(42) @ 1140000: reporter [uart_reg2ahb_adapter] bus2reg: address = 0x14 data = 0xa kind = UVM_READ status = UVM_IS_OK
# UVM_INFO /ictc/other/tools/QuestaDVA/questasim/verilog_src/uvm-1.2/src/reg/uvm_reg_predictor.svh(225) @ 1140000: uvm_test_top.env.ahb_predictor [REG_PREDICT] Observed READ transaction to register regmodel.FSR: value='ha
# UVM_INFO ./../regmodel/uart_reg2ahb_adapter.sv(42) @ 1150000: reporter [uart_reg2ahb_adapter] bus2reg: address = 0x14 data = 0xa kind = UVM_READ status = UVM_IS_OK
# UVM_INFO /ictc/other/tools/QuestaDVA/questasim/verilog_src/uvm-1.2/src/reg/uvm_reg_predictor.svh(225) @ 1150000: uvm_test_top.env.ahb_predictor [REG_PREDICT] Observed READ transaction to register regmodel.FSR: value='ha
# UVM_INFO ./../regmodel/uart_reg2ahb_adapter.sv(42) @ 1160000: reporter [uart_reg2ahb_adapter] bus2reg: address = 0x14 data = 0xa kind = UVM_READ status = UVM_IS_OK
# UVM_INFO /ictc/other/tools/QuestaDVA/questasim/verilog_src/uvm-1.2/src/reg/uvm_reg_predictor.svh(225) @ 1160000: uvm_test_top.env.ahb_predictor [REG_PREDICT] Observed READ transaction to register regmodel.FSR: value='ha
# UVM_INFO ./../regmodel/uart_reg2ahb_adapter.sv(42) @ 1170000: reporter [uart_reg2ahb_adapter] bus2reg: address = 0x14 data = 0xa kind = UVM_READ status = UVM_IS_OK
# UVM_INFO /ictc/other/tools/QuestaDVA/questasim/verilog_src/uvm-1.2/src/reg/uvm_reg_predictor.svh(225) @ 1170000: uvm_test_top.env.ahb_predictor [REG_PREDICT] Observed READ transaction to register regmodel.FSR: value='ha
# UVM_INFO ./../regmodel/uart_reg2ahb_adapter.sv(42) @ 1180000: reporter [uart_reg2ahb_adapter] bus2reg: address = 0x14 data = 0xa kind = UVM_READ status = UVM_IS_OK
# UVM_INFO /ictc/other/tools/QuestaDVA/questasim/verilog_src/uvm-1.2/src/reg/uvm_reg_predictor.svh(225) @ 1180000: uvm_test_top.env.ahb_predictor [REG_PREDICT] Observed READ transaction to register regmodel.FSR: value='ha
# UVM_INFO ./../regmodel/uart_reg2ahb_adapter.sv(42) @ 1190000: reporter [uart_reg2ahb_adapter] bus2reg: address = 0x14 data = 0xa kind = UVM_READ status = UVM_IS_OK
# UVM_INFO /ictc/other/tools/QuestaDVA/questasim/verilog_src/uvm-1.2/src/reg/uvm_reg_predictor.svh(225) @ 1190000: uvm_test_top.env.ahb_predictor [REG_PREDICT] Observed READ transaction to register regmodel.FSR: value='ha
# UVM_INFO ./../regmodel/uart_reg2ahb_adapter.sv(42) @ 1200000: reporter [uart_reg2ahb_adapter] bus2reg: address = 0x14 data = 0xa kind = UVM_READ status = UVM_IS_OK
# UVM_INFO /ictc/other/tools/QuestaDVA/questasim/verilog_src/uvm-1.2/src/reg/uvm_reg_predictor.svh(225) @ 1200000: uvm_test_top.env.ahb_predictor [REG_PREDICT] Observed READ transaction to register regmodel.FSR: value='ha
# UVM_INFO ./../regmodel/uart_reg2ahb_adapter.sv(42) @ 1210000: reporter [uart_reg2ahb_adapter] bus2reg: address = 0x14 data = 0xa kind = UVM_READ status = UVM_IS_OK
# UVM_INFO /ictc/other/tools/QuestaDVA/questasim/verilog_src/uvm-1.2/src/reg/uvm_reg_predictor.svh(225) @ 1210000: uvm_test_top.env.ahb_predictor [REG_PREDICT] Observed READ transaction to register regmodel.FSR: value='ha
# UVM_INFO ./../regmodel/uart_reg2ahb_adapter.sv(42) @ 1220000: reporter [uart_reg2ahb_adapter] bus2reg: address = 0x14 data = 0xa kind = UVM_READ status = UVM_IS_OK
# UVM_INFO /ictc/other/tools/QuestaDVA/questasim/verilog_src/uvm-1.2/src/reg/uvm_reg_predictor.svh(225) @ 1220000: uvm_test_top.env.ahb_predictor [REG_PREDICT] Observed READ transaction to register regmodel.FSR: value='ha
# UVM_INFO ./../regmodel/uart_reg2ahb_adapter.sv(42) @ 1230000: reporter [uart_reg2ahb_adapter] bus2reg: address = 0x14 data = 0xa kind = UVM_READ status = UVM_IS_OK
# UVM_INFO /ictc/other/tools/QuestaDVA/questasim/verilog_src/uvm-1.2/src/reg/uvm_reg_predictor.svh(225) @ 1230000: uvm_test_top.env.ahb_predictor [REG_PREDICT] Observed READ transaction to register regmodel.FSR: value='ha
# UVM_INFO ./../regmodel/uart_reg2ahb_adapter.sv(42) @ 1241000: reporter [uart_reg2ahb_adapter] bus2reg: address = 0x14 data = 0xa kind = UVM_READ status = UVM_IS_OK
# UVM_INFO /ictc/other/tools/QuestaDVA/questasim/verilog_src/uvm-1.2/src/reg/uvm_reg_predictor.svh(225) @ 1241000: uvm_test_top.env.ahb_predictor [REG_PREDICT] Observed READ transaction to register regmodel.FSR: value='ha
# UVM_INFO ./../regmodel/uart_reg2ahb_adapter.sv(42) @ 1251000: reporter [uart_reg2ahb_adapter] bus2reg: address = 0x14 data = 0xa kind = UVM_READ status = UVM_IS_OK
# UVM_INFO /ictc/other/tools/QuestaDVA/questasim/verilog_src/uvm-1.2/src/reg/uvm_reg_predictor.svh(225) @ 1251000: uvm_test_top.env.ahb_predictor [REG_PREDICT] Observed READ transaction to register regmodel.FSR: value='ha
# UVM_INFO ./../regmodel/uart_reg2ahb_adapter.sv(42) @ 1261000: reporter [uart_reg2ahb_adapter] bus2reg: address = 0x14 data = 0xa kind = UVM_READ status = UVM_IS_OK
# UVM_INFO /ictc/other/tools/QuestaDVA/questasim/verilog_src/uvm-1.2/src/reg/uvm_reg_predictor.svh(225) @ 1261000: uvm_test_top.env.ahb_predictor [REG_PREDICT] Observed READ transaction to register regmodel.FSR: value='ha
# UVM_INFO ./../regmodel/uart_reg2ahb_adapter.sv(42) @ 1271000: reporter [uart_reg2ahb_adapter] bus2reg: address = 0x14 data = 0xa kind = UVM_READ status = UVM_IS_OK
# UVM_INFO /ictc/other/tools/QuestaDVA/questasim/verilog_src/uvm-1.2/src/reg/uvm_reg_predictor.svh(225) @ 1271000: uvm_test_top.env.ahb_predictor [REG_PREDICT] Observed READ transaction to register regmodel.FSR: value='ha
# UVM_INFO ./../regmodel/uart_reg2ahb_adapter.sv(42) @ 1281000: reporter [uart_reg2ahb_adapter] bus2reg: address = 0x14 data = 0xa kind = UVM_READ status = UVM_IS_OK
# UVM_INFO /ictc/other/tools/QuestaDVA/questasim/verilog_src/uvm-1.2/src/reg/uvm_reg_predictor.svh(225) @ 1281000: uvm_test_top.env.ahb_predictor [REG_PREDICT] Observed READ transaction to register regmodel.FSR: value='ha
# UVM_INFO ./../regmodel/uart_reg2ahb_adapter.sv(42) @ 1291000: reporter [uart_reg2ahb_adapter] bus2reg: address = 0x14 data = 0xa kind = UVM_READ status = UVM_IS_OK
# UVM_INFO /ictc/other/tools/QuestaDVA/questasim/verilog_src/uvm-1.2/src/reg/uvm_reg_predictor.svh(225) @ 1291000: uvm_test_top.env.ahb_predictor [REG_PREDICT] Observed READ transaction to register regmodel.FSR: value='ha
# UVM_INFO ./../regmodel/uart_reg2ahb_adapter.sv(42) @ 1301000: reporter [uart_reg2ahb_adapter] bus2reg: address = 0x14 data = 0xa kind = UVM_READ status = UVM_IS_OK
# UVM_INFO /ictc/other/tools/QuestaDVA/questasim/verilog_src/uvm-1.2/src/reg/uvm_reg_predictor.svh(225) @ 1301000: uvm_test_top.env.ahb_predictor [REG_PREDICT] Observed READ transaction to register regmodel.FSR: value='ha
# UVM_INFO ./../regmodel/uart_reg2ahb_adapter.sv(42) @ 1311000: reporter [uart_reg2ahb_adapter] bus2reg: address = 0x14 data = 0xa kind = UVM_READ status = UVM_IS_OK
# UVM_INFO /ictc/other/tools/QuestaDVA/questasim/verilog_src/uvm-1.2/src/reg/uvm_reg_predictor.svh(225) @ 1311000: uvm_test_top.env.ahb_predictor [REG_PREDICT] Observed READ transaction to register regmodel.FSR: value='ha
# UVM_INFO ./../regmodel/uart_reg2ahb_adapter.sv(42) @ 1321000: reporter [uart_reg2ahb_adapter] bus2reg: address = 0x14 data = 0xa kind = UVM_READ status = UVM_IS_OK
# UVM_INFO /ictc/other/tools/QuestaDVA/questasim/verilog_src/uvm-1.2/src/reg/uvm_reg_predictor.svh(225) @ 1321000: uvm_test_top.env.ahb_predictor [REG_PREDICT] Observed READ transaction to register regmodel.FSR: value='ha
# UVM_INFO ./../regmodel/uart_reg2ahb_adapter.sv(42) @ 1331000: reporter [uart_reg2ahb_adapter] bus2reg: address = 0x14 data = 0xa kind = UVM_READ status = UVM_IS_OK
# UVM_INFO /ictc/other/tools/QuestaDVA/questasim/verilog_src/uvm-1.2/src/reg/uvm_reg_predictor.svh(225) @ 1331000: uvm_test_top.env.ahb_predictor [REG_PREDICT] Observed READ transaction to register regmodel.FSR: value='ha
# UVM_INFO ./../regmodel/uart_reg2ahb_adapter.sv(42) @ 1341000: reporter [uart_reg2ahb_adapter] bus2reg: address = 0x14 data = 0xa kind = UVM_READ status = UVM_IS_OK
# UVM_INFO /ictc/other/tools/QuestaDVA/questasim/verilog_src/uvm-1.2/src/reg/uvm_reg_predictor.svh(225) @ 1341000: uvm_test_top.env.ahb_predictor [REG_PREDICT] Observed READ transaction to register regmodel.FSR: value='ha
# UVM_INFO ./../regmodel/uart_reg2ahb_adapter.sv(42) @ 1351000: reporter [uart_reg2ahb_adapter] bus2reg: address = 0x14 data = 0xa kind = UVM_READ status = UVM_IS_OK
# UVM_INFO /ictc/other/tools/QuestaDVA/questasim/verilog_src/uvm-1.2/src/reg/uvm_reg_predictor.svh(225) @ 1351000: uvm_test_top.env.ahb_predictor [REG_PREDICT] Observed READ transaction to register regmodel.FSR: value='ha
# UVM_INFO ./../regmodel/uart_reg2ahb_adapter.sv(42) @ 1362000: reporter [uart_reg2ahb_adapter] bus2reg: address = 0x14 data = 0xa kind = UVM_READ status = UVM_IS_OK
# UVM_INFO /ictc/other/tools/QuestaDVA/questasim/verilog_src/uvm-1.2/src/reg/uvm_reg_predictor.svh(225) @ 1362000: uvm_test_top.env.ahb_predictor [REG_PREDICT] Observed READ transaction to register regmodel.FSR: value='ha
# UVM_INFO ./../regmodel/uart_reg2ahb_adapter.sv(42) @ 1372000: reporter [uart_reg2ahb_adapter] bus2reg: address = 0x14 data = 0xa kind = UVM_READ status = UVM_IS_OK
# UVM_INFO /ictc/other/tools/QuestaDVA/questasim/verilog_src/uvm-1.2/src/reg/uvm_reg_predictor.svh(225) @ 1372000: uvm_test_top.env.ahb_predictor [REG_PREDICT] Observed READ transaction to register regmodel.FSR: value='ha
# UVM_INFO ./../regmodel/uart_reg2ahb_adapter.sv(42) @ 1382000: reporter [uart_reg2ahb_adapter] bus2reg: address = 0x14 data = 0xa kind = UVM_READ status = UVM_IS_OK
# UVM_INFO /ictc/other/tools/QuestaDVA/questasim/verilog_src/uvm-1.2/src/reg/uvm_reg_predictor.svh(225) @ 1382000: uvm_test_top.env.ahb_predictor [REG_PREDICT] Observed READ transaction to register regmodel.FSR: value='ha
# UVM_INFO ./../regmodel/uart_reg2ahb_adapter.sv(42) @ 1392000: reporter [uart_reg2ahb_adapter] bus2reg: address = 0x14 data = 0xa kind = UVM_READ status = UVM_IS_OK
# UVM_INFO /ictc/other/tools/QuestaDVA/questasim/verilog_src/uvm-1.2/src/reg/uvm_reg_predictor.svh(225) @ 1392000: uvm_test_top.env.ahb_predictor [REG_PREDICT] Observed READ transaction to register regmodel.FSR: value='ha
# UVM_INFO ./../regmodel/uart_reg2ahb_adapter.sv(42) @ 1402000: reporter [uart_reg2ahb_adapter] bus2reg: address = 0x14 data = 0xa kind = UVM_READ status = UVM_IS_OK
# UVM_INFO /ictc/other/tools/QuestaDVA/questasim/verilog_src/uvm-1.2/src/reg/uvm_reg_predictor.svh(225) @ 1402000: uvm_test_top.env.ahb_predictor [REG_PREDICT] Observed READ transaction to register regmodel.FSR: value='ha
# UVM_INFO ./../regmodel/uart_reg2ahb_adapter.sv(42) @ 1412000: reporter [uart_reg2ahb_adapter] bus2reg: address = 0x14 data = 0xa kind = UVM_READ status = UVM_IS_OK
# UVM_INFO /ictc/other/tools/QuestaDVA/questasim/verilog_src/uvm-1.2/src/reg/uvm_reg_predictor.svh(225) @ 1412000: uvm_test_top.env.ahb_predictor [REG_PREDICT] Observed READ transaction to register regmodel.FSR: value='ha
# UVM_INFO ./../regmodel/uart_reg2ahb_adapter.sv(42) @ 1422000: reporter [uart_reg2ahb_adapter] bus2reg: address = 0x14 data = 0xa kind = UVM_READ status = UVM_IS_OK
# UVM_INFO /ictc/other/tools/QuestaDVA/questasim/verilog_src/uvm-1.2/src/reg/uvm_reg_predictor.svh(225) @ 1422000: uvm_test_top.env.ahb_predictor [REG_PREDICT] Observed READ transaction to register regmodel.FSR: value='ha
# UVM_INFO ./../regmodel/uart_reg2ahb_adapter.sv(42) @ 1432000: reporter [uart_reg2ahb_adapter] bus2reg: address = 0x14 data = 0xa kind = UVM_READ status = UVM_IS_OK
# UVM_INFO /ictc/other/tools/QuestaDVA/questasim/verilog_src/uvm-1.2/src/reg/uvm_reg_predictor.svh(225) @ 1432000: uvm_test_top.env.ahb_predictor [REG_PREDICT] Observed READ transaction to register regmodel.FSR: value='ha
# UVM_INFO ./../regmodel/uart_reg2ahb_adapter.sv(42) @ 1442000: reporter [uart_reg2ahb_adapter] bus2reg: address = 0x14 data = 0xa kind = UVM_READ status = UVM_IS_OK
# UVM_INFO /ictc/other/tools/QuestaDVA/questasim/verilog_src/uvm-1.2/src/reg/uvm_reg_predictor.svh(225) @ 1442000: uvm_test_top.env.ahb_predictor [REG_PREDICT] Observed READ transaction to register regmodel.FSR: value='ha
# UVM_INFO ./../regmodel/uart_reg2ahb_adapter.sv(42) @ 1452000: reporter [uart_reg2ahb_adapter] bus2reg: address = 0x14 data = 0xa kind = UVM_READ status = UVM_IS_OK
# UVM_INFO /ictc/other/tools/QuestaDVA/questasim/verilog_src/uvm-1.2/src/reg/uvm_reg_predictor.svh(225) @ 1452000: uvm_test_top.env.ahb_predictor [REG_PREDICT] Observed READ transaction to register regmodel.FSR: value='ha
# UVM_INFO ./../regmodel/uart_reg2ahb_adapter.sv(42) @ 1462000: reporter [uart_reg2ahb_adapter] bus2reg: address = 0x14 data = 0xa kind = UVM_READ status = UVM_IS_OK
# UVM_INFO /ictc/other/tools/QuestaDVA/questasim/verilog_src/uvm-1.2/src/reg/uvm_reg_predictor.svh(225) @ 1462000: uvm_test_top.env.ahb_predictor [REG_PREDICT] Observed READ transaction to register regmodel.FSR: value='ha
# UVM_INFO ./../regmodel/uart_reg2ahb_adapter.sv(42) @ 1472000: reporter [uart_reg2ahb_adapter] bus2reg: address = 0x14 data = 0xa kind = UVM_READ status = UVM_IS_OK
# UVM_INFO /ictc/other/tools/QuestaDVA/questasim/verilog_src/uvm-1.2/src/reg/uvm_reg_predictor.svh(225) @ 1472000: uvm_test_top.env.ahb_predictor [REG_PREDICT] Observed READ transaction to register regmodel.FSR: value='ha
# UVM_INFO ./../regmodel/uart_reg2ahb_adapter.sv(42) @ 1482000: reporter [uart_reg2ahb_adapter] bus2reg: address = 0x14 data = 0xa kind = UVM_READ status = UVM_IS_OK
# UVM_INFO /ictc/other/tools/QuestaDVA/questasim/verilog_src/uvm-1.2/src/reg/uvm_reg_predictor.svh(225) @ 1482000: uvm_test_top.env.ahb_predictor [REG_PREDICT] Observed READ transaction to register regmodel.FSR: value='ha
# UVM_INFO ./../regmodel/uart_reg2ahb_adapter.sv(42) @ 1493000: reporter [uart_reg2ahb_adapter] bus2reg: address = 0x14 data = 0xa kind = UVM_READ status = UVM_IS_OK
# UVM_INFO /ictc/other/tools/QuestaDVA/questasim/verilog_src/uvm-1.2/src/reg/uvm_reg_predictor.svh(225) @ 1493000: uvm_test_top.env.ahb_predictor [REG_PREDICT] Observed READ transaction to register regmodel.FSR: value='ha
# UVM_INFO ./../regmodel/uart_reg2ahb_adapter.sv(42) @ 1503000: reporter [uart_reg2ahb_adapter] bus2reg: address = 0x14 data = 0xa kind = UVM_READ status = UVM_IS_OK
# UVM_INFO /ictc/other/tools/QuestaDVA/questasim/verilog_src/uvm-1.2/src/reg/uvm_reg_predictor.svh(225) @ 1503000: uvm_test_top.env.ahb_predictor [REG_PREDICT] Observed READ transaction to register regmodel.FSR: value='ha
# UVM_INFO ./../regmodel/uart_reg2ahb_adapter.sv(42) @ 1513000: reporter [uart_reg2ahb_adapter] bus2reg: address = 0x14 data = 0xa kind = UVM_READ status = UVM_IS_OK
# UVM_INFO /ictc/other/tools/QuestaDVA/questasim/verilog_src/uvm-1.2/src/reg/uvm_reg_predictor.svh(225) @ 1513000: uvm_test_top.env.ahb_predictor [REG_PREDICT] Observed READ transaction to register regmodel.FSR: value='ha
# UVM_INFO ./../regmodel/uart_reg2ahb_adapter.sv(42) @ 1523000: reporter [uart_reg2ahb_adapter] bus2reg: address = 0x14 data = 0xa kind = UVM_READ status = UVM_IS_OK
# UVM_INFO /ictc/other/tools/QuestaDVA/questasim/verilog_src/uvm-1.2/src/reg/uvm_reg_predictor.svh(225) @ 1523000: uvm_test_top.env.ahb_predictor [REG_PREDICT] Observed READ transaction to register regmodel.FSR: value='ha
# UVM_INFO ./../regmodel/uart_reg2ahb_adapter.sv(42) @ 1533000: reporter [uart_reg2ahb_adapter] bus2reg: address = 0x14 data = 0xa kind = UVM_READ status = UVM_IS_OK
# UVM_INFO /ictc/other/tools/QuestaDVA/questasim/verilog_src/uvm-1.2/src/reg/uvm_reg_predictor.svh(225) @ 1533000: uvm_test_top.env.ahb_predictor [REG_PREDICT] Observed READ transaction to register regmodel.FSR: value='ha
# UVM_INFO ./../regmodel/uart_reg2ahb_adapter.sv(42) @ 1543000: reporter [uart_reg2ahb_adapter] bus2reg: address = 0x14 data = 0xa kind = UVM_READ status = UVM_IS_OK
# UVM_INFO /ictc/other/tools/QuestaDVA/questasim/verilog_src/uvm-1.2/src/reg/uvm_reg_predictor.svh(225) @ 1543000: uvm_test_top.env.ahb_predictor [REG_PREDICT] Observed READ transaction to register regmodel.FSR: value='ha
# UVM_INFO ./../regmodel/uart_reg2ahb_adapter.sv(42) @ 1553000: reporter [uart_reg2ahb_adapter] bus2reg: address = 0x14 data = 0xa kind = UVM_READ status = UVM_IS_OK
# UVM_INFO /ictc/other/tools/QuestaDVA/questasim/verilog_src/uvm-1.2/src/reg/uvm_reg_predictor.svh(225) @ 1553000: uvm_test_top.env.ahb_predictor [REG_PREDICT] Observed READ transaction to register regmodel.FSR: value='ha
# UVM_INFO ./../regmodel/uart_reg2ahb_adapter.sv(42) @ 1563000: reporter [uart_reg2ahb_adapter] bus2reg: address = 0x14 data = 0xa kind = UVM_READ status = UVM_IS_OK
# UVM_INFO /ictc/other/tools/QuestaDVA/questasim/verilog_src/uvm-1.2/src/reg/uvm_reg_predictor.svh(225) @ 1563000: uvm_test_top.env.ahb_predictor [REG_PREDICT] Observed READ transaction to register regmodel.FSR: value='ha
# UVM_INFO ./../regmodel/uart_reg2ahb_adapter.sv(42) @ 1573000: reporter [uart_reg2ahb_adapter] bus2reg: address = 0x14 data = 0xa kind = UVM_READ status = UVM_IS_OK
# UVM_INFO /ictc/other/tools/QuestaDVA/questasim/verilog_src/uvm-1.2/src/reg/uvm_reg_predictor.svh(225) @ 1573000: uvm_test_top.env.ahb_predictor [REG_PREDICT] Observed READ transaction to register regmodel.FSR: value='ha
# UVM_INFO ./../regmodel/uart_reg2ahb_adapter.sv(42) @ 1583000: reporter [uart_reg2ahb_adapter] bus2reg: address = 0x14 data = 0xa kind = UVM_READ status = UVM_IS_OK
# UVM_INFO /ictc/other/tools/QuestaDVA/questasim/verilog_src/uvm-1.2/src/reg/uvm_reg_predictor.svh(225) @ 1583000: uvm_test_top.env.ahb_predictor [REG_PREDICT] Observed READ transaction to register regmodel.FSR: value='ha
# UVM_INFO ./../regmodel/uart_reg2ahb_adapter.sv(42) @ 1593000: reporter [uart_reg2ahb_adapter] bus2reg: address = 0x14 data = 0xa kind = UVM_READ status = UVM_IS_OK
# UVM_INFO /ictc/other/tools/QuestaDVA/questasim/verilog_src/uvm-1.2/src/reg/uvm_reg_predictor.svh(225) @ 1593000: uvm_test_top.env.ahb_predictor [REG_PREDICT] Observed READ transaction to register regmodel.FSR: value='ha
# UVM_INFO ./../regmodel/uart_reg2ahb_adapter.sv(42) @ 1603000: reporter [uart_reg2ahb_adapter] bus2reg: address = 0x14 data = 0xa kind = UVM_READ status = UVM_IS_OK
# UVM_INFO /ictc/other/tools/QuestaDVA/questasim/verilog_src/uvm-1.2/src/reg/uvm_reg_predictor.svh(225) @ 1603000: uvm_test_top.env.ahb_predictor [REG_PREDICT] Observed READ transaction to register regmodel.FSR: value='ha
# UVM_INFO ./../regmodel/uart_reg2ahb_adapter.sv(42) @ 1614000: reporter [uart_reg2ahb_adapter] bus2reg: address = 0x14 data = 0xa kind = UVM_READ status = UVM_IS_OK
# UVM_INFO /ictc/other/tools/QuestaDVA/questasim/verilog_src/uvm-1.2/src/reg/uvm_reg_predictor.svh(225) @ 1614000: uvm_test_top.env.ahb_predictor [REG_PREDICT] Observed READ transaction to register regmodel.FSR: value='ha
# UVM_INFO ./../regmodel/uart_reg2ahb_adapter.sv(42) @ 1624000: reporter [uart_reg2ahb_adapter] bus2reg: address = 0x14 data = 0xa kind = UVM_READ status = UVM_IS_OK
# UVM_INFO /ictc/other/tools/QuestaDVA/questasim/verilog_src/uvm-1.2/src/reg/uvm_reg_predictor.svh(225) @ 1624000: uvm_test_top.env.ahb_predictor [REG_PREDICT] Observed READ transaction to register regmodel.FSR: value='ha
# UVM_INFO ./../regmodel/uart_reg2ahb_adapter.sv(42) @ 1634000: reporter [uart_reg2ahb_adapter] bus2reg: address = 0x14 data = 0xa kind = UVM_READ status = UVM_IS_OK
# UVM_INFO /ictc/other/tools/QuestaDVA/questasim/verilog_src/uvm-1.2/src/reg/uvm_reg_predictor.svh(225) @ 1634000: uvm_test_top.env.ahb_predictor [REG_PREDICT] Observed READ transaction to register regmodel.FSR: value='ha
# UVM_INFO ./../regmodel/uart_reg2ahb_adapter.sv(42) @ 1644000: reporter [uart_reg2ahb_adapter] bus2reg: address = 0x14 data = 0xa kind = UVM_READ status = UVM_IS_OK
# UVM_INFO /ictc/other/tools/QuestaDVA/questasim/verilog_src/uvm-1.2/src/reg/uvm_reg_predictor.svh(225) @ 1644000: uvm_test_top.env.ahb_predictor [REG_PREDICT] Observed READ transaction to register regmodel.FSR: value='ha
# UVM_INFO ./../regmodel/uart_reg2ahb_adapter.sv(42) @ 1654000: reporter [uart_reg2ahb_adapter] bus2reg: address = 0x14 data = 0xa kind = UVM_READ status = UVM_IS_OK
# UVM_INFO /ictc/other/tools/QuestaDVA/questasim/verilog_src/uvm-1.2/src/reg/uvm_reg_predictor.svh(225) @ 1654000: uvm_test_top.env.ahb_predictor [REG_PREDICT] Observed READ transaction to register regmodel.FSR: value='ha
# UVM_INFO ./../regmodel/uart_reg2ahb_adapter.sv(42) @ 1664000: reporter [uart_reg2ahb_adapter] bus2reg: address = 0x14 data = 0xa kind = UVM_READ status = UVM_IS_OK
# UVM_INFO /ictc/other/tools/QuestaDVA/questasim/verilog_src/uvm-1.2/src/reg/uvm_reg_predictor.svh(225) @ 1664000: uvm_test_top.env.ahb_predictor [REG_PREDICT] Observed READ transaction to register regmodel.FSR: value='ha
# UVM_INFO ./../regmodel/uart_reg2ahb_adapter.sv(42) @ 1674000: reporter [uart_reg2ahb_adapter] bus2reg: address = 0x14 data = 0xa kind = UVM_READ status = UVM_IS_OK
# UVM_INFO /ictc/other/tools/QuestaDVA/questasim/verilog_src/uvm-1.2/src/reg/uvm_reg_predictor.svh(225) @ 1674000: uvm_test_top.env.ahb_predictor [REG_PREDICT] Observed READ transaction to register regmodel.FSR: value='ha
# UVM_INFO ./../regmodel/uart_reg2ahb_adapter.sv(42) @ 1684000: reporter [uart_reg2ahb_adapter] bus2reg: address = 0x14 data = 0xa kind = UVM_READ status = UVM_IS_OK
# UVM_INFO /ictc/other/tools/QuestaDVA/questasim/verilog_src/uvm-1.2/src/reg/uvm_reg_predictor.svh(225) @ 1684000: uvm_test_top.env.ahb_predictor [REG_PREDICT] Observed READ transaction to register regmodel.FSR: value='ha
# UVM_INFO ./../regmodel/uart_reg2ahb_adapter.sv(42) @ 1694000: reporter [uart_reg2ahb_adapter] bus2reg: address = 0x14 data = 0xa kind = UVM_READ status = UVM_IS_OK
# UVM_INFO /ictc/other/tools/QuestaDVA/questasim/verilog_src/uvm-1.2/src/reg/uvm_reg_predictor.svh(225) @ 1694000: uvm_test_top.env.ahb_predictor [REG_PREDICT] Observed READ transaction to register regmodel.FSR: value='ha
# UVM_INFO ./../regmodel/uart_reg2ahb_adapter.sv(42) @ 1704000: reporter [uart_reg2ahb_adapter] bus2reg: address = 0x14 data = 0xa kind = UVM_READ status = UVM_IS_OK
# UVM_INFO /ictc/other/tools/QuestaDVA/questasim/verilog_src/uvm-1.2/src/reg/uvm_reg_predictor.svh(225) @ 1704000: uvm_test_top.env.ahb_predictor [REG_PREDICT] Observed READ transaction to register regmodel.FSR: value='ha
# UVM_INFO ./../regmodel/uart_reg2ahb_adapter.sv(42) @ 1714000: reporter [uart_reg2ahb_adapter] bus2reg: address = 0x14 data = 0xa kind = UVM_READ status = UVM_IS_OK
# UVM_INFO /ictc/other/tools/QuestaDVA/questasim/verilog_src/uvm-1.2/src/reg/uvm_reg_predictor.svh(225) @ 1714000: uvm_test_top.env.ahb_predictor [REG_PREDICT] Observed READ transaction to register regmodel.FSR: value='ha
# UVM_INFO ./../regmodel/uart_reg2ahb_adapter.sv(42) @ 1724000: reporter [uart_reg2ahb_adapter] bus2reg: address = 0x14 data = 0xa kind = UVM_READ status = UVM_IS_OK
# UVM_INFO /ictc/other/tools/QuestaDVA/questasim/verilog_src/uvm-1.2/src/reg/uvm_reg_predictor.svh(225) @ 1724000: uvm_test_top.env.ahb_predictor [REG_PREDICT] Observed READ transaction to register regmodel.FSR: value='ha
# UVM_INFO ./../regmodel/uart_reg2ahb_adapter.sv(42) @ 1734000: reporter [uart_reg2ahb_adapter] bus2reg: address = 0x14 data = 0xa kind = UVM_READ status = UVM_IS_OK
# UVM_INFO /ictc/other/tools/QuestaDVA/questasim/verilog_src/uvm-1.2/src/reg/uvm_reg_predictor.svh(225) @ 1734000: uvm_test_top.env.ahb_predictor [REG_PREDICT] Observed READ transaction to register regmodel.FSR: value='ha
# UVM_INFO ./../regmodel/uart_reg2ahb_adapter.sv(42) @ 1745000: reporter [uart_reg2ahb_adapter] bus2reg: address = 0x14 data = 0xa kind = UVM_READ status = UVM_IS_OK
# UVM_INFO /ictc/other/tools/QuestaDVA/questasim/verilog_src/uvm-1.2/src/reg/uvm_reg_predictor.svh(225) @ 1745000: uvm_test_top.env.ahb_predictor [REG_PREDICT] Observed READ transaction to register regmodel.FSR: value='ha
# UVM_INFO ./../regmodel/uart_reg2ahb_adapter.sv(42) @ 1755000: reporter [uart_reg2ahb_adapter] bus2reg: address = 0x14 data = 0xa kind = UVM_READ status = UVM_IS_OK
# UVM_INFO /ictc/other/tools/QuestaDVA/questasim/verilog_src/uvm-1.2/src/reg/uvm_reg_predictor.svh(225) @ 1755000: uvm_test_top.env.ahb_predictor [REG_PREDICT] Observed READ transaction to register regmodel.FSR: value='ha
# UVM_INFO ./../regmodel/uart_reg2ahb_adapter.sv(42) @ 1765000: reporter [uart_reg2ahb_adapter] bus2reg: address = 0x14 data = 0xa kind = UVM_READ status = UVM_IS_OK
# UVM_INFO /ictc/other/tools/QuestaDVA/questasim/verilog_src/uvm-1.2/src/reg/uvm_reg_predictor.svh(225) @ 1765000: uvm_test_top.env.ahb_predictor [REG_PREDICT] Observed READ transaction to register regmodel.FSR: value='ha
# UVM_INFO ./../regmodel/uart_reg2ahb_adapter.sv(42) @ 1775000: reporter [uart_reg2ahb_adapter] bus2reg: address = 0x14 data = 0xa kind = UVM_READ status = UVM_IS_OK
# UVM_INFO /ictc/other/tools/QuestaDVA/questasim/verilog_src/uvm-1.2/src/reg/uvm_reg_predictor.svh(225) @ 1775000: uvm_test_top.env.ahb_predictor [REG_PREDICT] Observed READ transaction to register regmodel.FSR: value='ha
# UVM_INFO ./../regmodel/uart_reg2ahb_adapter.sv(42) @ 1785000: reporter [uart_reg2ahb_adapter] bus2reg: address = 0x14 data = 0xa kind = UVM_READ status = UVM_IS_OK
# UVM_INFO /ictc/other/tools/QuestaDVA/questasim/verilog_src/uvm-1.2/src/reg/uvm_reg_predictor.svh(225) @ 1785000: uvm_test_top.env.ahb_predictor [REG_PREDICT] Observed READ transaction to register regmodel.FSR: value='ha
# UVM_INFO ./../regmodel/uart_reg2ahb_adapter.sv(42) @ 1795000: reporter [uart_reg2ahb_adapter] bus2reg: address = 0x14 data = 0xa kind = UVM_READ status = UVM_IS_OK
# UVM_INFO /ictc/other/tools/QuestaDVA/questasim/verilog_src/uvm-1.2/src/reg/uvm_reg_predictor.svh(225) @ 1795000: uvm_test_top.env.ahb_predictor [REG_PREDICT] Observed READ transaction to register regmodel.FSR: value='ha
# UVM_INFO ./../regmodel/uart_reg2ahb_adapter.sv(42) @ 1805000: reporter [uart_reg2ahb_adapter] bus2reg: address = 0x14 data = 0xa kind = UVM_READ status = UVM_IS_OK
# UVM_INFO /ictc/other/tools/QuestaDVA/questasim/verilog_src/uvm-1.2/src/reg/uvm_reg_predictor.svh(225) @ 1805000: uvm_test_top.env.ahb_predictor [REG_PREDICT] Observed READ transaction to register regmodel.FSR: value='ha
# UVM_INFO ./../regmodel/uart_reg2ahb_adapter.sv(42) @ 1815000: reporter [uart_reg2ahb_adapter] bus2reg: address = 0x14 data = 0xa kind = UVM_READ status = UVM_IS_OK
# UVM_INFO /ictc/other/tools/QuestaDVA/questasim/verilog_src/uvm-1.2/src/reg/uvm_reg_predictor.svh(225) @ 1815000: uvm_test_top.env.ahb_predictor [REG_PREDICT] Observed READ transaction to register regmodel.FSR: value='ha
# UVM_INFO ./../regmodel/uart_reg2ahb_adapter.sv(42) @ 1825000: reporter [uart_reg2ahb_adapter] bus2reg: address = 0x14 data = 0xa kind = UVM_READ status = UVM_IS_OK
# UVM_INFO /ictc/other/tools/QuestaDVA/questasim/verilog_src/uvm-1.2/src/reg/uvm_reg_predictor.svh(225) @ 1825000: uvm_test_top.env.ahb_predictor [REG_PREDICT] Observed READ transaction to register regmodel.FSR: value='ha
# UVM_INFO ./../regmodel/uart_reg2ahb_adapter.sv(42) @ 1835000: reporter [uart_reg2ahb_adapter] bus2reg: address = 0x14 data = 0xa kind = UVM_READ status = UVM_IS_OK
# UVM_INFO /ictc/other/tools/QuestaDVA/questasim/verilog_src/uvm-1.2/src/reg/uvm_reg_predictor.svh(225) @ 1835000: uvm_test_top.env.ahb_predictor [REG_PREDICT] Observed READ transaction to register regmodel.FSR: value='ha
# UVM_INFO ./../regmodel/uart_reg2ahb_adapter.sv(42) @ 1845000: reporter [uart_reg2ahb_adapter] bus2reg: address = 0x14 data = 0xa kind = UVM_READ status = UVM_IS_OK
# UVM_INFO /ictc/other/tools/QuestaDVA/questasim/verilog_src/uvm-1.2/src/reg/uvm_reg_predictor.svh(225) @ 1845000: uvm_test_top.env.ahb_predictor [REG_PREDICT] Observed READ transaction to register regmodel.FSR: value='ha
# UVM_INFO ./../regmodel/uart_reg2ahb_adapter.sv(42) @ 1855000: reporter [uart_reg2ahb_adapter] bus2reg: address = 0x14 data = 0xa kind = UVM_READ status = UVM_IS_OK
# UVM_INFO /ictc/other/tools/QuestaDVA/questasim/verilog_src/uvm-1.2/src/reg/uvm_reg_predictor.svh(225) @ 1855000: uvm_test_top.env.ahb_predictor [REG_PREDICT] Observed READ transaction to register regmodel.FSR: value='ha
# UVM_INFO ./../regmodel/uart_reg2ahb_adapter.sv(42) @ 1866000: reporter [uart_reg2ahb_adapter] bus2reg: address = 0x14 data = 0xa kind = UVM_READ status = UVM_IS_OK
# UVM_INFO /ictc/other/tools/QuestaDVA/questasim/verilog_src/uvm-1.2/src/reg/uvm_reg_predictor.svh(225) @ 1866000: uvm_test_top.env.ahb_predictor [REG_PREDICT] Observed READ transaction to register regmodel.FSR: value='ha
# UVM_INFO ./../regmodel/uart_reg2ahb_adapter.sv(42) @ 1876000: reporter [uart_reg2ahb_adapter] bus2reg: address = 0x14 data = 0xa kind = UVM_READ status = UVM_IS_OK
# UVM_INFO /ictc/other/tools/QuestaDVA/questasim/verilog_src/uvm-1.2/src/reg/uvm_reg_predictor.svh(225) @ 1876000: uvm_test_top.env.ahb_predictor [REG_PREDICT] Observed READ transaction to register regmodel.FSR: value='ha
# UVM_INFO ./../regmodel/uart_reg2ahb_adapter.sv(42) @ 1886000: reporter [uart_reg2ahb_adapter] bus2reg: address = 0x14 data = 0xa kind = UVM_READ status = UVM_IS_OK
# UVM_INFO /ictc/other/tools/QuestaDVA/questasim/verilog_src/uvm-1.2/src/reg/uvm_reg_predictor.svh(225) @ 1886000: uvm_test_top.env.ahb_predictor [REG_PREDICT] Observed READ transaction to register regmodel.FSR: value='ha
# UVM_INFO ./../regmodel/uart_reg2ahb_adapter.sv(42) @ 1896000: reporter [uart_reg2ahb_adapter] bus2reg: address = 0x14 data = 0xa kind = UVM_READ status = UVM_IS_OK
# UVM_INFO /ictc/other/tools/QuestaDVA/questasim/verilog_src/uvm-1.2/src/reg/uvm_reg_predictor.svh(225) @ 1896000: uvm_test_top.env.ahb_predictor [REG_PREDICT] Observed READ transaction to register regmodel.FSR: value='ha
# UVM_INFO ./../regmodel/uart_reg2ahb_adapter.sv(42) @ 1906000: reporter [uart_reg2ahb_adapter] bus2reg: address = 0x14 data = 0xa kind = UVM_READ status = UVM_IS_OK
# UVM_INFO /ictc/other/tools/QuestaDVA/questasim/verilog_src/uvm-1.2/src/reg/uvm_reg_predictor.svh(225) @ 1906000: uvm_test_top.env.ahb_predictor [REG_PREDICT] Observed READ transaction to register regmodel.FSR: value='ha
# UVM_INFO ./../regmodel/uart_reg2ahb_adapter.sv(42) @ 1916000: reporter [uart_reg2ahb_adapter] bus2reg: address = 0x14 data = 0xa kind = UVM_READ status = UVM_IS_OK
# UVM_INFO /ictc/other/tools/QuestaDVA/questasim/verilog_src/uvm-1.2/src/reg/uvm_reg_predictor.svh(225) @ 1916000: uvm_test_top.env.ahb_predictor [REG_PREDICT] Observed READ transaction to register regmodel.FSR: value='ha
# UVM_INFO ./../regmodel/uart_reg2ahb_adapter.sv(42) @ 1926000: reporter [uart_reg2ahb_adapter] bus2reg: address = 0x14 data = 0xa kind = UVM_READ status = UVM_IS_OK
# UVM_INFO /ictc/other/tools/QuestaDVA/questasim/verilog_src/uvm-1.2/src/reg/uvm_reg_predictor.svh(225) @ 1926000: uvm_test_top.env.ahb_predictor [REG_PREDICT] Observed READ transaction to register regmodel.FSR: value='ha
# UVM_INFO ./../regmodel/uart_reg2ahb_adapter.sv(42) @ 1936000: reporter [uart_reg2ahb_adapter] bus2reg: address = 0x14 data = 0xa kind = UVM_READ status = UVM_IS_OK
# UVM_INFO /ictc/other/tools/QuestaDVA/questasim/verilog_src/uvm-1.2/src/reg/uvm_reg_predictor.svh(225) @ 1936000: uvm_test_top.env.ahb_predictor [REG_PREDICT] Observed READ transaction to register regmodel.FSR: value='ha
# UVM_INFO ./../regmodel/uart_reg2ahb_adapter.sv(42) @ 1946000: reporter [uart_reg2ahb_adapter] bus2reg: address = 0x14 data = 0xa kind = UVM_READ status = UVM_IS_OK
# UVM_INFO /ictc/other/tools/QuestaDVA/questasim/verilog_src/uvm-1.2/src/reg/uvm_reg_predictor.svh(225) @ 1946000: uvm_test_top.env.ahb_predictor [REG_PREDICT] Observed READ transaction to register regmodel.FSR: value='ha
# UVM_INFO ./../regmodel/uart_reg2ahb_adapter.sv(42) @ 1956000: reporter [uart_reg2ahb_adapter] bus2reg: address = 0x14 data = 0xa kind = UVM_READ status = UVM_IS_OK
# UVM_INFO /ictc/other/tools/QuestaDVA/questasim/verilog_src/uvm-1.2/src/reg/uvm_reg_predictor.svh(225) @ 1956000: uvm_test_top.env.ahb_predictor [REG_PREDICT] Observed READ transaction to register regmodel.FSR: value='ha
# UVM_INFO ./../regmodel/uart_reg2ahb_adapter.sv(42) @ 1966000: reporter [uart_reg2ahb_adapter] bus2reg: address = 0x14 data = 0xa kind = UVM_READ status = UVM_IS_OK
# UVM_INFO /ictc/other/tools/QuestaDVA/questasim/verilog_src/uvm-1.2/src/reg/uvm_reg_predictor.svh(225) @ 1966000: uvm_test_top.env.ahb_predictor [REG_PREDICT] Observed READ transaction to register regmodel.FSR: value='ha
# UVM_INFO ./../regmodel/uart_reg2ahb_adapter.sv(42) @ 1976000: reporter [uart_reg2ahb_adapter] bus2reg: address = 0x14 data = 0xa kind = UVM_READ status = UVM_IS_OK
# UVM_INFO /ictc/other/tools/QuestaDVA/questasim/verilog_src/uvm-1.2/src/reg/uvm_reg_predictor.svh(225) @ 1976000: uvm_test_top.env.ahb_predictor [REG_PREDICT] Observed READ transaction to register regmodel.FSR: value='ha
# UVM_INFO ./../regmodel/uart_reg2ahb_adapter.sv(42) @ 1986000: reporter [uart_reg2ahb_adapter] bus2reg: address = 0x14 data = 0xa kind = UVM_READ status = UVM_IS_OK
# UVM_INFO /ictc/other/tools/QuestaDVA/questasim/verilog_src/uvm-1.2/src/reg/uvm_reg_predictor.svh(225) @ 1986000: uvm_test_top.env.ahb_predictor [REG_PREDICT] Observed READ transaction to register regmodel.FSR: value='ha
# UVM_INFO ./../regmodel/uart_reg2ahb_adapter.sv(42) @ 1997000: reporter [uart_reg2ahb_adapter] bus2reg: address = 0x14 data = 0xa kind = UVM_READ status = UVM_IS_OK
# UVM_INFO /ictc/other/tools/QuestaDVA/questasim/verilog_src/uvm-1.2/src/reg/uvm_reg_predictor.svh(225) @ 1997000: uvm_test_top.env.ahb_predictor [REG_PREDICT] Observed READ transaction to register regmodel.FSR: value='ha
# UVM_INFO ./../regmodel/uart_reg2ahb_adapter.sv(42) @ 2007000: reporter [uart_reg2ahb_adapter] bus2reg: address = 0x14 data = 0xa kind = UVM_READ status = UVM_IS_OK
# UVM_INFO /ictc/other/tools/QuestaDVA/questasim/verilog_src/uvm-1.2/src/reg/uvm_reg_predictor.svh(225) @ 2007000: uvm_test_top.env.ahb_predictor [REG_PREDICT] Observed READ transaction to register regmodel.FSR: value='ha
# UVM_INFO ./../regmodel/uart_reg2ahb_adapter.sv(42) @ 2017000: reporter [uart_reg2ahb_adapter] bus2reg: address = 0x14 data = 0xa kind = UVM_READ status = UVM_IS_OK
# UVM_INFO /ictc/other/tools/QuestaDVA/questasim/verilog_src/uvm-1.2/src/reg/uvm_reg_predictor.svh(225) @ 2017000: uvm_test_top.env.ahb_predictor [REG_PREDICT] Observed READ transaction to register regmodel.FSR: value='ha
# UVM_INFO ./../regmodel/uart_reg2ahb_adapter.sv(42) @ 2027000: reporter [uart_reg2ahb_adapter] bus2reg: address = 0x14 data = 0xa kind = UVM_READ status = UVM_IS_OK
# UVM_INFO /ictc/other/tools/QuestaDVA/questasim/verilog_src/uvm-1.2/src/reg/uvm_reg_predictor.svh(225) @ 2027000: uvm_test_top.env.ahb_predictor [REG_PREDICT] Observed READ transaction to register regmodel.FSR: value='ha
# UVM_INFO ./../regmodel/uart_reg2ahb_adapter.sv(42) @ 2037000: reporter [uart_reg2ahb_adapter] bus2reg: address = 0x14 data = 0xa kind = UVM_READ status = UVM_IS_OK
# UVM_INFO /ictc/other/tools/QuestaDVA/questasim/verilog_src/uvm-1.2/src/reg/uvm_reg_predictor.svh(225) @ 2037000: uvm_test_top.env.ahb_predictor [REG_PREDICT] Observed READ transaction to register regmodel.FSR: value='ha
# UVM_INFO ./../regmodel/uart_reg2ahb_adapter.sv(42) @ 2047000: reporter [uart_reg2ahb_adapter] bus2reg: address = 0x14 data = 0xa kind = UVM_READ status = UVM_IS_OK
# UVM_INFO /ictc/other/tools/QuestaDVA/questasim/verilog_src/uvm-1.2/src/reg/uvm_reg_predictor.svh(225) @ 2047000: uvm_test_top.env.ahb_predictor [REG_PREDICT] Observed READ transaction to register regmodel.FSR: value='ha
# UVM_INFO ./../regmodel/uart_reg2ahb_adapter.sv(42) @ 2057000: reporter [uart_reg2ahb_adapter] bus2reg: address = 0x14 data = 0xa kind = UVM_READ status = UVM_IS_OK
# UVM_INFO /ictc/other/tools/QuestaDVA/questasim/verilog_src/uvm-1.2/src/reg/uvm_reg_predictor.svh(225) @ 2057000: uvm_test_top.env.ahb_predictor [REG_PREDICT] Observed READ transaction to register regmodel.FSR: value='ha
# UVM_INFO ./../regmodel/uart_reg2ahb_adapter.sv(42) @ 2067000: reporter [uart_reg2ahb_adapter] bus2reg: address = 0x14 data = 0xa kind = UVM_READ status = UVM_IS_OK
# UVM_INFO /ictc/other/tools/QuestaDVA/questasim/verilog_src/uvm-1.2/src/reg/uvm_reg_predictor.svh(225) @ 2067000: uvm_test_top.env.ahb_predictor [REG_PREDICT] Observed READ transaction to register regmodel.FSR: value='ha
# UVM_INFO ./../regmodel/uart_reg2ahb_adapter.sv(42) @ 2077000: reporter [uart_reg2ahb_adapter] bus2reg: address = 0x14 data = 0xa kind = UVM_READ status = UVM_IS_OK
# UVM_INFO /ictc/other/tools/QuestaDVA/questasim/verilog_src/uvm-1.2/src/reg/uvm_reg_predictor.svh(225) @ 2077000: uvm_test_top.env.ahb_predictor [REG_PREDICT] Observed READ transaction to register regmodel.FSR: value='ha
# UVM_INFO ./../regmodel/uart_reg2ahb_adapter.sv(42) @ 2087000: reporter [uart_reg2ahb_adapter] bus2reg: address = 0x14 data = 0xa kind = UVM_READ status = UVM_IS_OK
# UVM_INFO /ictc/other/tools/QuestaDVA/questasim/verilog_src/uvm-1.2/src/reg/uvm_reg_predictor.svh(225) @ 2087000: uvm_test_top.env.ahb_predictor [REG_PREDICT] Observed READ transaction to register regmodel.FSR: value='ha
# UVM_INFO ./../regmodel/uart_reg2ahb_adapter.sv(42) @ 2097000: reporter [uart_reg2ahb_adapter] bus2reg: address = 0x14 data = 0xa kind = UVM_READ status = UVM_IS_OK
# UVM_INFO /ictc/other/tools/QuestaDVA/questasim/verilog_src/uvm-1.2/src/reg/uvm_reg_predictor.svh(225) @ 2097000: uvm_test_top.env.ahb_predictor [REG_PREDICT] Observed READ transaction to register regmodel.FSR: value='ha
# UVM_INFO ./../regmodel/uart_reg2ahb_adapter.sv(42) @ 2107000: reporter [uart_reg2ahb_adapter] bus2reg: address = 0x14 data = 0xa kind = UVM_READ status = UVM_IS_OK
# UVM_INFO /ictc/other/tools/QuestaDVA/questasim/verilog_src/uvm-1.2/src/reg/uvm_reg_predictor.svh(225) @ 2107000: uvm_test_top.env.ahb_predictor [REG_PREDICT] Observed READ transaction to register regmodel.FSR: value='ha
# UVM_INFO ./../regmodel/uart_reg2ahb_adapter.sv(42) @ 2118000: reporter [uart_reg2ahb_adapter] bus2reg: address = 0x14 data = 0xa kind = UVM_READ status = UVM_IS_OK
# UVM_INFO /ictc/other/tools/QuestaDVA/questasim/verilog_src/uvm-1.2/src/reg/uvm_reg_predictor.svh(225) @ 2118000: uvm_test_top.env.ahb_predictor [REG_PREDICT] Observed READ transaction to register regmodel.FSR: value='ha
# UVM_INFO ./../regmodel/uart_reg2ahb_adapter.sv(42) @ 2128000: reporter [uart_reg2ahb_adapter] bus2reg: address = 0x14 data = 0xa kind = UVM_READ status = UVM_IS_OK
# UVM_INFO /ictc/other/tools/QuestaDVA/questasim/verilog_src/uvm-1.2/src/reg/uvm_reg_predictor.svh(225) @ 2128000: uvm_test_top.env.ahb_predictor [REG_PREDICT] Observed READ transaction to register regmodel.FSR: value='ha
# UVM_INFO ./../regmodel/uart_reg2ahb_adapter.sv(42) @ 2138000: reporter [uart_reg2ahb_adapter] bus2reg: address = 0x14 data = 0xa kind = UVM_READ status = UVM_IS_OK
# UVM_INFO /ictc/other/tools/QuestaDVA/questasim/verilog_src/uvm-1.2/src/reg/uvm_reg_predictor.svh(225) @ 2138000: uvm_test_top.env.ahb_predictor [REG_PREDICT] Observed READ transaction to register regmodel.FSR: value='ha
# UVM_INFO ./../regmodel/uart_reg2ahb_adapter.sv(42) @ 2148000: reporter [uart_reg2ahb_adapter] bus2reg: address = 0x14 data = 0xa kind = UVM_READ status = UVM_IS_OK
# UVM_INFO /ictc/other/tools/QuestaDVA/questasim/verilog_src/uvm-1.2/src/reg/uvm_reg_predictor.svh(225) @ 2148000: uvm_test_top.env.ahb_predictor [REG_PREDICT] Observed READ transaction to register regmodel.FSR: value='ha
# UVM_INFO ./../regmodel/uart_reg2ahb_adapter.sv(42) @ 2158000: reporter [uart_reg2ahb_adapter] bus2reg: address = 0x14 data = 0xa kind = UVM_READ status = UVM_IS_OK
# UVM_INFO /ictc/other/tools/QuestaDVA/questasim/verilog_src/uvm-1.2/src/reg/uvm_reg_predictor.svh(225) @ 2158000: uvm_test_top.env.ahb_predictor [REG_PREDICT] Observed READ transaction to register regmodel.FSR: value='ha
# UVM_INFO ./../regmodel/uart_reg2ahb_adapter.sv(42) @ 2168000: reporter [uart_reg2ahb_adapter] bus2reg: address = 0x14 data = 0xa kind = UVM_READ status = UVM_IS_OK
# UVM_INFO /ictc/other/tools/QuestaDVA/questasim/verilog_src/uvm-1.2/src/reg/uvm_reg_predictor.svh(225) @ 2168000: uvm_test_top.env.ahb_predictor [REG_PREDICT] Observed READ transaction to register regmodel.FSR: value='ha
# UVM_INFO ./../regmodel/uart_reg2ahb_adapter.sv(42) @ 2178000: reporter [uart_reg2ahb_adapter] bus2reg: address = 0x14 data = 0xa kind = UVM_READ status = UVM_IS_OK
# UVM_INFO /ictc/other/tools/QuestaDVA/questasim/verilog_src/uvm-1.2/src/reg/uvm_reg_predictor.svh(225) @ 2178000: uvm_test_top.env.ahb_predictor [REG_PREDICT] Observed READ transaction to register regmodel.FSR: value='ha
# UVM_INFO ./../regmodel/uart_reg2ahb_adapter.sv(42) @ 2188000: reporter [uart_reg2ahb_adapter] bus2reg: address = 0x14 data = 0xa kind = UVM_READ status = UVM_IS_OK
# UVM_INFO /ictc/other/tools/QuestaDVA/questasim/verilog_src/uvm-1.2/src/reg/uvm_reg_predictor.svh(225) @ 2188000: uvm_test_top.env.ahb_predictor [REG_PREDICT] Observed READ transaction to register regmodel.FSR: value='ha
# UVM_INFO ./../regmodel/uart_reg2ahb_adapter.sv(42) @ 2198000: reporter [uart_reg2ahb_adapter] bus2reg: address = 0x14 data = 0xa kind = UVM_READ status = UVM_IS_OK
# UVM_INFO /ictc/other/tools/QuestaDVA/questasim/verilog_src/uvm-1.2/src/reg/uvm_reg_predictor.svh(225) @ 2198000: uvm_test_top.env.ahb_predictor [REG_PREDICT] Observed READ transaction to register regmodel.FSR: value='ha
# UVM_INFO ./../regmodel/uart_reg2ahb_adapter.sv(42) @ 2208000: reporter [uart_reg2ahb_adapter] bus2reg: address = 0x14 data = 0xa kind = UVM_READ status = UVM_IS_OK
# UVM_INFO /ictc/other/tools/QuestaDVA/questasim/verilog_src/uvm-1.2/src/reg/uvm_reg_predictor.svh(225) @ 2208000: uvm_test_top.env.ahb_predictor [REG_PREDICT] Observed READ transaction to register regmodel.FSR: value='ha
# UVM_INFO ./../regmodel/uart_reg2ahb_adapter.sv(42) @ 2218000: reporter [uart_reg2ahb_adapter] bus2reg: address = 0x14 data = 0xa kind = UVM_READ status = UVM_IS_OK
# UVM_INFO /ictc/other/tools/QuestaDVA/questasim/verilog_src/uvm-1.2/src/reg/uvm_reg_predictor.svh(225) @ 2218000: uvm_test_top.env.ahb_predictor [REG_PREDICT] Observed READ transaction to register regmodel.FSR: value='ha
# UVM_INFO ./../regmodel/uart_reg2ahb_adapter.sv(42) @ 2228000: reporter [uart_reg2ahb_adapter] bus2reg: address = 0x14 data = 0xa kind = UVM_READ status = UVM_IS_OK
# UVM_INFO /ictc/other/tools/QuestaDVA/questasim/verilog_src/uvm-1.2/src/reg/uvm_reg_predictor.svh(225) @ 2228000: uvm_test_top.env.ahb_predictor [REG_PREDICT] Observed READ transaction to register regmodel.FSR: value='ha
