# vsim -sv_seed 1 -voptargs="+acc" -assertdebug -c testbench -do " log -r /*;run -all;" -l uart_txd_interrupt_empty_1.log "+UVM_TESTNAME=uart_txd_interrupt_empty" "+UVM_VERBOSITY=UVM_HIGH" 
# Start time: 14:26:37 on Aug 07,2026
# Loading /tmp/khaminh_3008@ictc-eda-ldap.ipa.test_dpi_28645/linux_x86_64_gcc-11/export_tramp.so
# ** Note: (vsim-3813) Design is being optimized due to module recompilation...
# ** Warning: ./../testcases/uart_txd_x16_parity.sv(20): (vopt-2240) Treating stand-alone use of function 'randomize' as an implicit VOID cast.
# ** Warning: ./../testcases/uart_txd_x16_data_frame.sv(20): (vopt-2240) Treating stand-alone use of function 'randomize' as an implicit VOID cast.
# ** Warning: ./../testcases/uart_txd_x16_stop_bit.sv(20): (vopt-2240) Treating stand-alone use of function 'randomize' as an implicit VOID cast.
# ** Warning: ./../testcases/uart_txd_x16_baud_rate.sv(22): (vopt-2240) Treating stand-alone use of function 'randomize' as an implicit VOID cast.
# ** Warning: ./../testcases/uart_txd_x16_random.sv(26): (vopt-2240) Treating stand-alone use of function 'randomize' as an implicit VOID cast.
# ** Warning: ./../testcases/uart_txd_x13_parity.sv(20): (vopt-2240) Treating stand-alone use of function 'randomize' as an implicit VOID cast.
# ** Warning: ./../testcases/uart_txd_x13_data_frame.sv(20): (vopt-2240) Treating stand-alone use of function 'randomize' as an implicit VOID cast.
# ** Warning: ./../testcases/uart_txd_x13_stop_bit.sv(20): (vopt-2240) Treating stand-alone use of function 'randomize' as an implicit VOID cast.
# ** Warning: ./../testcases/uart_txd_x13_baud_rate.sv(22): (vopt-2240) Treating stand-alone use of function 'randomize' as an implicit VOID cast.
# ** Warning: ./../testcases/uart_txd_x13_random.sv(26): (vopt-2240) Treating stand-alone use of function 'randomize' as an implicit VOID cast.
# ** Warning: ./../testcases/uart_rxd_random.sv(30): (vopt-2240) Treating stand-alone use of function 'randomize' as an implicit VOID cast.
# ** Warning: ./../testcases/uart_rxd_parity_status.sv(30): (vopt-2240) Treating stand-alone use of function 'randomize' as an implicit VOID cast.
# ** Warning: ./../testcases/uart_rxd_parity_status_clear.sv(30): (vopt-2240) Treating stand-alone use of function 'randomize' as an implicit VOID cast.
# ** Warning: ./../testcases/uart_rxd_interrupt_empty.sv(34): (vopt-2240) Treating stand-alone use of function 'randomize' as an implicit VOID cast.
# ** Warning: ./../testcases/uart_txd_interrupt_empty.sv(33): (vopt-2240) Treating stand-alone use of function 'randomize' as an implicit VOID cast.
# //  Questa Sim-64
# //  Version 10.6d_1 linux_x86_64 Apr 11 2018
# //
# //  Copyright 1991-2018 Mentor Graphics Corporation
# //  All Rights Reserved.
# //
# //  QuestaSim and its associated documentation contain trade
# //  secrets and commercial or financial information that are the property of
# //  Mentor Graphics Corporation and are privileged, confidential,
# //  and exempt from disclosure under the Freedom of Information Act,
# //  5 U.S.C. Section 552. Furthermore, this information
# //  is prohibited from disclosure under the Trade Secrets Act,
# //  18 U.S.C. Section 1905.
# //
# Loading sv_std.std
# Loading work.uart_if(fast)
# Loading work.ahb_if(fast)
# Loading work.uvm_pkg(fast)
# Loading work.uart_register_pkg(fast)
# ** Note: (vsim-8785) UVM-aware debugging capabilities will be disabled since no compiled "questa_uvm_pkg" can be found.
# This also means that later if you turn on UVM-aware debugging your debug simulations may have
# different random seeds from your non-debug simulations.
# Loading work.ahb_pkg(fast)
# Loading work.uart_regmodel_pkg(fast)
# Loading work.uart_pkg(fast)
# Loading work.seq_pkg(fast)
# Loading work.env_pkg(fast)
# Loading work.test_pkg(fast)
# Loading work.testbench(fast)
# Loading work.ahb_if(fast)
# Loading work.uart_if(fast)
# Loading work.uart_top(fast)
# Loading work.cmsdk_ahb_to_apb(fast)
# Loading work.apb_decoder(fast)
# Loading work.uart_fifo(fast)
# Loading work.uart_transmitter(fast)
# Loading work.uart_receiver(fast)
# Loading work.uart_interrupt(fast)
# Loading work.baud_generator(fast)
# Compiling /tmp/khaminh_3008@ictc-eda-ldap.ipa.test_dpi_28645/linux_x86_64_gcc-5.3.0/exportwrapper.c
# Compiling /tmp/khaminh_3008@ictc-eda-ldap.ipa.test_dpi_28645/linux_x86_64_gcc-11/exportwrapper.c
# Loading /tmp/khaminh_3008@ictc-eda-ldap.ipa.test_dpi_28645/linux_x86_64_gcc-11/vsim_auto_compile.so
#  log -r /*
# run -all
# UVM_INFO /ictc/other/tools/QuestaDVA/questasim/verilog_src/uvm-1.2/src/base/uvm_root.svh(392) @ 0: reporter [UVM/RELNOTES] 
# ----------------------------------------------------------------
# UVM-1.2
# (C) 2007-2014 Mentor Graphics Corporation
# (C) 2007-2014 Cadence Design Systems, Inc.
# (C) 2006-2014 Synopsys, Inc.
# (C) 2011-2013 Cypress Semiconductor Corp.
# (C) 2013-2014 NVIDIA Corporation
# ----------------------------------------------------------------
# 
#   ***********       IMPORTANT RELEASE NOTES         ************
# 
#   You are using a version of the UVM library that has been compiled
#   with `UVM_NO_DEPRECATED undefined.
#   See http://www.eda.org/svdb/view.php?id=3313 for more details.
# 
#   You are using a version of the UVM library that has been compiled
#   with `UVM_OBJECT_DO_NOT_NEED_CONSTRUCTOR undefined.
#   See http://www.eda.org/svdb/view.php?id=3770 for more details.
# 
#       (Specify +UVM_NO_RELNOTES to turn off this notice)
# 
# UVM_INFO /ictc/other/tools/QuestaDVA/questasim/verilog_src/uvm-1.2/src/base/uvm_root.svh(453) @ 0: reporter [NO_DPI_TSTNAME] UVM_NO_DPI defined--getting UVM_TESTNAME directly, without DPI
# UVM_INFO @ 0: reporter [RNTST] Running test uart_txd_interrupt_empty...
# UVM_INFO ./../vip/ahb_vip/ahb_agent.sv(20) @ 0: uvm_test_top.env.ahb_agt [ahb_agent] Active agent is configued
# ENTER SCOREBOARD BUILD PHASE
# UVM_INFO ./../vip/uart_vip/uart_agent.sv(25) @ 0: uvm_test_top.env.uart_agt [uart_agent] Active agent is configured
# UVM_INFO /ictc/other/tools/QuestaDVA/questasim/verilog_src/uvm-1.2/src/base/uvm_root.svh(579) @ 0: reporter [UVMTOP] UVM testbench topology:
# ----------------------------------------------------------------------------
# Name                       Type                                  Size  Value
# ----------------------------------------------------------------------------
# uvm_test_top               uart_txd_interrupt_empty              -     @347 
#   env                      dut_environment                       -     @371 
#     ahb_agt                ahb_agent                             -     @392 
#       driver               ahb_driver                            -     @499 
#         rsp_port           uvm_analysis_port                     -     @518 
#         seq_item_port      uvm_seq_item_pull_port                -     @508 
#       monitor              ahb_monitor                           -     @665 
#         a_port             uvm_analysis_port                     -     @674 
#       sequencer            ahb_sequencer                         -     @528 
#         rsp_export         uvm_analysis_export                   -     @537 
#         seq_item_export    uvm_seq_item_pull_imp                 -     @655 
#         arbitration_queue  array                                 0     -    
#         lock_queue         array                                 0     -    
#         num_last_reqs      integral                              32    'd1  
#         num_last_rsps      integral                              32    'd1  
#     ahb_predictor          uvm_reg_predictor #(ahb_transaction)  -     @410 
#       bus_in               uvm_analysis_imp                      -     @419 
#       reg_ap               uvm_analysis_port                     -     @429 
#     dut_sb                 dut_scoreboard                        -     @383 
#       ahb_a_export         uvm_analysis_imp_ahb                  -     @694 
#       interrupt_a_export   uvm_analysis_imp_interrupt            -     @714 
#       uart_a_export        uvm_analysis_imp_uart                 -     @704 
#     uart_agt               uart_agent                            -     @401 
#       driver               uart_driver                           -     @730 
#         rsp_port           uvm_analysis_port                     -     @749 
#         seq_item_port      uvm_seq_item_pull_port                -     @739 
#         uart_a_port        uvm_analysis_port                     -     @759 
#       monitor              uart_monitor                          -     @769 
#         interrupt_a_port   uvm_analysis_port                     -     @788 
#         uart_a_port        uvm_analysis_port                     -     @778 
#       sequencer            uart_sequencer                        -     @798 
#         rsp_export         uvm_analysis_export                   -     @807 
#         seq_item_export    uvm_seq_item_pull_imp                 -     @925 
#         arbitration_queue  array                                 0     -    
#         lock_queue         array                                 0     -    
#         num_last_reqs      integral                              32    'd1  
#         num_last_rsps      integral                              32    'd1  
# ----------------------------------------------------------------------------
# 
# UVM_INFO /ictc/other/tools/QuestaDVA/questasim/verilog_src/uvm-1.2/src/base/uvm_traversal.svh(279) @ 0: reporter [UVM/COMP/NAMECHECK] This implementation of the component name checks requires DPI to be enabled
# ===== ENTER MONITOR =====
# UVM_INFO ./../testcases/uart_txd_interrupt_empty.sv(43) @ 1000000: uvm_test_top [uart_txd_interrupt_empty] --------------------------------------------------------------
# Name                Type                Size  Value           
# --------------------------------------------------------------
# cfg                 uart_configuration  -     @360            
#   parity_mode       parity_mode_e       32    UART_PARITY_NONE
#   sampling          sampling_mode_e     32    MODE_X16        
#   data_width        integral            32    'h5             
#   num_of_stop_bit   integral            32    'h1             
#   baud_rate         integral            32    'h960           
#   baud_rate_enable  integral            1     'h0             
#   parity_enable     integral            1     'h0             
#   interrupt_enable  integral            1     'h0             
# --------------------------------------------------------------
# 
# UVM_INFO ./../regmodel/uart_reg2ahb_adapter.sv(42) @ 1000000: reporter [uart_reg2ahb_adapter] bus2reg: address = 0x0 data = 0x0 kind = UVM_WRITE status = UVM_IS_OK
# UVM_INFO /ictc/other/tools/QuestaDVA/questasim/verilog_src/uvm-1.2/src/reg/uvm_reg_predictor.svh(221) @ 1000000: uvm_test_top.env.ahb_predictor [REG_PREDICT] Observed WRITE transaction to register regmodel.MDR: value='h0 : updated value = 'h0
# UVM_INFO ./../regmodel/uart_reg2ahb_adapter.sv(42) @ 1000000: reporter [uart_reg2ahb_adapter] bus2reg: address = 0x4 data = 0x2c kind = UVM_WRITE status = UVM_IS_OK
# UVM_INFO /ictc/other/tools/QuestaDVA/questasim/verilog_src/uvm-1.2/src/reg/uvm_reg_predictor.svh(221) @ 1000000: uvm_test_top.env.ahb_predictor [REG_PREDICT] Observed WRITE transaction to register regmodel.DLL: value='h2c : updated value = 'h2c
# UVM_INFO ./../regmodel/uart_reg2ahb_adapter.sv(42) @ 1000000: reporter [uart_reg2ahb_adapter] bus2reg: address = 0x8 data = 0xa kind = UVM_WRITE status = UVM_IS_OK
# UVM_INFO /ictc/other/tools/QuestaDVA/questasim/verilog_src/uvm-1.2/src/reg/uvm_reg_predictor.svh(221) @ 1000000: uvm_test_top.env.ahb_predictor [REG_PREDICT] Observed WRITE transaction to register regmodel.DLH: value='ha : updated value = 'ha
# UVM_INFO ./../regmodel/uart_reg2ahb_adapter.sv(42) @ 1000000: reporter [uart_reg2ahb_adapter] bus2reg: address = 0xc data = 0x20 kind = UVM_WRITE status = UVM_IS_OK
# UVM_INFO /ictc/other/tools/QuestaDVA/questasim/verilog_src/uvm-1.2/src/reg/uvm_reg_predictor.svh(221) @ 1000000: uvm_test_top.env.ahb_predictor [REG_PREDICT] Observed WRITE transaction to register regmodel.LCR: value='h20 : updated value = 'h20
# UVM_INFO ./../regmodel/uart_reg2ahb_adapter.sv(42) @ 1000000: reporter [uart_reg2ahb_adapter] bus2reg: address = 0x10 data = 0x2 kind = UVM_WRITE status = UVM_IS_OK
# UVM_INFO /ictc/other/tools/QuestaDVA/questasim/verilog_src/uvm-1.2/src/reg/uvm_reg_predictor.svh(221) @ 1000000: uvm_test_top.env.ahb_predictor [REG_PREDICT] Observed WRITE transaction to register regmodel.IER: value='h2 : updated value = 'h2
# ===== Received Data from IER =====
# ===== IER[3] enabled -> ASSERTED =====
# ===== POSITIVE INTERRUPT DETECTED =====
# UVM_INFO ./../tb/dut_scoreboard.sv(160) @ 1000000: uvm_test_top.env.dut_sb [dut_scoreboard] Interurpt = 1, state = INT_ASSERT
# UVM_INFO ./../tb/dut_scoreboard.sv(167) @ 1000000: uvm_test_top.env.dut_sb [dut_scoreboard] ===== Interrupt is asserted =====
# UVM_INFO ./../regmodel/uart_reg2ahb_adapter.sv(42) @ 1001000: reporter [uart_reg2ahb_adapter] bus2reg: address = 0x18 data = 0x33f9e439 kind = UVM_WRITE status = UVM_IS_OK
# UVM_INFO /ictc/other/tools/QuestaDVA/questasim/verilog_src/uvm-1.2/src/reg/uvm_reg_predictor.svh(221) @ 1001000: uvm_test_top.env.ahb_predictor [REG_PREDICT] Observed WRITE transaction to register regmodel.TBR: value='h33f9e439 : updated value = 'h39
# UVM_INFO ./../tb/dut_scoreboard.sv(92) @ 1001000: uvm_test_top.env.dut_sb [SCOREBOARD] 
# ===== Captured data from AHB: 0x33f9e439
# ===== NEGEDGE INTERRUPT DETECTED =====
# UVM_INFO ./../tb/dut_scoreboard.sv(160) @ 1001000: uvm_test_top.env.dut_sb [dut_scoreboard] Interurpt = 0, state = INT_DEASSERT
# UVM_INFO ./../tb/dut_scoreboard.sv(176) @ 1001000: uvm_test_top.env.dut_sb [dut_scoreboard] ===== PASSED SUCCESSFULLY!!! =====
# ===== POSITIVE INTERRUPT DETECTED =====
# UVM_INFO ./../tb/dut_scoreboard.sv(160) @ 1001000: uvm_test_top.env.dut_sb [dut_scoreboard] Interurpt = 1, state = INT_IDLE
# UVM_INFO ./../regmodel/uart_reg2ahb_adapter.sv(42) @ 1001000: reporter [uart_reg2ahb_adapter] bus2reg: address = 0x14 data = 0xa kind = UVM_READ status = UVM_IS_OK
# UVM_INFO /ictc/other/tools/QuestaDVA/questasim/verilog_src/uvm-1.2/src/reg/uvm_reg_predictor.svh(225) @ 1001000: uvm_test_top.env.ahb_predictor [REG_PREDICT] Observed READ transaction to register regmodel.FSR: value='ha
# UVM_INFO ./../regmodel/uart_reg2ahb_adapter.sv(42) @ 1011000: reporter [uart_reg2ahb_adapter] bus2reg: address = 0x14 data = 0xa kind = UVM_READ status = UVM_IS_OK
# UVM_INFO /ictc/other/tools/QuestaDVA/questasim/verilog_src/uvm-1.2/src/reg/uvm_reg_predictor.svh(225) @ 1011000: uvm_test_top.env.ahb_predictor [REG_PREDICT] Observed READ transaction to register regmodel.FSR: value='ha
# UVM_INFO ./../regmodel/uart_reg2ahb_adapter.sv(42) @ 1021000: reporter [uart_reg2ahb_adapter] bus2reg: address = 0x14 data = 0xa kind = UVM_READ status = UVM_IS_OK
# UVM_INFO /ictc/other/tools/QuestaDVA/questasim/verilog_src/uvm-1.2/src/reg/uvm_reg_predictor.svh(225) @ 1021000: uvm_test_top.env.ahb_predictor [REG_PREDICT] Observed READ transaction to register regmodel.FSR: value='ha
# UVM_INFO ./../regmodel/uart_reg2ahb_adapter.sv(42) @ 1031000: reporter [uart_reg2ahb_adapter] bus2reg: address = 0x14 data = 0xa kind = UVM_READ status = UVM_IS_OK
# UVM_INFO /ictc/other/tools/QuestaDVA/questasim/verilog_src/uvm-1.2/src/reg/uvm_reg_predictor.svh(225) @ 1031000: uvm_test_top.env.ahb_predictor [REG_PREDICT] Observed READ transaction to register regmodel.FSR: value='ha
# UVM_INFO ./../regmodel/uart_reg2ahb_adapter.sv(42) @ 1041000: reporter [uart_reg2ahb_adapter] bus2reg: address = 0x14 data = 0xa kind = UVM_READ status = UVM_IS_OK
# UVM_INFO /ictc/other/tools/QuestaDVA/questasim/verilog_src/uvm-1.2/src/reg/uvm_reg_predictor.svh(225) @ 1041000: uvm_test_top.env.ahb_predictor [REG_PREDICT] Observed READ transaction to register regmodel.FSR: value='ha
# UVM_INFO ./../regmodel/uart_reg2ahb_adapter.sv(42) @ 1051000: reporter [uart_reg2ahb_adapter] bus2reg: address = 0x14 data = 0xa kind = UVM_READ status = UVM_IS_OK
# UVM_INFO /ictc/other/tools/QuestaDVA/questasim/verilog_src/uvm-1.2/src/reg/uvm_reg_predictor.svh(225) @ 1051000: uvm_test_top.env.ahb_predictor [REG_PREDICT] Observed READ transaction to register regmodel.FSR: value='ha
# UVM_INFO ./../regmodel/uart_reg2ahb_adapter.sv(42) @ 1061000: reporter [uart_reg2ahb_adapter] bus2reg: address = 0x14 data = 0xa kind = UVM_READ status = UVM_IS_OK
# UVM_INFO /ictc/other/tools/QuestaDVA/questasim/verilog_src/uvm-1.2/src/reg/uvm_reg_predictor.svh(225) @ 1061000: uvm_test_top.env.ahb_predictor [REG_PREDICT] Observed READ transaction to register regmodel.FSR: value='ha
# UVM_INFO ./../regmodel/uart_reg2ahb_adapter.sv(42) @ 1071000: reporter [uart_reg2ahb_adapter] bus2reg: address = 0x14 data = 0xa kind = UVM_READ status = UVM_IS_OK
# UVM_INFO /ictc/other/tools/QuestaDVA/questasim/verilog_src/uvm-1.2/src/reg/uvm_reg_predictor.svh(225) @ 1071000: uvm_test_top.env.ahb_predictor [REG_PREDICT] Observed READ transaction to register regmodel.FSR: value='ha
# UVM_INFO ./../regmodel/uart_reg2ahb_adapter.sv(42) @ 1081000: reporter [uart_reg2ahb_adapter] bus2reg: address = 0x14 data = 0xa kind = UVM_READ status = UVM_IS_OK
# UVM_INFO /ictc/other/tools/QuestaDVA/questasim/verilog_src/uvm-1.2/src/reg/uvm_reg_predictor.svh(225) @ 1081000: uvm_test_top.env.ahb_predictor [REG_PREDICT] Observed READ transaction to register regmodel.FSR: value='ha
# UVM_INFO ./../regmodel/uart_reg2ahb_adapter.sv(42) @ 1091000: reporter [uart_reg2ahb_adapter] bus2reg: address = 0x14 data = 0xa kind = UVM_READ status = UVM_IS_OK
# UVM_INFO /ictc/other/tools/QuestaDVA/questasim/verilog_src/uvm-1.2/src/reg/uvm_reg_predictor.svh(225) @ 1091000: uvm_test_top.env.ahb_predictor [REG_PREDICT] Observed READ transaction to register regmodel.FSR: value='ha
# UVM_INFO ./../regmodel/uart_reg2ahb_adapter.sv(42) @ 1101000: reporter [uart_reg2ahb_adapter] bus2reg: address = 0x14 data = 0xa kind = UVM_READ status = UVM_IS_OK
# UVM_INFO /ictc/other/tools/QuestaDVA/questasim/verilog_src/uvm-1.2/src/reg/uvm_reg_predictor.svh(225) @ 1101000: uvm_test_top.env.ahb_predictor [REG_PREDICT] Observed READ transaction to register regmodel.FSR: value='ha
# UVM_INFO ./../regmodel/uart_reg2ahb_adapter.sv(42) @ 1112000: reporter [uart_reg2ahb_adapter] bus2reg: address = 0x14 data = 0xa kind = UVM_READ status = UVM_IS_OK
# UVM_INFO /ictc/other/tools/QuestaDVA/questasim/verilog_src/uvm-1.2/src/reg/uvm_reg_predictor.svh(225) @ 1112000: uvm_test_top.env.ahb_predictor [REG_PREDICT] Observed READ transaction to register regmodel.FSR: value='ha
# UVM_INFO ./../regmodel/uart_reg2ahb_adapter.sv(42) @ 1122000: reporter [uart_reg2ahb_adapter] bus2reg: address = 0x14 data = 0xa kind = UVM_READ status = UVM_IS_OK
# UVM_INFO /ictc/other/tools/QuestaDVA/questasim/verilog_src/uvm-1.2/src/reg/uvm_reg_predictor.svh(225) @ 1122000: uvm_test_top.env.ahb_predictor [REG_PREDICT] Observed READ transaction to register regmodel.FSR: value='ha
# UVM_INFO ./../regmodel/uart_reg2ahb_adapter.sv(42) @ 1132000: reporter [uart_reg2ahb_adapter] bus2reg: address = 0x14 data = 0xa kind = UVM_READ status = UVM_IS_OK
# UVM_INFO /ictc/other/tools/QuestaDVA/questasim/verilog_src/uvm-1.2/src/reg/uvm_reg_predictor.svh(225) @ 1132000: uvm_test_top.env.ahb_predictor [REG_PREDICT] Observed READ transaction to register regmodel.FSR: value='ha
# UVM_INFO ./../regmodel/uart_reg2ahb_adapter.sv(42) @ 1142000: reporter [uart_reg2ahb_adapter] bus2reg: address = 0x14 data = 0xa kind = UVM_READ status = UVM_IS_OK
# UVM_INFO /ictc/other/tools/QuestaDVA/questasim/verilog_src/uvm-1.2/src/reg/uvm_reg_predictor.svh(225) @ 1142000: uvm_test_top.env.ahb_predictor [REG_PREDICT] Observed READ transaction to register regmodel.FSR: value='ha
# UVM_INFO ./../regmodel/uart_reg2ahb_adapter.sv(42) @ 1152000: reporter [uart_reg2ahb_adapter] bus2reg: address = 0x14 data = 0xa kind = UVM_READ status = UVM_IS_OK
# UVM_INFO /ictc/other/tools/QuestaDVA/questasim/verilog_src/uvm-1.2/src/reg/uvm_reg_predictor.svh(225) @ 1152000: uvm_test_top.env.ahb_predictor [REG_PREDICT] Observed READ transaction to register regmodel.FSR: value='ha
# UVM_INFO ./../regmodel/uart_reg2ahb_adapter.sv(42) @ 1162000: reporter [uart_reg2ahb_adapter] bus2reg: address = 0x14 data = 0xa kind = UVM_READ status = UVM_IS_OK
# UVM_INFO /ictc/other/tools/QuestaDVA/questasim/verilog_src/uvm-1.2/src/reg/uvm_reg_predictor.svh(225) @ 1162000: uvm_test_top.env.ahb_predictor [REG_PREDICT] Observed READ transaction to register regmodel.FSR: value='ha
# UVM_INFO ./../regmodel/uart_reg2ahb_adapter.sv(42) @ 1172000: reporter [uart_reg2ahb_adapter] bus2reg: address = 0x14 data = 0xa kind = UVM_READ status = UVM_IS_OK
# UVM_INFO /ictc/other/tools/QuestaDVA/questasim/verilog_src/uvm-1.2/src/reg/uvm_reg_predictor.svh(225) @ 1172000: uvm_test_top.env.ahb_predictor [REG_PREDICT] Observed READ transaction to register regmodel.FSR: value='ha
# UVM_INFO ./../regmodel/uart_reg2ahb_adapter.sv(42) @ 1182000: reporter [uart_reg2ahb_adapter] bus2reg: address = 0x14 data = 0xa kind = UVM_READ status = UVM_IS_OK
# UVM_INFO /ictc/other/tools/QuestaDVA/questasim/verilog_src/uvm-1.2/src/reg/uvm_reg_predictor.svh(225) @ 1182000: uvm_test_top.env.ahb_predictor [REG_PREDICT] Observed READ transaction to register regmodel.FSR: value='ha
# UVM_INFO ./../regmodel/uart_reg2ahb_adapter.sv(42) @ 1192000: reporter [uart_reg2ahb_adapter] bus2reg: address = 0x14 data = 0xa kind = UVM_READ status = UVM_IS_OK
# UVM_INFO /ictc/other/tools/QuestaDVA/questasim/verilog_src/uvm-1.2/src/reg/uvm_reg_predictor.svh(225) @ 1192000: uvm_test_top.env.ahb_predictor [REG_PREDICT] Observed READ transaction to register regmodel.FSR: value='ha
# UVM_INFO ./../regmodel/uart_reg2ahb_adapter.sv(42) @ 1202000: reporter [uart_reg2ahb_adapter] bus2reg: address = 0x14 data = 0xa kind = UVM_READ status = UVM_IS_OK
# UVM_INFO /ictc/other/tools/QuestaDVA/questasim/verilog_src/uvm-1.2/src/reg/uvm_reg_predictor.svh(225) @ 1202000: uvm_test_top.env.ahb_predictor [REG_PREDICT] Observed READ transaction to register regmodel.FSR: value='ha
# UVM_INFO ./../regmodel/uart_reg2ahb_adapter.sv(42) @ 1212000: reporter [uart_reg2ahb_adapter] bus2reg: address = 0x14 data = 0xa kind = UVM_READ status = UVM_IS_OK
# UVM_INFO /ictc/other/tools/QuestaDVA/questasim/verilog_src/uvm-1.2/src/reg/uvm_reg_predictor.svh(225) @ 1212000: uvm_test_top.env.ahb_predictor [REG_PREDICT] Observed READ transaction to register regmodel.FSR: value='ha
# UVM_INFO ./../regmodel/uart_reg2ahb_adapter.sv(42) @ 1222000: reporter [uart_reg2ahb_adapter] bus2reg: address = 0x14 data = 0xa kind = UVM_READ status = UVM_IS_OK
# UVM_INFO /ictc/other/tools/QuestaDVA/questasim/verilog_src/uvm-1.2/src/reg/uvm_reg_predictor.svh(225) @ 1222000: uvm_test_top.env.ahb_predictor [REG_PREDICT] Observed READ transaction to register regmodel.FSR: value='ha
# UVM_INFO ./../regmodel/uart_reg2ahb_adapter.sv(42) @ 1232000: reporter [uart_reg2ahb_adapter] bus2reg: address = 0x14 data = 0xa kind = UVM_READ status = UVM_IS_OK
# UVM_INFO /ictc/other/tools/QuestaDVA/questasim/verilog_src/uvm-1.2/src/reg/uvm_reg_predictor.svh(225) @ 1232000: uvm_test_top.env.ahb_predictor [REG_PREDICT] Observed READ transaction to register regmodel.FSR: value='ha
# UVM_INFO ./../regmodel/uart_reg2ahb_adapter.sv(42) @ 1243000: reporter [uart_reg2ahb_adapter] bus2reg: address = 0x14 data = 0xa kind = UVM_READ status = UVM_IS_OK
# UVM_INFO /ictc/other/tools/QuestaDVA/questasim/verilog_src/uvm-1.2/src/reg/uvm_reg_predictor.svh(225) @ 1243000: uvm_test_top.env.ahb_predictor [REG_PREDICT] Observed READ transaction to register regmodel.FSR: value='ha
# UVM_INFO ./../regmodel/uart_reg2ahb_adapter.sv(42) @ 1253000: reporter [uart_reg2ahb_adapter] bus2reg: address = 0x14 data = 0xa kind = UVM_READ status = UVM_IS_OK
# UVM_INFO /ictc/other/tools/QuestaDVA/questasim/verilog_src/uvm-1.2/src/reg/uvm_reg_predictor.svh(225) @ 1253000: uvm_test_top.env.ahb_predictor [REG_PREDICT] Observed READ transaction to register regmodel.FSR: value='ha
# UVM_INFO ./../regmodel/uart_reg2ahb_adapter.sv(42) @ 1263000: reporter [uart_reg2ahb_adapter] bus2reg: address = 0x14 data = 0xa kind = UVM_READ status = UVM_IS_OK
# UVM_INFO /ictc/other/tools/QuestaDVA/questasim/verilog_src/uvm-1.2/src/reg/uvm_reg_predictor.svh(225) @ 1263000: uvm_test_top.env.ahb_predictor [REG_PREDICT] Observed READ transaction to register regmodel.FSR: value='ha
# UVM_INFO ./../regmodel/uart_reg2ahb_adapter.sv(42) @ 1273000: reporter [uart_reg2ahb_adapter] bus2reg: address = 0x14 data = 0xa kind = UVM_READ status = UVM_IS_OK
# UVM_INFO /ictc/other/tools/QuestaDVA/questasim/verilog_src/uvm-1.2/src/reg/uvm_reg_predictor.svh(225) @ 1273000: uvm_test_top.env.ahb_predictor [REG_PREDICT] Observed READ transaction to register regmodel.FSR: value='ha
# UVM_INFO ./../regmodel/uart_reg2ahb_adapter.sv(42) @ 1283000: reporter [uart_reg2ahb_adapter] bus2reg: address = 0x14 data = 0xa kind = UVM_READ status = UVM_IS_OK
# UVM_INFO /ictc/other/tools/QuestaDVA/questasim/verilog_src/uvm-1.2/src/reg/uvm_reg_predictor.svh(225) @ 1283000: uvm_test_top.env.ahb_predictor [REG_PREDICT] Observed READ transaction to register regmodel.FSR: value='ha
# UVM_INFO ./../regmodel/uart_reg2ahb_adapter.sv(42) @ 1293000: reporter [uart_reg2ahb_adapter] bus2reg: address = 0x14 data = 0xa kind = UVM_READ status = UVM_IS_OK
# UVM_INFO /ictc/other/tools/QuestaDVA/questasim/verilog_src/uvm-1.2/src/reg/uvm_reg_predictor.svh(225) @ 1293000: uvm_test_top.env.ahb_predictor [REG_PREDICT] Observed READ transaction to register regmodel.FSR: value='ha
# UVM_INFO ./../regmodel/uart_reg2ahb_adapter.sv(42) @ 1303000: reporter [uart_reg2ahb_adapter] bus2reg: address = 0x14 data = 0xa kind = UVM_READ status = UVM_IS_OK
# UVM_INFO /ictc/other/tools/QuestaDVA/questasim/verilog_src/uvm-1.2/src/reg/uvm_reg_predictor.svh(225) @ 1303000: uvm_test_top.env.ahb_predictor [REG_PREDICT] Observed READ transaction to register regmodel.FSR: value='ha
# UVM_INFO ./../regmodel/uart_reg2ahb_adapter.sv(42) @ 1313000: reporter [uart_reg2ahb_adapter] bus2reg: address = 0x14 data = 0xa kind = UVM_READ status = UVM_IS_OK
# UVM_INFO /ictc/other/tools/QuestaDVA/questasim/verilog_src/uvm-1.2/src/reg/uvm_reg_predictor.svh(225) @ 1313000: uvm_test_top.env.ahb_predictor [REG_PREDICT] Observed READ transaction to register regmodel.FSR: value='ha
# UVM_INFO ./../regmodel/uart_reg2ahb_adapter.sv(42) @ 1323000: reporter [uart_reg2ahb_adapter] bus2reg: address = 0x14 data = 0xa kind = UVM_READ status = UVM_IS_OK
# UVM_INFO /ictc/other/tools/QuestaDVA/questasim/verilog_src/uvm-1.2/src/reg/uvm_reg_predictor.svh(225) @ 1323000: uvm_test_top.env.ahb_predictor [REG_PREDICT] Observed READ transaction to register regmodel.FSR: value='ha
# UVM_INFO ./../regmodel/uart_reg2ahb_adapter.sv(42) @ 1333000: reporter [uart_reg2ahb_adapter] bus2reg: address = 0x14 data = 0xa kind = UVM_READ status = UVM_IS_OK
# UVM_INFO /ictc/other/tools/QuestaDVA/questasim/verilog_src/uvm-1.2/src/reg/uvm_reg_predictor.svh(225) @ 1333000: uvm_test_top.env.ahb_predictor [REG_PREDICT] Observed READ transaction to register regmodel.FSR: value='ha
# UVM_INFO ./../regmodel/uart_reg2ahb_adapter.sv(42) @ 1343000: reporter [uart_reg2ahb_adapter] bus2reg: address = 0x14 data = 0xa kind = UVM_READ status = UVM_IS_OK
# UVM_INFO /ictc/other/tools/QuestaDVA/questasim/verilog_src/uvm-1.2/src/reg/uvm_reg_predictor.svh(225) @ 1343000: uvm_test_top.env.ahb_predictor [REG_PREDICT] Observed READ transaction to register regmodel.FSR: value='ha
# UVM_INFO ./../regmodel/uart_reg2ahb_adapter.sv(42) @ 1353000: reporter [uart_reg2ahb_adapter] bus2reg: address = 0x14 data = 0xa kind = UVM_READ status = UVM_IS_OK
# UVM_INFO /ictc/other/tools/QuestaDVA/questasim/verilog_src/uvm-1.2/src/reg/uvm_reg_predictor.svh(225) @ 1353000: uvm_test_top.env.ahb_predictor [REG_PREDICT] Observed READ transaction to register regmodel.FSR: value='ha
# UVM_INFO ./../regmodel/uart_reg2ahb_adapter.sv(42) @ 1364000: reporter [uart_reg2ahb_adapter] bus2reg: address = 0x14 data = 0xa kind = UVM_READ status = UVM_IS_OK
# UVM_INFO /ictc/other/tools/QuestaDVA/questasim/verilog_src/uvm-1.2/src/reg/uvm_reg_predictor.svh(225) @ 1364000: uvm_test_top.env.ahb_predictor [REG_PREDICT] Observed READ transaction to register regmodel.FSR: value='ha
# UVM_INFO ./../regmodel/uart_reg2ahb_adapter.sv(42) @ 1374000: reporter [uart_reg2ahb_adapter] bus2reg: address = 0x14 data = 0xa kind = UVM_READ status = UVM_IS_OK
# UVM_INFO /ictc/other/tools/QuestaDVA/questasim/verilog_src/uvm-1.2/src/reg/uvm_reg_predictor.svh(225) @ 1374000: uvm_test_top.env.ahb_predictor [REG_PREDICT] Observed READ transaction to register regmodel.FSR: value='ha
# UVM_INFO ./../regmodel/uart_reg2ahb_adapter.sv(42) @ 1384000: reporter [uart_reg2ahb_adapter] bus2reg: address = 0x14 data = 0xa kind = UVM_READ status = UVM_IS_OK
# UVM_INFO /ictc/other/tools/QuestaDVA/questasim/verilog_src/uvm-1.2/src/reg/uvm_reg_predictor.svh(225) @ 1384000: uvm_test_top.env.ahb_predictor [REG_PREDICT] Observed READ transaction to register regmodel.FSR: value='ha
# UVM_INFO ./../regmodel/uart_reg2ahb_adapter.sv(42) @ 1394000: reporter [uart_reg2ahb_adapter] bus2reg: address = 0x14 data = 0xa kind = UVM_READ status = UVM_IS_OK
# UVM_INFO /ictc/other/tools/QuestaDVA/questasim/verilog_src/uvm-1.2/src/reg/uvm_reg_predictor.svh(225) @ 1394000: uvm_test_top.env.ahb_predictor [REG_PREDICT] Observed READ transaction to register regmodel.FSR: value='ha
# UVM_INFO ./../regmodel/uart_reg2ahb_adapter.sv(42) @ 1404000: reporter [uart_reg2ahb_adapter] bus2reg: address = 0x14 data = 0xa kind = UVM_READ status = UVM_IS_OK
# UVM_INFO /ictc/other/tools/QuestaDVA/questasim/verilog_src/uvm-1.2/src/reg/uvm_reg_predictor.svh(225) @ 1404000: uvm_test_top.env.ahb_predictor [REG_PREDICT] Observed READ transaction to register regmodel.FSR: value='ha
# UVM_INFO ./../regmodel/uart_reg2ahb_adapter.sv(42) @ 1414000: reporter [uart_reg2ahb_adapter] bus2reg: address = 0x14 data = 0xa kind = UVM_READ status = UVM_IS_OK
# UVM_INFO /ictc/other/tools/QuestaDVA/questasim/verilog_src/uvm-1.2/src/reg/uvm_reg_predictor.svh(225) @ 1414000: uvm_test_top.env.ahb_predictor [REG_PREDICT] Observed READ transaction to register regmodel.FSR: value='ha
# UVM_INFO ./../regmodel/uart_reg2ahb_adapter.sv(42) @ 1424000: reporter [uart_reg2ahb_adapter] bus2reg: address = 0x14 data = 0xa kind = UVM_READ status = UVM_IS_OK
# UVM_INFO /ictc/other/tools/QuestaDVA/questasim/verilog_src/uvm-1.2/src/reg/uvm_reg_predictor.svh(225) @ 1424000: uvm_test_top.env.ahb_predictor [REG_PREDICT] Observed READ transaction to register regmodel.FSR: value='ha
# UVM_INFO ./../regmodel/uart_reg2ahb_adapter.sv(42) @ 1434000: reporter [uart_reg2ahb_adapter] bus2reg: address = 0x14 data = 0xa kind = UVM_READ status = UVM_IS_OK
# UVM_INFO /ictc/other/tools/QuestaDVA/questasim/verilog_src/uvm-1.2/src/reg/uvm_reg_predictor.svh(225) @ 1434000: uvm_test_top.env.ahb_predictor [REG_PREDICT] Observed READ transaction to register regmodel.FSR: value='ha
# UVM_INFO ./../regmodel/uart_reg2ahb_adapter.sv(42) @ 1444000: reporter [uart_reg2ahb_adapter] bus2reg: address = 0x14 data = 0xa kind = UVM_READ status = UVM_IS_OK
# UVM_INFO /ictc/other/tools/QuestaDVA/questasim/verilog_src/uvm-1.2/src/reg/uvm_reg_predictor.svh(225) @ 1444000: uvm_test_top.env.ahb_predictor [REG_PREDICT] Observed READ transaction to register regmodel.FSR: value='ha
# UVM_INFO ./../regmodel/uart_reg2ahb_adapter.sv(42) @ 1454000: reporter [uart_reg2ahb_adapter] bus2reg: address = 0x14 data = 0xa kind = UVM_READ status = UVM_IS_OK
# UVM_INFO /ictc/other/tools/QuestaDVA/questasim/verilog_src/uvm-1.2/src/reg/uvm_reg_predictor.svh(225) @ 1454000: uvm_test_top.env.ahb_predictor [REG_PREDICT] Observed READ transaction to register regmodel.FSR: value='ha
# UVM_INFO ./../regmodel/uart_reg2ahb_adapter.sv(42) @ 1464000: reporter [uart_reg2ahb_adapter] bus2reg: address = 0x14 data = 0xa kind = UVM_READ status = UVM_IS_OK
# UVM_INFO /ictc/other/tools/QuestaDVA/questasim/verilog_src/uvm-1.2/src/reg/uvm_reg_predictor.svh(225) @ 1464000: uvm_test_top.env.ahb_predictor [REG_PREDICT] Observed READ transaction to register regmodel.FSR: value='ha
# UVM_INFO ./../regmodel/uart_reg2ahb_adapter.sv(42) @ 1474000: reporter [uart_reg2ahb_adapter] bus2reg: address = 0x14 data = 0xa kind = UVM_READ status = UVM_IS_OK
# UVM_INFO /ictc/other/tools/QuestaDVA/questasim/verilog_src/uvm-1.2/src/reg/uvm_reg_predictor.svh(225) @ 1474000: uvm_test_top.env.ahb_predictor [REG_PREDICT] Observed READ transaction to register regmodel.FSR: value='ha
# UVM_INFO ./../regmodel/uart_reg2ahb_adapter.sv(42) @ 1484000: reporter [uart_reg2ahb_adapter] bus2reg: address = 0x14 data = 0xa kind = UVM_READ status = UVM_IS_OK
# UVM_INFO /ictc/other/tools/QuestaDVA/questasim/verilog_src/uvm-1.2/src/reg/uvm_reg_predictor.svh(225) @ 1484000: uvm_test_top.env.ahb_predictor [REG_PREDICT] Observed READ transaction to register regmodel.FSR: value='ha
# UVM_INFO ./../regmodel/uart_reg2ahb_adapter.sv(42) @ 1495000: reporter [uart_reg2ahb_adapter] bus2reg: address = 0x14 data = 0xa kind = UVM_READ status = UVM_IS_OK
# UVM_INFO /ictc/other/tools/QuestaDVA/questasim/verilog_src/uvm-1.2/src/reg/uvm_reg_predictor.svh(225) @ 1495000: uvm_test_top.env.ahb_predictor [REG_PREDICT] Observed READ transaction to register regmodel.FSR: value='ha
# UVM_INFO ./../regmodel/uart_reg2ahb_adapter.sv(42) @ 1505000: reporter [uart_reg2ahb_adapter] bus2reg: address = 0x14 data = 0xa kind = UVM_READ status = UVM_IS_OK
# UVM_INFO /ictc/other/tools/QuestaDVA/questasim/verilog_src/uvm-1.2/src/reg/uvm_reg_predictor.svh(225) @ 1505000: uvm_test_top.env.ahb_predictor [REG_PREDICT] Observed READ transaction to register regmodel.FSR: value='ha
# UVM_INFO ./../regmodel/uart_reg2ahb_adapter.sv(42) @ 1515000: reporter [uart_reg2ahb_adapter] bus2reg: address = 0x14 data = 0xa kind = UVM_READ status = UVM_IS_OK
# UVM_INFO /ictc/other/tools/QuestaDVA/questasim/verilog_src/uvm-1.2/src/reg/uvm_reg_predictor.svh(225) @ 1515000: uvm_test_top.env.ahb_predictor [REG_PREDICT] Observed READ transaction to register regmodel.FSR: value='ha
# UVM_INFO ./../regmodel/uart_reg2ahb_adapter.sv(42) @ 1525000: reporter [uart_reg2ahb_adapter] bus2reg: address = 0x14 data = 0xa kind = UVM_READ status = UVM_IS_OK
# UVM_INFO /ictc/other/tools/QuestaDVA/questasim/verilog_src/uvm-1.2/src/reg/uvm_reg_predictor.svh(225) @ 1525000: uvm_test_top.env.ahb_predictor [REG_PREDICT] Observed READ transaction to register regmodel.FSR: value='ha
# UVM_INFO ./../regmodel/uart_reg2ahb_adapter.sv(42) @ 1535000: reporter [uart_reg2ahb_adapter] bus2reg: address = 0x14 data = 0xa kind = UVM_READ status = UVM_IS_OK
# UVM_INFO /ictc/other/tools/QuestaDVA/questasim/verilog_src/uvm-1.2/src/reg/uvm_reg_predictor.svh(225) @ 1535000: uvm_test_top.env.ahb_predictor [REG_PREDICT] Observed READ transaction to register regmodel.FSR: value='ha
# UVM_INFO ./../regmodel/uart_reg2ahb_adapter.sv(42) @ 1545000: reporter [uart_reg2ahb_adapter] bus2reg: address = 0x14 data = 0xa kind = UVM_READ status = UVM_IS_OK
# UVM_INFO /ictc/other/tools/QuestaDVA/questasim/verilog_src/uvm-1.2/src/reg/uvm_reg_predictor.svh(225) @ 1545000: uvm_test_top.env.ahb_predictor [REG_PREDICT] Observed READ transaction to register regmodel.FSR: value='ha
# UVM_INFO ./../regmodel/uart_reg2ahb_adapter.sv(42) @ 1555000: reporter [uart_reg2ahb_adapter] bus2reg: address = 0x14 data = 0xa kind = UVM_READ status = UVM_IS_OK
# UVM_INFO /ictc/other/tools/QuestaDVA/questasim/verilog_src/uvm-1.2/src/reg/uvm_reg_predictor.svh(225) @ 1555000: uvm_test_top.env.ahb_predictor [REG_PREDICT] Observed READ transaction to register regmodel.FSR: value='ha
# UVM_INFO ./../regmodel/uart_reg2ahb_adapter.sv(42) @ 1565000: reporter [uart_reg2ahb_adapter] bus2reg: address = 0x14 data = 0xa kind = UVM_READ status = UVM_IS_OK
# UVM_INFO /ictc/other/tools/QuestaDVA/questasim/verilog_src/uvm-1.2/src/reg/uvm_reg_predictor.svh(225) @ 1565000: uvm_test_top.env.ahb_predictor [REG_PREDICT] Observed READ transaction to register regmodel.FSR: value='ha
# UVM_INFO ./../regmodel/uart_reg2ahb_adapter.sv(42) @ 1575000: reporter [uart_reg2ahb_adapter] bus2reg: address = 0x14 data = 0xa kind = UVM_READ status = UVM_IS_OK
# UVM_INFO /ictc/other/tools/QuestaDVA/questasim/verilog_src/uvm-1.2/src/reg/uvm_reg_predictor.svh(225) @ 1575000: uvm_test_top.env.ahb_predictor [REG_PREDICT] Observed READ transaction to register regmodel.FSR: value='ha
# UVM_INFO ./../regmodel/uart_reg2ahb_adapter.sv(42) @ 1585000: reporter [uart_reg2ahb_adapter] bus2reg: address = 0x14 data = 0xa kind = UVM_READ status = UVM_IS_OK
# UVM_INFO /ictc/other/tools/QuestaDVA/questasim/verilog_src/uvm-1.2/src/reg/uvm_reg_predictor.svh(225) @ 1585000: uvm_test_top.env.ahb_predictor [REG_PREDICT] Observed READ transaction to register regmodel.FSR: value='ha
# UVM_INFO ./../regmodel/uart_reg2ahb_adapter.sv(42) @ 1595000: reporter [uart_reg2ahb_adapter] bus2reg: address = 0x14 data = 0xa kind = UVM_READ status = UVM_IS_OK
# UVM_INFO /ictc/other/tools/QuestaDVA/questasim/verilog_src/uvm-1.2/src/reg/uvm_reg_predictor.svh(225) @ 1595000: uvm_test_top.env.ahb_predictor [REG_PREDICT] Observed READ transaction to register regmodel.FSR: value='ha
# UVM_INFO ./../regmodel/uart_reg2ahb_adapter.sv(42) @ 1605000: reporter [uart_reg2ahb_adapter] bus2reg: address = 0x14 data = 0xa kind = UVM_READ status = UVM_IS_OK
# UVM_INFO /ictc/other/tools/QuestaDVA/questasim/verilog_src/uvm-1.2/src/reg/uvm_reg_predictor.svh(225) @ 1605000: uvm_test_top.env.ahb_predictor [REG_PREDICT] Observed READ transaction to register regmodel.FSR: value='ha
# UVM_INFO ./../regmodel/uart_reg2ahb_adapter.sv(42) @ 1616000: reporter [uart_reg2ahb_adapter] bus2reg: address = 0x14 data = 0xa kind = UVM_READ status = UVM_IS_OK
# UVM_INFO /ictc/other/tools/QuestaDVA/questasim/verilog_src/uvm-1.2/src/reg/uvm_reg_predictor.svh(225) @ 1616000: uvm_test_top.env.ahb_predictor [REG_PREDICT] Observed READ transaction to register regmodel.FSR: value='ha
# UVM_INFO ./../regmodel/uart_reg2ahb_adapter.sv(42) @ 1626000: reporter [uart_reg2ahb_adapter] bus2reg: address = 0x14 data = 0xa kind = UVM_READ status = UVM_IS_OK
# UVM_INFO /ictc/other/tools/QuestaDVA/questasim/verilog_src/uvm-1.2/src/reg/uvm_reg_predictor.svh(225) @ 1626000: uvm_test_top.env.ahb_predictor [REG_PREDICT] Observed READ transaction to register regmodel.FSR: value='ha
# UVM_INFO ./../regmodel/uart_reg2ahb_adapter.sv(42) @ 1636000: reporter [uart_reg2ahb_adapter] bus2reg: address = 0x14 data = 0xa kind = UVM_READ status = UVM_IS_OK
# UVM_INFO /ictc/other/tools/QuestaDVA/questasim/verilog_src/uvm-1.2/src/reg/uvm_reg_predictor.svh(225) @ 1636000: uvm_test_top.env.ahb_predictor [REG_PREDICT] Observed READ transaction to register regmodel.FSR: value='ha
# UVM_INFO ./../regmodel/uart_reg2ahb_adapter.sv(42) @ 1646000: reporter [uart_reg2ahb_adapter] bus2reg: address = 0x14 data = 0xa kind = UVM_READ status = UVM_IS_OK
# UVM_INFO /ictc/other/tools/QuestaDVA/questasim/verilog_src/uvm-1.2/src/reg/uvm_reg_predictor.svh(225) @ 1646000: uvm_test_top.env.ahb_predictor [REG_PREDICT] Observed READ transaction to register regmodel.FSR: value='ha
# UVM_INFO ./../regmodel/uart_reg2ahb_adapter.sv(42) @ 1656000: reporter [uart_reg2ahb_adapter] bus2reg: address = 0x14 data = 0xa kind = UVM_READ status = UVM_IS_OK
# UVM_INFO /ictc/other/tools/QuestaDVA/questasim/verilog_src/uvm-1.2/src/reg/uvm_reg_predictor.svh(225) @ 1656000: uvm_test_top.env.ahb_predictor [REG_PREDICT] Observed READ transaction to register regmodel.FSR: value='ha
# UVM_INFO ./../regmodel/uart_reg2ahb_adapter.sv(42) @ 1666000: reporter [uart_reg2ahb_adapter] bus2reg: address = 0x14 data = 0xa kind = UVM_READ status = UVM_IS_OK
# UVM_INFO /ictc/other/tools/QuestaDVA/questasim/verilog_src/uvm-1.2/src/reg/uvm_reg_predictor.svh(225) @ 1666000: uvm_test_top.env.ahb_predictor [REG_PREDICT] Observed READ transaction to register regmodel.FSR: value='ha
# UVM_INFO ./../regmodel/uart_reg2ahb_adapter.sv(42) @ 1676000: reporter [uart_reg2ahb_adapter] bus2reg: address = 0x14 data = 0xa kind = UVM_READ status = UVM_IS_OK
# UVM_INFO /ictc/other/tools/QuestaDVA/questasim/verilog_src/uvm-1.2/src/reg/uvm_reg_predictor.svh(225) @ 1676000: uvm_test_top.env.ahb_predictor [REG_PREDICT] Observed READ transaction to register regmodel.FSR: value='ha
# UVM_INFO ./../regmodel/uart_reg2ahb_adapter.sv(42) @ 1686000: reporter [uart_reg2ahb_adapter] bus2reg: address = 0x14 data = 0xa kind = UVM_READ status = UVM_IS_OK
# UVM_INFO /ictc/other/tools/QuestaDVA/questasim/verilog_src/uvm-1.2/src/reg/uvm_reg_predictor.svh(225) @ 1686000: uvm_test_top.env.ahb_predictor [REG_PREDICT] Observed READ transaction to register regmodel.FSR: value='ha
# UVM_INFO ./../regmodel/uart_reg2ahb_adapter.sv(42) @ 1696000: reporter [uart_reg2ahb_adapter] bus2reg: address = 0x14 data = 0xa kind = UVM_READ status = UVM_IS_OK
# UVM_INFO /ictc/other/tools/QuestaDVA/questasim/verilog_src/uvm-1.2/src/reg/uvm_reg_predictor.svh(225) @ 1696000: uvm_test_top.env.ahb_predictor [REG_PREDICT] Observed READ transaction to register regmodel.FSR: value='ha
# UVM_INFO ./../regmodel/uart_reg2ahb_adapter.sv(42) @ 1706000: reporter [uart_reg2ahb_adapter] bus2reg: address = 0x14 data = 0xa kind = UVM_READ status = UVM_IS_OK
# UVM_INFO /ictc/other/tools/QuestaDVA/questasim/verilog_src/uvm-1.2/src/reg/uvm_reg_predictor.svh(225) @ 1706000: uvm_test_top.env.ahb_predictor [REG_PREDICT] Observed READ transaction to register regmodel.FSR: value='ha
# UVM_INFO ./../regmodel/uart_reg2ahb_adapter.sv(42) @ 1716000: reporter [uart_reg2ahb_adapter] bus2reg: address = 0x14 data = 0xa kind = UVM_READ status = UVM_IS_OK
# UVM_INFO /ictc/other/tools/QuestaDVA/questasim/verilog_src/uvm-1.2/src/reg/uvm_reg_predictor.svh(225) @ 1716000: uvm_test_top.env.ahb_predictor [REG_PREDICT] Observed READ transaction to register regmodel.FSR: value='ha
# UVM_INFO ./../regmodel/uart_reg2ahb_adapter.sv(42) @ 1726000: reporter [uart_reg2ahb_adapter] bus2reg: address = 0x14 data = 0xa kind = UVM_READ status = UVM_IS_OK
# UVM_INFO /ictc/other/tools/QuestaDVA/questasim/verilog_src/uvm-1.2/src/reg/uvm_reg_predictor.svh(225) @ 1726000: uvm_test_top.env.ahb_predictor [REG_PREDICT] Observed READ transaction to register regmodel.FSR: value='ha
# UVM_INFO ./../regmodel/uart_reg2ahb_adapter.sv(42) @ 1736000: reporter [uart_reg2ahb_adapter] bus2reg: address = 0x14 data = 0xa kind = UVM_READ status = UVM_IS_OK
# UVM_INFO /ictc/other/tools/QuestaDVA/questasim/verilog_src/uvm-1.2/src/reg/uvm_reg_predictor.svh(225) @ 1736000: uvm_test_top.env.ahb_predictor [REG_PREDICT] Observed READ transaction to register regmodel.FSR: value='ha
# UVM_INFO ./../regmodel/uart_reg2ahb_adapter.sv(42) @ 1747000: reporter [uart_reg2ahb_adapter] bus2reg: address = 0x14 data = 0xa kind = UVM_READ status = UVM_IS_OK
# UVM_INFO /ictc/other/tools/QuestaDVA/questasim/verilog_src/uvm-1.2/src/reg/uvm_reg_predictor.svh(225) @ 1747000: uvm_test_top.env.ahb_predictor [REG_PREDICT] Observed READ transaction to register regmodel.FSR: value='ha
# UVM_INFO ./../regmodel/uart_reg2ahb_adapter.sv(42) @ 1757000: reporter [uart_reg2ahb_adapter] bus2reg: address = 0x14 data = 0xa kind = UVM_READ status = UVM_IS_OK
# UVM_INFO /ictc/other/tools/QuestaDVA/questasim/verilog_src/uvm-1.2/src/reg/uvm_reg_predictor.svh(225) @ 1757000: uvm_test_top.env.ahb_predictor [REG_PREDICT] Observed READ transaction to register regmodel.FSR: value='ha
# UVM_INFO ./../regmodel/uart_reg2ahb_adapter.sv(42) @ 1767000: reporter [uart_reg2ahb_adapter] bus2reg: address = 0x14 data = 0xa kind = UVM_READ status = UVM_IS_OK
# UVM_INFO /ictc/other/tools/QuestaDVA/questasim/verilog_src/uvm-1.2/src/reg/uvm_reg_predictor.svh(225) @ 1767000: uvm_test_top.env.ahb_predictor [REG_PREDICT] Observed READ transaction to register regmodel.FSR: value='ha
# UVM_INFO ./../regmodel/uart_reg2ahb_adapter.sv(42) @ 1777000: reporter [uart_reg2ahb_adapter] bus2reg: address = 0x14 data = 0xa kind = UVM_READ status = UVM_IS_OK
# UVM_INFO /ictc/other/tools/QuestaDVA/questasim/verilog_src/uvm-1.2/src/reg/uvm_reg_predictor.svh(225) @ 1777000: uvm_test_top.env.ahb_predictor [REG_PREDICT] Observed READ transaction to register regmodel.FSR: value='ha
# UVM_INFO ./../regmodel/uart_reg2ahb_adapter.sv(42) @ 1787000: reporter [uart_reg2ahb_adapter] bus2reg: address = 0x14 data = 0xa kind = UVM_READ status = UVM_IS_OK
# UVM_INFO /ictc/other/tools/QuestaDVA/questasim/verilog_src/uvm-1.2/src/reg/uvm_reg_predictor.svh(225) @ 1787000: uvm_test_top.env.ahb_predictor [REG_PREDICT] Observed READ transaction to register regmodel.FSR: value='ha
# UVM_INFO ./../regmodel/uart_reg2ahb_adapter.sv(42) @ 1797000: reporter [uart_reg2ahb_adapter] bus2reg: address = 0x14 data = 0xa kind = UVM_READ status = UVM_IS_OK
# UVM_INFO /ictc/other/tools/QuestaDVA/questasim/verilog_src/uvm-1.2/src/reg/uvm_reg_predictor.svh(225) @ 1797000: uvm_test_top.env.ahb_predictor [REG_PREDICT] Observed READ transaction to register regmodel.FSR: value='ha
# UVM_INFO ./../regmodel/uart_reg2ahb_adapter.sv(42) @ 1807000: reporter [uart_reg2ahb_adapter] bus2reg: address = 0x14 data = 0xa kind = UVM_READ status = UVM_IS_OK
# UVM_INFO /ictc/other/tools/QuestaDVA/questasim/verilog_src/uvm-1.2/src/reg/uvm_reg_predictor.svh(225) @ 1807000: uvm_test_top.env.ahb_predictor [REG_PREDICT] Observed READ transaction to register regmodel.FSR: value='ha
# UVM_INFO ./../regmodel/uart_reg2ahb_adapter.sv(42) @ 1817000: reporter [uart_reg2ahb_adapter] bus2reg: address = 0x14 data = 0xa kind = UVM_READ status = UVM_IS_OK
# UVM_INFO /ictc/other/tools/QuestaDVA/questasim/verilog_src/uvm-1.2/src/reg/uvm_reg_predictor.svh(225) @ 1817000: uvm_test_top.env.ahb_predictor [REG_PREDICT] Observed READ transaction to register regmodel.FSR: value='ha
# UVM_INFO ./../regmodel/uart_reg2ahb_adapter.sv(42) @ 1827000: reporter [uart_reg2ahb_adapter] bus2reg: address = 0x14 data = 0xa kind = UVM_READ status = UVM_IS_OK
# UVM_INFO /ictc/other/tools/QuestaDVA/questasim/verilog_src/uvm-1.2/src/reg/uvm_reg_predictor.svh(225) @ 1827000: uvm_test_top.env.ahb_predictor [REG_PREDICT] Observed READ transaction to register regmodel.FSR: value='ha
# UVM_INFO ./../regmodel/uart_reg2ahb_adapter.sv(42) @ 1837000: reporter [uart_reg2ahb_adapter] bus2reg: address = 0x14 data = 0xa kind = UVM_READ status = UVM_IS_OK
# UVM_INFO /ictc/other/tools/QuestaDVA/questasim/verilog_src/uvm-1.2/src/reg/uvm_reg_predictor.svh(225) @ 1837000: uvm_test_top.env.ahb_predictor [REG_PREDICT] Observed READ transaction to register regmodel.FSR: value='ha
# UVM_INFO ./../regmodel/uart_reg2ahb_adapter.sv(42) @ 1847000: reporter [uart_reg2ahb_adapter] bus2reg: address = 0x14 data = 0xa kind = UVM_READ status = UVM_IS_OK
# UVM_INFO /ictc/other/tools/QuestaDVA/questasim/verilog_src/uvm-1.2/src/reg/uvm_reg_predictor.svh(225) @ 1847000: uvm_test_top.env.ahb_predictor [REG_PREDICT] Observed READ transaction to register regmodel.FSR: value='ha
# UVM_INFO ./../regmodel/uart_reg2ahb_adapter.sv(42) @ 1857000: reporter [uart_reg2ahb_adapter] bus2reg: address = 0x14 data = 0xa kind = UVM_READ status = UVM_IS_OK
# UVM_INFO /ictc/other/tools/QuestaDVA/questasim/verilog_src/uvm-1.2/src/reg/uvm_reg_predictor.svh(225) @ 1857000: uvm_test_top.env.ahb_predictor [REG_PREDICT] Observed READ transaction to register regmodel.FSR: value='ha
# UVM_INFO ./../regmodel/uart_reg2ahb_adapter.sv(42) @ 1868000: reporter [uart_reg2ahb_adapter] bus2reg: address = 0x14 data = 0xa kind = UVM_READ status = UVM_IS_OK
# UVM_INFO /ictc/other/tools/QuestaDVA/questasim/verilog_src/uvm-1.2/src/reg/uvm_reg_predictor.svh(225) @ 1868000: uvm_test_top.env.ahb_predictor [REG_PREDICT] Observed READ transaction to register regmodel.FSR: value='ha
# UVM_INFO ./../regmodel/uart_reg2ahb_adapter.sv(42) @ 1878000: reporter [uart_reg2ahb_adapter] bus2reg: address = 0x14 data = 0xa kind = UVM_READ status = UVM_IS_OK
# UVM_INFO /ictc/other/tools/QuestaDVA/questasim/verilog_src/uvm-1.2/src/reg/uvm_reg_predictor.svh(225) @ 1878000: uvm_test_top.env.ahb_predictor [REG_PREDICT] Observed READ transaction to register regmodel.FSR: value='ha
# UVM_INFO ./../regmodel/uart_reg2ahb_adapter.sv(42) @ 1888000: reporter [uart_reg2ahb_adapter] bus2reg: address = 0x14 data = 0xa kind = UVM_READ status = UVM_IS_OK
# UVM_INFO /ictc/other/tools/QuestaDVA/questasim/verilog_src/uvm-1.2/src/reg/uvm_reg_predictor.svh(225) @ 1888000: uvm_test_top.env.ahb_predictor [REG_PREDICT] Observed READ transaction to register regmodel.FSR: value='ha
# UVM_INFO ./../regmodel/uart_reg2ahb_adapter.sv(42) @ 1898000: reporter [uart_reg2ahb_adapter] bus2reg: address = 0x14 data = 0xa kind = UVM_READ status = UVM_IS_OK
# UVM_INFO /ictc/other/tools/QuestaDVA/questasim/verilog_src/uvm-1.2/src/reg/uvm_reg_predictor.svh(225) @ 1898000: uvm_test_top.env.ahb_predictor [REG_PREDICT] Observed READ transaction to register regmodel.FSR: value='ha
# UVM_INFO ./../regmodel/uart_reg2ahb_adapter.sv(42) @ 1908000: reporter [uart_reg2ahb_adapter] bus2reg: address = 0x14 data = 0xa kind = UVM_READ status = UVM_IS_OK
# UVM_INFO /ictc/other/tools/QuestaDVA/questasim/verilog_src/uvm-1.2/src/reg/uvm_reg_predictor.svh(225) @ 1908000: uvm_test_top.env.ahb_predictor [REG_PREDICT] Observed READ transaction to register regmodel.FSR: value='ha
# UVM_INFO ./../regmodel/uart_reg2ahb_adapter.sv(42) @ 1918000: reporter [uart_reg2ahb_adapter] bus2reg: address = 0x14 data = 0xa kind = UVM_READ status = UVM_IS_OK
# UVM_INFO /ictc/other/tools/QuestaDVA/questasim/verilog_src/uvm-1.2/src/reg/uvm_reg_predictor.svh(225) @ 1918000: uvm_test_top.env.ahb_predictor [REG_PREDICT] Observed READ transaction to register regmodel.FSR: value='ha
# UVM_INFO ./../regmodel/uart_reg2ahb_adapter.sv(42) @ 1928000: reporter [uart_reg2ahb_adapter] bus2reg: address = 0x14 data = 0xa kind = UVM_READ status = UVM_IS_OK
# UVM_INFO /ictc/other/tools/QuestaDVA/questasim/verilog_src/uvm-1.2/src/reg/uvm_reg_predictor.svh(225) @ 1928000: uvm_test_top.env.ahb_predictor [REG_PREDICT] Observed READ transaction to register regmodel.FSR: value='ha
# UVM_INFO ./../regmodel/uart_reg2ahb_adapter.sv(42) @ 1938000: reporter [uart_reg2ahb_adapter] bus2reg: address = 0x14 data = 0xa kind = UVM_READ status = UVM_IS_OK
# UVM_INFO /ictc/other/tools/QuestaDVA/questasim/verilog_src/uvm-1.2/src/reg/uvm_reg_predictor.svh(225) @ 1938000: uvm_test_top.env.ahb_predictor [REG_PREDICT] Observed READ transaction to register regmodel.FSR: value='ha
# UVM_INFO ./../regmodel/uart_reg2ahb_adapter.sv(42) @ 1948000: reporter [uart_reg2ahb_adapter] bus2reg: address = 0x14 data = 0xa kind = UVM_READ status = UVM_IS_OK
# UVM_INFO /ictc/other/tools/QuestaDVA/questasim/verilog_src/uvm-1.2/src/reg/uvm_reg_predictor.svh(225) @ 1948000: uvm_test_top.env.ahb_predictor [REG_PREDICT] Observed READ transaction to register regmodel.FSR: value='ha
# UVM_INFO ./../regmodel/uart_reg2ahb_adapter.sv(42) @ 1958000: reporter [uart_reg2ahb_adapter] bus2reg: address = 0x14 data = 0xa kind = UVM_READ status = UVM_IS_OK
# UVM_INFO /ictc/other/tools/QuestaDVA/questasim/verilog_src/uvm-1.2/src/reg/uvm_reg_predictor.svh(225) @ 1958000: uvm_test_top.env.ahb_predictor [REG_PREDICT] Observed READ transaction to register regmodel.FSR: value='ha
# UVM_INFO ./../regmodel/uart_reg2ahb_adapter.sv(42) @ 1968000: reporter [uart_reg2ahb_adapter] bus2reg: address = 0x14 data = 0xa kind = UVM_READ status = UVM_IS_OK
# UVM_INFO /ictc/other/tools/QuestaDVA/questasim/verilog_src/uvm-1.2/src/reg/uvm_reg_predictor.svh(225) @ 1968000: uvm_test_top.env.ahb_predictor [REG_PREDICT] Observed READ transaction to register regmodel.FSR: value='ha
# UVM_INFO ./../regmodel/uart_reg2ahb_adapter.sv(42) @ 1978000: reporter [uart_reg2ahb_adapter] bus2reg: address = 0x14 data = 0xa kind = UVM_READ status = UVM_IS_OK
# UVM_INFO /ictc/other/tools/QuestaDVA/questasim/verilog_src/uvm-1.2/src/reg/uvm_reg_predictor.svh(225) @ 1978000: uvm_test_top.env.ahb_predictor [REG_PREDICT] Observed READ transaction to register regmodel.FSR: value='ha
# UVM_INFO ./../regmodel/uart_reg2ahb_adapter.sv(42) @ 1988000: reporter [uart_reg2ahb_adapter] bus2reg: address = 0x14 data = 0xa kind = UVM_READ status = UVM_IS_OK
# UVM_INFO /ictc/other/tools/QuestaDVA/questasim/verilog_src/uvm-1.2/src/reg/uvm_reg_predictor.svh(225) @ 1988000: uvm_test_top.env.ahb_predictor [REG_PREDICT] Observed READ transaction to register regmodel.FSR: value='ha
# UVM_INFO ./../regmodel/uart_reg2ahb_adapter.sv(42) @ 1999000: reporter [uart_reg2ahb_adapter] bus2reg: address = 0x14 data = 0xa kind = UVM_READ status = UVM_IS_OK
# UVM_INFO /ictc/other/tools/QuestaDVA/questasim/verilog_src/uvm-1.2/src/reg/uvm_reg_predictor.svh(225) @ 1999000: uvm_test_top.env.ahb_predictor [REG_PREDICT] Observed READ transaction to register regmodel.FSR: value='ha
# UVM_INFO ./../regmodel/uart_reg2ahb_adapter.sv(42) @ 2009000: reporter [uart_reg2ahb_adapter] bus2reg: address = 0x14 data = 0xa kind = UVM_READ status = UVM_IS_OK
# UVM_INFO /ictc/other/tools/QuestaDVA/questasim/verilog_src/uvm-1.2/src/reg/uvm_reg_predictor.svh(225) @ 2009000: uvm_test_top.env.ahb_predictor [REG_PREDICT] Observed READ transaction to register regmodel.FSR: value='ha
# UVM_INFO ./../regmodel/uart_reg2ahb_adapter.sv(42) @ 2019000: reporter [uart_reg2ahb_adapter] bus2reg: address = 0x14 data = 0xa kind = UVM_READ status = UVM_IS_OK
# UVM_INFO /ictc/other/tools/QuestaDVA/questasim/verilog_src/uvm-1.2/src/reg/uvm_reg_predictor.svh(225) @ 2019000: uvm_test_top.env.ahb_predictor [REG_PREDICT] Observed READ transaction to register regmodel.FSR: value='ha
# UVM_INFO ./../regmodel/uart_reg2ahb_adapter.sv(42) @ 2029000: reporter [uart_reg2ahb_adapter] bus2reg: address = 0x14 data = 0xa kind = UVM_READ status = UVM_IS_OK
# UVM_INFO /ictc/other/tools/QuestaDVA/questasim/verilog_src/uvm-1.2/src/reg/uvm_reg_predictor.svh(225) @ 2029000: uvm_test_top.env.ahb_predictor [REG_PREDICT] Observed READ transaction to register regmodel.FSR: value='ha
# UVM_INFO ./../regmodel/uart_reg2ahb_adapter.sv(42) @ 2039000: reporter [uart_reg2ahb_adapter] bus2reg: address = 0x14 data = 0xa kind = UVM_READ status = UVM_IS_OK
# UVM_INFO /ictc/other/tools/QuestaDVA/questasim/verilog_src/uvm-1.2/src/reg/uvm_reg_predictor.svh(225) @ 2039000: uvm_test_top.env.ahb_predictor [REG_PREDICT] Observed READ transaction to register regmodel.FSR: value='ha
# UVM_INFO ./../regmodel/uart_reg2ahb_adapter.sv(42) @ 2049000: reporter [uart_reg2ahb_adapter] bus2reg: address = 0x14 data = 0xa kind = UVM_READ status = UVM_IS_OK
# UVM_INFO /ictc/other/tools/QuestaDVA/questasim/verilog_src/uvm-1.2/src/reg/uvm_reg_predictor.svh(225) @ 2049000: uvm_test_top.env.ahb_predictor [REG_PREDICT] Observed READ transaction to register regmodel.FSR: value='ha
# UVM_INFO ./../regmodel/uart_reg2ahb_adapter.sv(42) @ 2059000: reporter [uart_reg2ahb_adapter] bus2reg: address = 0x14 data = 0xa kind = UVM_READ status = UVM_IS_OK
# UVM_INFO /ictc/other/tools/QuestaDVA/questasim/verilog_src/uvm-1.2/src/reg/uvm_reg_predictor.svh(225) @ 2059000: uvm_test_top.env.ahb_predictor [REG_PREDICT] Observed READ transaction to register regmodel.FSR: value='ha
# UVM_INFO ./../regmodel/uart_reg2ahb_adapter.sv(42) @ 2069000: reporter [uart_reg2ahb_adapter] bus2reg: address = 0x14 data = 0xa kind = UVM_READ status = UVM_IS_OK
# UVM_INFO /ictc/other/tools/QuestaDVA/questasim/verilog_src/uvm-1.2/src/reg/uvm_reg_predictor.svh(225) @ 2069000: uvm_test_top.env.ahb_predictor [REG_PREDICT] Observed READ transaction to register regmodel.FSR: value='ha
# UVM_INFO ./../regmodel/uart_reg2ahb_adapter.sv(42) @ 2079000: reporter [uart_reg2ahb_adapter] bus2reg: address = 0x14 data = 0xa kind = UVM_READ status = UVM_IS_OK
# UVM_INFO /ictc/other/tools/QuestaDVA/questasim/verilog_src/uvm-1.2/src/reg/uvm_reg_predictor.svh(225) @ 2079000: uvm_test_top.env.ahb_predictor [REG_PREDICT] Observed READ transaction to register regmodel.FSR: value='ha
# UVM_INFO ./../regmodel/uart_reg2ahb_adapter.sv(42) @ 2089000: reporter [uart_reg2ahb_adapter] bus2reg: address = 0x14 data = 0xa kind = UVM_READ status = UVM_IS_OK
# UVM_INFO /ictc/other/tools/QuestaDVA/questasim/verilog_src/uvm-1.2/src/reg/uvm_reg_predictor.svh(225) @ 2089000: uvm_test_top.env.ahb_predictor [REG_PREDICT] Observed READ transaction to register regmodel.FSR: value='ha
# UVM_INFO ./../regmodel/uart_reg2ahb_adapter.sv(42) @ 2099000: reporter [uart_reg2ahb_adapter] bus2reg: address = 0x14 data = 0xa kind = UVM_READ status = UVM_IS_OK
# UVM_INFO /ictc/other/tools/QuestaDVA/questasim/verilog_src/uvm-1.2/src/reg/uvm_reg_predictor.svh(225) @ 2099000: uvm_test_top.env.ahb_predictor [REG_PREDICT] Observed READ transaction to register regmodel.FSR: value='ha
# UVM_INFO ./../regmodel/uart_reg2ahb_adapter.sv(42) @ 2109000: reporter [uart_reg2ahb_adapter] bus2reg: address = 0x14 data = 0xa kind = UVM_READ status = UVM_IS_OK
# UVM_INFO /ictc/other/tools/QuestaDVA/questasim/verilog_src/uvm-1.2/src/reg/uvm_reg_predictor.svh(225) @ 2109000: uvm_test_top.env.ahb_predictor [REG_PREDICT] Observed READ transaction to register regmodel.FSR: value='ha
# UVM_INFO ./../regmodel/uart_reg2ahb_adapter.sv(42) @ 2120000: reporter [uart_reg2ahb_adapter] bus2reg: address = 0x14 data = 0xa kind = UVM_READ status = UVM_IS_OK
# UVM_INFO /ictc/other/tools/QuestaDVA/questasim/verilog_src/uvm-1.2/src/reg/uvm_reg_predictor.svh(225) @ 2120000: uvm_test_top.env.ahb_predictor [REG_PREDICT] Observed READ transaction to register regmodel.FSR: value='ha
# UVM_INFO ./../regmodel/uart_reg2ahb_adapter.sv(42) @ 2130000: reporter [uart_reg2ahb_adapter] bus2reg: address = 0x14 data = 0xa kind = UVM_READ status = UVM_IS_OK
# UVM_INFO /ictc/other/tools/QuestaDVA/questasim/verilog_src/uvm-1.2/src/reg/uvm_reg_predictor.svh(225) @ 2130000: uvm_test_top.env.ahb_predictor [REG_PREDICT] Observed READ transaction to register regmodel.FSR: value='ha
# UVM_INFO ./../regmodel/uart_reg2ahb_adapter.sv(42) @ 2140000: reporter [uart_reg2ahb_adapter] bus2reg: address = 0x14 data = 0xa kind = UVM_READ status = UVM_IS_OK
# UVM_INFO /ictc/other/tools/QuestaDVA/questasim/verilog_src/uvm-1.2/src/reg/uvm_reg_predictor.svh(225) @ 2140000: uvm_test_top.env.ahb_predictor [REG_PREDICT] Observed READ transaction to register regmodel.FSR: value='ha
# UVM_INFO ./../regmodel/uart_reg2ahb_adapter.sv(42) @ 2150000: reporter [uart_reg2ahb_adapter] bus2reg: address = 0x14 data = 0xa kind = UVM_READ status = UVM_IS_OK
# UVM_INFO /ictc/other/tools/QuestaDVA/questasim/verilog_src/uvm-1.2/src/reg/uvm_reg_predictor.svh(225) @ 2150000: uvm_test_top.env.ahb_predictor [REG_PREDICT] Observed READ transaction to register regmodel.FSR: value='ha
# UVM_INFO ./../regmodel/uart_reg2ahb_adapter.sv(42) @ 2160000: reporter [uart_reg2ahb_adapter] bus2reg: address = 0x14 data = 0xa kind = UVM_READ status = UVM_IS_OK
# UVM_INFO /ictc/other/tools/QuestaDVA/questasim/verilog_src/uvm-1.2/src/reg/uvm_reg_predictor.svh(225) @ 2160000: uvm_test_top.env.ahb_predictor [REG_PREDICT] Observed READ transaction to register regmodel.FSR: value='ha
# UVM_INFO ./../regmodel/uart_reg2ahb_adapter.sv(42) @ 2170000: reporter [uart_reg2ahb_adapter] bus2reg: address = 0x14 data = 0xa kind = UVM_READ status = UVM_IS_OK
# UVM_INFO /ictc/other/tools/QuestaDVA/questasim/verilog_src/uvm-1.2/src/reg/uvm_reg_predictor.svh(225) @ 2170000: uvm_test_top.env.ahb_predictor [REG_PREDICT] Observed READ transaction to register regmodel.FSR: value='ha
# UVM_INFO ./../regmodel/uart_reg2ahb_adapter.sv(42) @ 2180000: reporter [uart_reg2ahb_adapter] bus2reg: address = 0x14 data = 0xa kind = UVM_READ status = UVM_IS_OK
# UVM_INFO /ictc/other/tools/QuestaDVA/questasim/verilog_src/uvm-1.2/src/reg/uvm_reg_predictor.svh(225) @ 2180000: uvm_test_top.env.ahb_predictor [REG_PREDICT] Observed READ transaction to register regmodel.FSR: value='ha
# UVM_INFO ./../regmodel/uart_reg2ahb_adapter.sv(42) @ 2190000: reporter [uart_reg2ahb_adapter] bus2reg: address = 0x14 data = 0xa kind = UVM_READ status = UVM_IS_OK
# UVM_INFO /ictc/other/tools/QuestaDVA/questasim/verilog_src/uvm-1.2/src/reg/uvm_reg_predictor.svh(225) @ 2190000: uvm_test_top.env.ahb_predictor [REG_PREDICT] Observed READ transaction to register regmodel.FSR: value='ha
# UVM_INFO ./../regmodel/uart_reg2ahb_adapter.sv(42) @ 2200000: reporter [uart_reg2ahb_adapter] bus2reg: address = 0x14 data = 0xa kind = UVM_READ status = UVM_IS_OK
# UVM_INFO /ictc/other/tools/QuestaDVA/questasim/verilog_src/uvm-1.2/src/reg/uvm_reg_predictor.svh(225) @ 2200000: uvm_test_top.env.ahb_predictor [REG_PREDICT] Observed READ transaction to register regmodel.FSR: value='ha
# UVM_INFO ./../regmodel/uart_reg2ahb_adapter.sv(42) @ 2210000: reporter [uart_reg2ahb_adapter] bus2reg: address = 0x14 data = 0xa kind = UVM_READ status = UVM_IS_OK
# UVM_INFO /ictc/other/tools/QuestaDVA/questasim/verilog_src/uvm-1.2/src/reg/uvm_reg_predictor.svh(225) @ 2210000: uvm_test_top.env.ahb_predictor [REG_PREDICT] Observed READ transaction to register regmodel.FSR: value='ha
# UVM_INFO ./../regmodel/uart_reg2ahb_adapter.sv(42) @ 2220000: reporter [uart_reg2ahb_adapter] bus2reg: address = 0x14 data = 0xa kind = UVM_READ status = UVM_IS_OK
# UVM_INFO /ictc/other/tools/QuestaDVA/questasim/verilog_src/uvm-1.2/src/reg/uvm_reg_predictor.svh(225) @ 2220000: uvm_test_top.env.ahb_predictor [REG_PREDICT] Observed READ transaction to register regmodel.FSR: value='ha
# UVM_INFO ./../regmodel/uart_reg2ahb_adapter.sv(42) @ 2230000: reporter [uart_reg2ahb_adapter] bus2reg: address = 0x14 data = 0xa kind = UVM_READ status = UVM_IS_OK
# UVM_INFO /ictc/other/tools/QuestaDVA/questasim/verilog_src/uvm-1.2/src/reg/uvm_reg_predictor.svh(225) @ 2230000: uvm_test_top.env.ahb_predictor [REG_PREDICT] Observed READ transaction to register regmodel.FSR: value='ha
# UVM_INFO ./../regmodel/uart_reg2ahb_adapter.sv(42) @ 2240000: reporter [uart_reg2ahb_adapter] bus2reg: address = 0x14 data = 0xa kind = UVM_READ status = UVM_IS_OK
# UVM_INFO /ictc/other/tools/QuestaDVA/questasim/verilog_src/uvm-1.2/src/reg/uvm_reg_predictor.svh(225) @ 2240000: uvm_test_top.env.ahb_predictor [REG_PREDICT] Observed READ transaction to register regmodel.FSR: value='ha
# UVM_INFO ./../regmodel/uart_reg2ahb_adapter.sv(42) @ 2251000: reporter [uart_reg2ahb_adapter] bus2reg: address = 0x14 data = 0xa kind = UVM_READ status = UVM_IS_OK
# UVM_INFO /ictc/other/tools/QuestaDVA/questasim/verilog_src/uvm-1.2/src/reg/uvm_reg_predictor.svh(225) @ 2251000: uvm_test_top.env.ahb_predictor [REG_PREDICT] Observed READ transaction to register regmodel.FSR: value='ha
# UVM_INFO ./../regmodel/uart_reg2ahb_adapter.sv(42) @ 2261000: reporter [uart_reg2ahb_adapter] bus2reg: address = 0x14 data = 0xa kind = UVM_READ status = UVM_IS_OK
# UVM_INFO /ictc/other/tools/QuestaDVA/questasim/verilog_src/uvm-1.2/src/reg/uvm_reg_predictor.svh(225) @ 2261000: uvm_test_top.env.ahb_predictor [REG_PREDICT] Observed READ transaction to register regmodel.FSR: value='ha
# UVM_INFO ./../regmodel/uart_reg2ahb_adapter.sv(42) @ 2271000: reporter [uart_reg2ahb_adapter] bus2reg: address = 0x14 data = 0xa kind = UVM_READ status = UVM_IS_OK
# UVM_INFO /ictc/other/tools/QuestaDVA/questasim/verilog_src/uvm-1.2/src/reg/uvm_reg_predictor.svh(225) @ 2271000: uvm_test_top.env.ahb_predictor [REG_PREDICT] Observed READ transaction to register regmodel.FSR: value='ha
# UVM_INFO ./../regmodel/uart_reg2ahb_adapter.sv(42) @ 2281000: reporter [uart_reg2ahb_adapter] bus2reg: address = 0x14 data = 0xa kind = UVM_READ status = UVM_IS_OK
# UVM_INFO /ictc/other/tools/QuestaDVA/questasim/verilog_src/uvm-1.2/src/reg/uvm_reg_predictor.svh(225) @ 2281000: uvm_test_top.env.ahb_predictor [REG_PREDICT] Observed READ transaction to register regmodel.FSR: value='ha
# UVM_INFO ./../regmodel/uart_reg2ahb_adapter.sv(42) @ 2291000: reporter [uart_reg2ahb_adapter] bus2reg: address = 0x14 data = 0xa kind = UVM_READ status = UVM_IS_OK
# UVM_INFO /ictc/other/tools/QuestaDVA/questasim/verilog_src/uvm-1.2/src/reg/uvm_reg_predictor.svh(225) @ 2291000: uvm_test_top.env.ahb_predictor [REG_PREDICT] Observed READ transaction to register regmodel.FSR: value='ha
# UVM_INFO ./../regmodel/uart_reg2ahb_adapter.sv(42) @ 2301000: reporter [uart_reg2ahb_adapter] bus2reg: address = 0x14 data = 0xa kind = UVM_READ status = UVM_IS_OK
# UVM_INFO /ictc/other/tools/QuestaDVA/questasim/verilog_src/uvm-1.2/src/reg/uvm_reg_predictor.svh(225) @ 2301000: uvm_test_top.env.ahb_predictor [REG_PREDICT] Observed READ transaction to register regmodel.FSR: value='ha
# UVM_INFO ./../regmodel/uart_reg2ahb_adapter.sv(42) @ 2311000: reporter [uart_reg2ahb_adapter] bus2reg: address = 0x14 data = 0xa kind = UVM_READ status = UVM_IS_OK
# UVM_INFO /ictc/other/tools/QuestaDVA/questasim/verilog_src/uvm-1.2/src/reg/uvm_reg_predictor.svh(225) @ 2311000: uvm_test_top.env.ahb_predictor [REG_PREDICT] Observed READ transaction to register regmodel.FSR: value='ha
# UVM_INFO ./../regmodel/uart_reg2ahb_adapter.sv(42) @ 2321000: reporter [uart_reg2ahb_adapter] bus2reg: address = 0x14 data = 0xa kind = UVM_READ status = UVM_IS_OK
# UVM_INFO /ictc/other/tools/QuestaDVA/questasim/verilog_src/uvm-1.2/src/reg/uvm_reg_predictor.svh(225) @ 2321000: uvm_test_top.env.ahb_predictor [REG_PREDICT] Observed READ transaction to register regmodel.FSR: value='ha
# UVM_INFO ./../regmodel/uart_reg2ahb_adapter.sv(42) @ 2331000: reporter [uart_reg2ahb_adapter] bus2reg: address = 0x14 data = 0xa kind = UVM_READ status = UVM_IS_OK
# UVM_INFO /ictc/other/tools/QuestaDVA/questasim/verilog_src/uvm-1.2/src/reg/uvm_reg_predictor.svh(225) @ 2331000: uvm_test_top.env.ahb_predictor [REG_PREDICT] Observed READ transaction to register regmodel.FSR: value='ha
# UVM_INFO ./../regmodel/uart_reg2ahb_adapter.sv(42) @ 2341000: reporter [uart_reg2ahb_adapter] bus2reg: address = 0x14 data = 0xa kind = UVM_READ status = UVM_IS_OK
# UVM_INFO /ictc/other/tools/QuestaDVA/questasim/verilog_src/uvm-1.2/src/reg/uvm_reg_predictor.svh(225) @ 2341000: uvm_test_top.env.ahb_predictor [REG_PREDICT] Observed READ transaction to register regmodel.FSR: value='ha
# UVM_INFO ./../regmodel/uart_reg2ahb_adapter.sv(42) @ 2351000: reporter [uart_reg2ahb_adapter] bus2reg: address = 0x14 data = 0xa kind = UVM_READ status = UVM_IS_OK
# UVM_INFO /ictc/other/tools/QuestaDVA/questasim/verilog_src/uvm-1.2/src/reg/uvm_reg_predictor.svh(225) @ 2351000: uvm_test_top.env.ahb_predictor [REG_PREDICT] Observed READ transaction to register regmodel.FSR: value='ha
# UVM_INFO ./../regmodel/uart_reg2ahb_adapter.sv(42) @ 2361000: reporter [uart_reg2ahb_adapter] bus2reg: address = 0x14 data = 0xa kind = UVM_READ status = UVM_IS_OK
# UVM_INFO /ictc/other/tools/QuestaDVA/questasim/verilog_src/uvm-1.2/src/reg/uvm_reg_predictor.svh(225) @ 2361000: uvm_test_top.env.ahb_predictor [REG_PREDICT] Observed READ transaction to register regmodel.FSR: value='ha
# UVM_INFO ./../regmodel/uart_reg2ahb_adapter.sv(42) @ 2372000: reporter [uart_reg2ahb_adapter] bus2reg: address = 0x14 data = 0xa kind = UVM_READ status = UVM_IS_OK
# UVM_INFO /ictc/other/tools/QuestaDVA/questasim/verilog_src/uvm-1.2/src/reg/uvm_reg_predictor.svh(225) @ 2372000: uvm_test_top.env.ahb_predictor [REG_PREDICT] Observed READ transaction to register regmodel.FSR: value='ha
# UVM_INFO ./../regmodel/uart_reg2ahb_adapter.sv(42) @ 2382000: reporter [uart_reg2ahb_adapter] bus2reg: address = 0x14 data = 0xa kind = UVM_READ status = UVM_IS_OK
# UVM_INFO /ictc/other/tools/QuestaDVA/questasim/verilog_src/uvm-1.2/src/reg/uvm_reg_predictor.svh(225) @ 2382000: uvm_test_top.env.ahb_predictor [REG_PREDICT] Observed READ transaction to register regmodel.FSR: value='ha
# UVM_INFO ./../regmodel/uart_reg2ahb_adapter.sv(42) @ 2392000: reporter [uart_reg2ahb_adapter] bus2reg: address = 0x14 data = 0xa kind = UVM_READ status = UVM_IS_OK
# UVM_INFO /ictc/other/tools/QuestaDVA/questasim/verilog_src/uvm-1.2/src/reg/uvm_reg_predictor.svh(225) @ 2392000: uvm_test_top.env.ahb_predictor [REG_PREDICT] Observed READ transaction to register regmodel.FSR: value='ha
# UVM_INFO ./../regmodel/uart_reg2ahb_adapter.sv(42) @ 2402000: reporter [uart_reg2ahb_adapter] bus2reg: address = 0x14 data = 0xa kind = UVM_READ status = UVM_IS_OK
# UVM_INFO /ictc/other/tools/QuestaDVA/questasim/verilog_src/uvm-1.2/src/reg/uvm_reg_predictor.svh(225) @ 2402000: uvm_test_top.env.ahb_predictor [REG_PREDICT] Observed READ transaction to register regmodel.FSR: value='ha
# UVM_INFO ./../regmodel/uart_reg2ahb_adapter.sv(42) @ 2412000: reporter [uart_reg2ahb_adapter] bus2reg: address = 0x14 data = 0xa kind = UVM_READ status = UVM_IS_OK
# UVM_INFO /ictc/other/tools/QuestaDVA/questasim/verilog_src/uvm-1.2/src/reg/uvm_reg_predictor.svh(225) @ 2412000: uvm_test_top.env.ahb_predictor [REG_PREDICT] Observed READ transaction to register regmodel.FSR: value='ha
# UVM_INFO ./../regmodel/uart_reg2ahb_adapter.sv(42) @ 2422000: reporter [uart_reg2ahb_adapter] bus2reg: address = 0x14 data = 0xa kind = UVM_READ status = UVM_IS_OK
# UVM_INFO /ictc/other/tools/QuestaDVA/questasim/verilog_src/uvm-1.2/src/reg/uvm_reg_predictor.svh(225) @ 2422000: uvm_test_top.env.ahb_predictor [REG_PREDICT] Observed READ transaction to register regmodel.FSR: value='ha
# UVM_INFO ./../regmodel/uart_reg2ahb_adapter.sv(42) @ 2432000: reporter [uart_reg2ahb_adapter] bus2reg: address = 0x14 data = 0xa kind = UVM_READ status = UVM_IS_OK
# UVM_INFO /ictc/other/tools/QuestaDVA/questasim/verilog_src/uvm-1.2/src/reg/uvm_reg_predictor.svh(225) @ 2432000: uvm_test_top.env.ahb_predictor [REG_PREDICT] Observed READ transaction to register regmodel.FSR: value='ha
# UVM_INFO ./../regmodel/uart_reg2ahb_adapter.sv(42) @ 2442000: reporter [uart_reg2ahb_adapter] bus2reg: address = 0x14 data = 0xa kind = UVM_READ status = UVM_IS_OK
# UVM_INFO /ictc/other/tools/QuestaDVA/questasim/verilog_src/uvm-1.2/src/reg/uvm_reg_predictor.svh(225) @ 2442000: uvm_test_top.env.ahb_predictor [REG_PREDICT] Observed READ transaction to register regmodel.FSR: value='ha
# UVM_INFO ./../regmodel/uart_reg2ahb_adapter.sv(42) @ 2452000: reporter [uart_reg2ahb_adapter] bus2reg: address = 0x14 data = 0xa kind = UVM_READ status = UVM_IS_OK
# UVM_INFO /ictc/other/tools/QuestaDVA/questasim/verilog_src/uvm-1.2/src/reg/uvm_reg_predictor.svh(225) @ 2452000: uvm_test_top.env.ahb_predictor [REG_PREDICT] Observed READ transaction to register regmodel.FSR: value='ha
# UVM_INFO ./../regmodel/uart_reg2ahb_adapter.sv(42) @ 2462000: reporter [uart_reg2ahb_adapter] bus2reg: address = 0x14 data = 0xa kind = UVM_READ status = UVM_IS_OK
# UVM_INFO /ictc/other/tools/QuestaDVA/questasim/verilog_src/uvm-1.2/src/reg/uvm_reg_predictor.svh(225) @ 2462000: uvm_test_top.env.ahb_predictor [REG_PREDICT] Observed READ transaction to register regmodel.FSR: value='ha
# UVM_INFO ./../regmodel/uart_reg2ahb_adapter.sv(42) @ 2472000: reporter [uart_reg2ahb_adapter] bus2reg: address = 0x14 data = 0xa kind = UVM_READ status = UVM_IS_OK
# UVM_INFO /ictc/other/tools/QuestaDVA/questasim/verilog_src/uvm-1.2/src/reg/uvm_reg_predictor.svh(225) @ 2472000: uvm_test_top.env.ahb_predictor [REG_PREDICT] Observed READ transaction to register regmodel.FSR: value='ha
# UVM_INFO ./../regmodel/uart_reg2ahb_adapter.sv(42) @ 2482000: reporter [uart_reg2ahb_adapter] bus2reg: address = 0x14 data = 0xa kind = UVM_READ status = UVM_IS_OK
# UVM_INFO /ictc/other/tools/QuestaDVA/questasim/verilog_src/uvm-1.2/src/reg/uvm_reg_predictor.svh(225) @ 2482000: uvm_test_top.env.ahb_predictor [REG_PREDICT] Observed READ transaction to register regmodel.FSR: value='ha
# UVM_INFO ./../regmodel/uart_reg2ahb_adapter.sv(42) @ 2492000: reporter [uart_reg2ahb_adapter] bus2reg: address = 0x14 data = 0xa kind = UVM_READ status = UVM_IS_OK
# UVM_INFO /ictc/other/tools/QuestaDVA/questasim/verilog_src/uvm-1.2/src/reg/uvm_reg_predictor.svh(225) @ 2492000: uvm_test_top.env.ahb_predictor [REG_PREDICT] Observed READ transaction to register regmodel.FSR: value='ha
# UVM_INFO ./../regmodel/uart_reg2ahb_adapter.sv(42) @ 2503000: reporter [uart_reg2ahb_adapter] bus2reg: address = 0x14 data = 0xa kind = UVM_READ status = UVM_IS_OK
# UVM_INFO /ictc/other/tools/QuestaDVA/questasim/verilog_src/uvm-1.2/src/reg/uvm_reg_predictor.svh(225) @ 2503000: uvm_test_top.env.ahb_predictor [REG_PREDICT] Observed READ transaction to register regmodel.FSR: value='ha
# UVM_INFO ./../regmodel/uart_reg2ahb_adapter.sv(42) @ 2513000: reporter [uart_reg2ahb_adapter] bus2reg: address = 0x14 data = 0xa kind = UVM_READ status = UVM_IS_OK
# UVM_INFO /ictc/other/tools/QuestaDVA/questasim/verilog_src/uvm-1.2/src/reg/uvm_reg_predictor.svh(225) @ 2513000: uvm_test_top.env.ahb_predictor [REG_PREDICT] Observed READ transaction to register regmodel.FSR: value='ha
# UVM_INFO ./../regmodel/uart_reg2ahb_adapter.sv(42) @ 2523000: reporter [uart_reg2ahb_adapter] bus2reg: address = 0x14 data = 0xa kind = UVM_READ status = UVM_IS_OK
# UVM_INFO /ictc/other/tools/QuestaDVA/questasim/verilog_src/uvm-1.2/src/reg/uvm_reg_predictor.svh(225) @ 2523000: uvm_test_top.env.ahb_predictor [REG_PREDICT] Observed READ transaction to register regmodel.FSR: value='ha
# UVM_INFO ./../regmodel/uart_reg2ahb_adapter.sv(42) @ 2533000: reporter [uart_reg2ahb_adapter] bus2reg: address = 0x14 data = 0xa kind = UVM_READ status = UVM_IS_OK
# UVM_INFO /ictc/other/tools/QuestaDVA/questasim/verilog_src/uvm-1.2/src/reg/uvm_reg_predictor.svh(225) @ 2533000: uvm_test_top.env.ahb_predictor [REG_PREDICT] Observed READ transaction to register regmodel.FSR: value='ha
# UVM_INFO ./../regmodel/uart_reg2ahb_adapter.sv(42) @ 2543000: reporter [uart_reg2ahb_adapter] bus2reg: address = 0x14 data = 0xa kind = UVM_READ status = UVM_IS_OK
# UVM_INFO /ictc/other/tools/QuestaDVA/questasim/verilog_src/uvm-1.2/src/reg/uvm_reg_predictor.svh(225) @ 2543000: uvm_test_top.env.ahb_predictor [REG_PREDICT] Observed READ transaction to register regmodel.FSR: value='ha
# UVM_INFO ./../regmodel/uart_reg2ahb_adapter.sv(42) @ 2553000: reporter [uart_reg2ahb_adapter] bus2reg: address = 0x14 data = 0xa kind = UVM_READ status = UVM_IS_OK
# UVM_INFO /ictc/other/tools/QuestaDVA/questasim/verilog_src/uvm-1.2/src/reg/uvm_reg_predictor.svh(225) @ 2553000: uvm_test_top.env.ahb_predictor [REG_PREDICT] Observed READ transaction to register regmodel.FSR: value='ha
# UVM_INFO ./../regmodel/uart_reg2ahb_adapter.sv(42) @ 2563000: reporter [uart_reg2ahb_adapter] bus2reg: address = 0x14 data = 0xa kind = UVM_READ status = UVM_IS_OK
# UVM_INFO /ictc/other/tools/QuestaDVA/questasim/verilog_src/uvm-1.2/src/reg/uvm_reg_predictor.svh(225) @ 2563000: uvm_test_top.env.ahb_predictor [REG_PREDICT] Observed READ transaction to register regmodel.FSR: value='ha
# UVM_INFO ./../regmodel/uart_reg2ahb_adapter.sv(42) @ 2573000: reporter [uart_reg2ahb_adapter] bus2reg: address = 0x14 data = 0xa kind = UVM_READ status = UVM_IS_OK
# UVM_INFO /ictc/other/tools/QuestaDVA/questasim/verilog_src/uvm-1.2/src/reg/uvm_reg_predictor.svh(225) @ 2573000: uvm_test_top.env.ahb_predictor [REG_PREDICT] Observed READ transaction to register regmodel.FSR: value='ha
# UVM_INFO ./../regmodel/uart_reg2ahb_adapter.sv(42) @ 2583000: reporter [uart_reg2ahb_adapter] bus2reg: address = 0x14 data = 0xa kind = UVM_READ status = UVM_IS_OK
# UVM_INFO /ictc/other/tools/QuestaDVA/questasim/verilog_src/uvm-1.2/src/reg/uvm_reg_predictor.svh(225) @ 2583000: uvm_test_top.env.ahb_predictor [REG_PREDICT] Observed READ transaction to register regmodel.FSR: value='ha
# UVM_INFO ./../regmodel/uart_reg2ahb_adapter.sv(42) @ 2593000: reporter [uart_reg2ahb_adapter] bus2reg: address = 0x14 data = 0xa kind = UVM_READ status = UVM_IS_OK
# UVM_INFO /ictc/other/tools/QuestaDVA/questasim/verilog_src/uvm-1.2/src/reg/uvm_reg_predictor.svh(225) @ 2593000: uvm_test_top.env.ahb_predictor [REG_PREDICT] Observed READ transaction to register regmodel.FSR: value='ha
# UVM_INFO ./../regmodel/uart_reg2ahb_adapter.sv(42) @ 2603000: reporter [uart_reg2ahb_adapter] bus2reg: address = 0x14 data = 0xa kind = UVM_READ status = UVM_IS_OK
# UVM_INFO /ictc/other/tools/QuestaDVA/questasim/verilog_src/uvm-1.2/src/reg/uvm_reg_predictor.svh(225) @ 2603000: uvm_test_top.env.ahb_predictor [REG_PREDICT] Observed READ transaction to register regmodel.FSR: value='ha
# UVM_INFO ./../regmodel/uart_reg2ahb_adapter.sv(42) @ 2613000: reporter [uart_reg2ahb_adapter] bus2reg: address = 0x14 data = 0xa kind = UVM_READ status = UVM_IS_OK
# UVM_INFO /ictc/other/tools/QuestaDVA/questasim/verilog_src/uvm-1.2/src/reg/uvm_reg_predictor.svh(225) @ 2613000: uvm_test_top.env.ahb_predictor [REG_PREDICT] Observed READ transaction to register regmodel.FSR: value='ha
# UVM_INFO ./../regmodel/uart_reg2ahb_adapter.sv(42) @ 2624000: reporter [uart_reg2ahb_adapter] bus2reg: address = 0x14 data = 0xa kind = UVM_READ status = UVM_IS_OK
# UVM_INFO /ictc/other/tools/QuestaDVA/questasim/verilog_src/uvm-1.2/src/reg/uvm_reg_predictor.svh(225) @ 2624000: uvm_test_top.env.ahb_predictor [REG_PREDICT] Observed READ transaction to register regmodel.FSR: value='ha
# UVM_INFO ./../regmodel/uart_reg2ahb_adapter.sv(42) @ 2634000: reporter [uart_reg2ahb_adapter] bus2reg: address = 0x14 data = 0xa kind = UVM_READ status = UVM_IS_OK
# UVM_INFO /ictc/other/tools/QuestaDVA/questasim/verilog_src/uvm-1.2/src/reg/uvm_reg_predictor.svh(225) @ 2634000: uvm_test_top.env.ahb_predictor [REG_PREDICT] Observed READ transaction to register regmodel.FSR: value='ha
# UVM_INFO ./../regmodel/uart_reg2ahb_adapter.sv(42) @ 2644000: reporter [uart_reg2ahb_adapter] bus2reg: address = 0x14 data = 0xa kind = UVM_READ status = UVM_IS_OK
# UVM_INFO /ictc/other/tools/QuestaDVA/questasim/verilog_src/uvm-1.2/src/reg/uvm_reg_predictor.svh(225) @ 2644000: uvm_test_top.env.ahb_predictor [REG_PREDICT] Observed READ transaction to register regmodel.FSR: value='ha
# UVM_INFO ./../regmodel/uart_reg2ahb_adapter.sv(42) @ 2654000: reporter [uart_reg2ahb_adapter] bus2reg: address = 0x14 data = 0xa kind = UVM_READ status = UVM_IS_OK
# UVM_INFO /ictc/other/tools/QuestaDVA/questasim/verilog_src/uvm-1.2/src/reg/uvm_reg_predictor.svh(225) @ 2654000: uvm_test_top.env.ahb_predictor [REG_PREDICT] Observed READ transaction to register regmodel.FSR: value='ha
# UVM_INFO ./../regmodel/uart_reg2ahb_adapter.sv(42) @ 2664000: reporter [uart_reg2ahb_adapter] bus2reg: address = 0x14 data = 0xa kind = UVM_READ status = UVM_IS_OK
# UVM_INFO /ictc/other/tools/QuestaDVA/questasim/verilog_src/uvm-1.2/src/reg/uvm_reg_predictor.svh(225) @ 2664000: uvm_test_top.env.ahb_predictor [REG_PREDICT] Observed READ transaction to register regmodel.FSR: value='ha
# UVM_INFO ./../regmodel/uart_reg2ahb_adapter.sv(42) @ 2674000: reporter [uart_reg2ahb_adapter] bus2reg: address = 0x14 data = 0xa kind = UVM_READ status = UVM_IS_OK
# UVM_INFO /ictc/other/tools/QuestaDVA/questasim/verilog_src/uvm-1.2/src/reg/uvm_reg_predictor.svh(225) @ 2674000: uvm_test_top.env.ahb_predictor [REG_PREDICT] Observed READ transaction to register regmodel.FSR: value='ha
# UVM_INFO ./../regmodel/uart_reg2ahb_adapter.sv(42) @ 2684000: reporter [uart_reg2ahb_adapter] bus2reg: address = 0x14 data = 0xa kind = UVM_READ status = UVM_IS_OK
# UVM_INFO /ictc/other/tools/QuestaDVA/questasim/verilog_src/uvm-1.2/src/reg/uvm_reg_predictor.svh(225) @ 2684000: uvm_test_top.env.ahb_predictor [REG_PREDICT] Observed READ transaction to register regmodel.FSR: value='ha
# UVM_INFO ./../regmodel/uart_reg2ahb_adapter.sv(42) @ 2694000: reporter [uart_reg2ahb_adapter] bus2reg: address = 0x14 data = 0xa kind = UVM_READ status = UVM_IS_OK
# UVM_INFO /ictc/other/tools/QuestaDVA/questasim/verilog_src/uvm-1.2/src/reg/uvm_reg_predictor.svh(225) @ 2694000: uvm_test_top.env.ahb_predictor [REG_PREDICT] Observed READ transaction to register regmodel.FSR: value='ha
# UVM_INFO ./../regmodel/uart_reg2ahb_adapter.sv(42) @ 2704000: reporter [uart_reg2ahb_adapter] bus2reg: address = 0x14 data = 0xa kind = UVM_READ status = UVM_IS_OK
# UVM_INFO /ictc/other/tools/QuestaDVA/questasim/verilog_src/uvm-1.2/src/reg/uvm_reg_predictor.svh(225) @ 2704000: uvm_test_top.env.ahb_predictor [REG_PREDICT] Observed READ transaction to register regmodel.FSR: value='ha
# UVM_INFO ./../regmodel/uart_reg2ahb_adapter.sv(42) @ 2714000: reporter [uart_reg2ahb_adapter] bus2reg: address = 0x14 data = 0xa kind = UVM_READ status = UVM_IS_OK
# UVM_INFO /ictc/other/tools/QuestaDVA/questasim/verilog_src/uvm-1.2/src/reg/uvm_reg_predictor.svh(225) @ 2714000: uvm_test_top.env.ahb_predictor [REG_PREDICT] Observed READ transaction to register regmodel.FSR: value='ha
# UVM_INFO ./../regmodel/uart_reg2ahb_adapter.sv(42) @ 2724000: reporter [uart_reg2ahb_adapter] bus2reg: address = 0x14 data = 0xa kind = UVM_READ status = UVM_IS_OK
# UVM_INFO /ictc/other/tools/QuestaDVA/questasim/verilog_src/uvm-1.2/src/reg/uvm_reg_predictor.svh(225) @ 2724000: uvm_test_top.env.ahb_predictor [REG_PREDICT] Observed READ transaction to register regmodel.FSR: value='ha
# UVM_INFO ./../regmodel/uart_reg2ahb_adapter.sv(42) @ 2734000: reporter [uart_reg2ahb_adapter] bus2reg: address = 0x14 data = 0xa kind = UVM_READ status = UVM_IS_OK
# UVM_INFO /ictc/other/tools/QuestaDVA/questasim/verilog_src/uvm-1.2/src/reg/uvm_reg_predictor.svh(225) @ 2734000: uvm_test_top.env.ahb_predictor [REG_PREDICT] Observed READ transaction to register regmodel.FSR: value='ha
# UVM_INFO ./../regmodel/uart_reg2ahb_adapter.sv(42) @ 2744000: reporter [uart_reg2ahb_adapter] bus2reg: address = 0x14 data = 0xa kind = UVM_READ status = UVM_IS_OK
# UVM_INFO /ictc/other/tools/QuestaDVA/questasim/verilog_src/uvm-1.2/src/reg/uvm_reg_predictor.svh(225) @ 2744000: uvm_test_top.env.ahb_predictor [REG_PREDICT] Observed READ transaction to register regmodel.FSR: value='ha
# UVM_INFO ./../regmodel/uart_reg2ahb_adapter.sv(42) @ 2755000: reporter [uart_reg2ahb_adapter] bus2reg: address = 0x14 data = 0xa kind = UVM_READ status = UVM_IS_OK
# UVM_INFO /ictc/other/tools/QuestaDVA/questasim/verilog_src/uvm-1.2/src/reg/uvm_reg_predictor.svh(225) @ 2755000: uvm_test_top.env.ahb_predictor [REG_PREDICT] Observed READ transaction to register regmodel.FSR: value='ha
# UVM_INFO ./../regmodel/uart_reg2ahb_adapter.sv(42) @ 2765000: reporter [uart_reg2ahb_adapter] bus2reg: address = 0x14 data = 0xa kind = UVM_READ status = UVM_IS_OK
# UVM_INFO /ictc/other/tools/QuestaDVA/questasim/verilog_src/uvm-1.2/src/reg/uvm_reg_predictor.svh(225) @ 2765000: uvm_test_top.env.ahb_predictor [REG_PREDICT] Observed READ transaction to register regmodel.FSR: value='ha
# UVM_INFO ./../regmodel/uart_reg2ahb_adapter.sv(42) @ 2775000: reporter [uart_reg2ahb_adapter] bus2reg: address = 0x14 data = 0xa kind = UVM_READ status = UVM_IS_OK
# UVM_INFO /ictc/other/tools/QuestaDVA/questasim/verilog_src/uvm-1.2/src/reg/uvm_reg_predictor.svh(225) @ 2775000: uvm_test_top.env.ahb_predictor [REG_PREDICT] Observed READ transaction to register regmodel.FSR: value='ha
# UVM_INFO ./../regmodel/uart_reg2ahb_adapter.sv(42) @ 2785000: reporter [uart_reg2ahb_adapter] bus2reg: address = 0x14 data = 0xa kind = UVM_READ status = UVM_IS_OK
# UVM_INFO /ictc/other/tools/QuestaDVA/questasim/verilog_src/uvm-1.2/src/reg/uvm_reg_predictor.svh(225) @ 2785000: uvm_test_top.env.ahb_predictor [REG_PREDICT] Observed READ transaction to register regmodel.FSR: value='ha
# UVM_INFO ./../regmodel/uart_reg2ahb_adapter.sv(42) @ 2795000: reporter [uart_reg2ahb_adapter] bus2reg: address = 0x14 data = 0xa kind = UVM_READ status = UVM_IS_OK
# UVM_INFO /ictc/other/tools/QuestaDVA/questasim/verilog_src/uvm-1.2/src/reg/uvm_reg_predictor.svh(225) @ 2795000: uvm_test_top.env.ahb_predictor [REG_PREDICT] Observed READ transaction to register regmodel.FSR: value='ha
# UVM_INFO ./../regmodel/uart_reg2ahb_adapter.sv(42) @ 2805000: reporter [uart_reg2ahb_adapter] bus2reg: address = 0x14 data = 0xa kind = UVM_READ status = UVM_IS_OK
# UVM_INFO /ictc/other/tools/QuestaDVA/questasim/verilog_src/uvm-1.2/src/reg/uvm_reg_predictor.svh(225) @ 2805000: uvm_test_top.env.ahb_predictor [REG_PREDICT] Observed READ transaction to register regmodel.FSR: value='ha
# UVM_INFO ./../regmodel/uart_reg2ahb_adapter.sv(42) @ 2815000: reporter [uart_reg2ahb_adapter] bus2reg: address = 0x14 data = 0xa kind = UVM_READ status = UVM_IS_OK
# UVM_INFO /ictc/other/tools/QuestaDVA/questasim/verilog_src/uvm-1.2/src/reg/uvm_reg_predictor.svh(225) @ 2815000: uvm_test_top.env.ahb_predictor [REG_PREDICT] Observed READ transaction to register regmodel.FSR: value='ha
# UVM_INFO ./../regmodel/uart_reg2ahb_adapter.sv(42) @ 2825000: reporter [uart_reg2ahb_adapter] bus2reg: address = 0x14 data = 0xa kind = UVM_READ status = UVM_IS_OK
# UVM_INFO /ictc/other/tools/QuestaDVA/questasim/verilog_src/uvm-1.2/src/reg/uvm_reg_predictor.svh(225) @ 2825000: uvm_test_top.env.ahb_predictor [REG_PREDICT] Observed READ transaction to register regmodel.FSR: value='ha
# UVM_INFO ./../regmodel/uart_reg2ahb_adapter.sv(42) @ 2835000: reporter [uart_reg2ahb_adapter] bus2reg: address = 0x14 data = 0xa kind = UVM_READ status = UVM_IS_OK
# UVM_INFO /ictc/other/tools/QuestaDVA/questasim/verilog_src/uvm-1.2/src/reg/uvm_reg_predictor.svh(225) @ 2835000: uvm_test_top.env.ahb_predictor [REG_PREDICT] Observed READ transaction to register regmodel.FSR: value='ha
# UVM_INFO ./../regmodel/uart_reg2ahb_adapter.sv(42) @ 2845000: reporter [uart_reg2ahb_adapter] bus2reg: address = 0x14 data = 0xa kind = UVM_READ status = UVM_IS_OK
# UVM_INFO /ictc/other/tools/QuestaDVA/questasim/verilog_src/uvm-1.2/src/reg/uvm_reg_predictor.svh(225) @ 2845000: uvm_test_top.env.ahb_predictor [REG_PREDICT] Observed READ transaction to register regmodel.FSR: value='ha
# UVM_INFO ./../regmodel/uart_reg2ahb_adapter.sv(42) @ 2855000: reporter [uart_reg2ahb_adapter] bus2reg: address = 0x14 data = 0xa kind = UVM_READ status = UVM_IS_OK
# UVM_INFO /ictc/other/tools/QuestaDVA/questasim/verilog_src/uvm-1.2/src/reg/uvm_reg_predictor.svh(225) @ 2855000: uvm_test_top.env.ahb_predictor [REG_PREDICT] Observed READ transaction to register regmodel.FSR: value='ha
# UVM_INFO ./../regmodel/uart_reg2ahb_adapter.sv(42) @ 2865000: reporter [uart_reg2ahb_adapter] bus2reg: address = 0x14 data = 0xa kind = UVM_READ status = UVM_IS_OK
# UVM_INFO /ictc/other/tools/QuestaDVA/questasim/verilog_src/uvm-1.2/src/reg/uvm_reg_predictor.svh(225) @ 2865000: uvm_test_top.env.ahb_predictor [REG_PREDICT] Observed READ transaction to register regmodel.FSR: value='ha
# UVM_INFO ./../regmodel/uart_reg2ahb_adapter.sv(42) @ 2876000: reporter [uart_reg2ahb_adapter] bus2reg: address = 0x14 data = 0xa kind = UVM_READ status = UVM_IS_OK
# UVM_INFO /ictc/other/tools/QuestaDVA/questasim/verilog_src/uvm-1.2/src/reg/uvm_reg_predictor.svh(225) @ 2876000: uvm_test_top.env.ahb_predictor [REG_PREDICT] Observed READ transaction to register regmodel.FSR: value='ha
# UVM_INFO ./../regmodel/uart_reg2ahb_adapter.sv(42) @ 2886000: reporter [uart_reg2ahb_adapter] bus2reg: address = 0x14 data = 0xa kind = UVM_READ status = UVM_IS_OK
# UVM_INFO /ictc/other/tools/QuestaDVA/questasim/verilog_src/uvm-1.2/src/reg/uvm_reg_predictor.svh(225) @ 2886000: uvm_test_top.env.ahb_predictor [REG_PREDICT] Observed READ transaction to register regmodel.FSR: value='ha
# UVM_INFO ./../regmodel/uart_reg2ahb_adapter.sv(42) @ 2896000: reporter [uart_reg2ahb_adapter] bus2reg: address = 0x14 data = 0xa kind = UVM_READ status = UVM_IS_OK
# UVM_INFO /ictc/other/tools/QuestaDVA/questasim/verilog_src/uvm-1.2/src/reg/uvm_reg_predictor.svh(225) @ 2896000: uvm_test_top.env.ahb_predictor [REG_PREDICT] Observed READ transaction to register regmodel.FSR: value='ha
# UVM_INFO ./../regmodel/uart_reg2ahb_adapter.sv(42) @ 2906000: reporter [uart_reg2ahb_adapter] bus2reg: address = 0x14 data = 0xa kind = UVM_READ status = UVM_IS_OK
# UVM_INFO /ictc/other/tools/QuestaDVA/questasim/verilog_src/uvm-1.2/src/reg/uvm_reg_predictor.svh(225) @ 2906000: uvm_test_top.env.ahb_predictor [REG_PREDICT] Observed READ transaction to register regmodel.FSR: value='ha
# UVM_INFO ./../regmodel/uart_reg2ahb_adapter.sv(42) @ 2916000: reporter [uart_reg2ahb_adapter] bus2reg: address = 0x14 data = 0xa kind = UVM_READ status = UVM_IS_OK
# UVM_INFO /ictc/other/tools/QuestaDVA/questasim/verilog_src/uvm-1.2/src/reg/uvm_reg_predictor.svh(225) @ 2916000: uvm_test_top.env.ahb_predictor [REG_PREDICT] Observed READ transaction to register regmodel.FSR: value='ha
# UVM_INFO ./../regmodel/uart_reg2ahb_adapter.sv(42) @ 2926000: reporter [uart_reg2ahb_adapter] bus2reg: address = 0x14 data = 0xa kind = UVM_READ status = UVM_IS_OK
# UVM_INFO /ictc/other/tools/QuestaDVA/questasim/verilog_src/uvm-1.2/src/reg/uvm_reg_predictor.svh(225) @ 2926000: uvm_test_top.env.ahb_predictor [REG_PREDICT] Observed READ transaction to register regmodel.FSR: value='ha
# UVM_INFO ./../regmodel/uart_reg2ahb_adapter.sv(42) @ 2936000: reporter [uart_reg2ahb_adapter] bus2reg: address = 0x14 data = 0xa kind = UVM_READ status = UVM_IS_OK
# UVM_INFO /ictc/other/tools/QuestaDVA/questasim/verilog_src/uvm-1.2/src/reg/uvm_reg_predictor.svh(225) @ 2936000: uvm_test_top.env.ahb_predictor [REG_PREDICT] Observed READ transaction to register regmodel.FSR: value='ha
# UVM_INFO ./../regmodel/uart_reg2ahb_adapter.sv(42) @ 2946000: reporter [uart_reg2ahb_adapter] bus2reg: address = 0x14 data = 0xa kind = UVM_READ status = UVM_IS_OK
# UVM_INFO /ictc/other/tools/QuestaDVA/questasim/verilog_src/uvm-1.2/src/reg/uvm_reg_predictor.svh(225) @ 2946000: uvm_test_top.env.ahb_predictor [REG_PREDICT] Observed READ transaction to register regmodel.FSR: value='ha
# UVM_INFO ./../regmodel/uart_reg2ahb_adapter.sv(42) @ 2956000: reporter [uart_reg2ahb_adapter] bus2reg: address = 0x14 data = 0xa kind = UVM_READ status = UVM_IS_OK
# UVM_INFO /ictc/other/tools/QuestaDVA/questasim/verilog_src/uvm-1.2/src/reg/uvm_reg_predictor.svh(225) @ 2956000: uvm_test_top.env.ahb_predictor [REG_PREDICT] Observed READ transaction to register regmodel.FSR: value='ha
# UVM_INFO ./../regmodel/uart_reg2ahb_adapter.sv(42) @ 2966000: reporter [uart_reg2ahb_adapter] bus2reg: address = 0x14 data = 0xa kind = UVM_READ status = UVM_IS_OK
# UVM_INFO /ictc/other/tools/QuestaDVA/questasim/verilog_src/uvm-1.2/src/reg/uvm_reg_predictor.svh(225) @ 2966000: uvm_test_top.env.ahb_predictor [REG_PREDICT] Observed READ transaction to register regmodel.FSR: value='ha
# UVM_INFO ./../regmodel/uart_reg2ahb_adapter.sv(42) @ 2976000: reporter [uart_reg2ahb_adapter] bus2reg: address = 0x14 data = 0xa kind = UVM_READ status = UVM_IS_OK
# UVM_INFO /ictc/other/tools/QuestaDVA/questasim/verilog_src/uvm-1.2/src/reg/uvm_reg_predictor.svh(225) @ 2976000: uvm_test_top.env.ahb_predictor [REG_PREDICT] Observed READ transaction to register regmodel.FSR: value='ha
# UVM_INFO ./../regmodel/uart_reg2ahb_adapter.sv(42) @ 2986000: reporter [uart_reg2ahb_adapter] bus2reg: address = 0x14 data = 0xa kind = UVM_READ status = UVM_IS_OK
# UVM_INFO /ictc/other/tools/QuestaDVA/questasim/verilog_src/uvm-1.2/src/reg/uvm_reg_predictor.svh(225) @ 2986000: uvm_test_top.env.ahb_predictor [REG_PREDICT] Observed READ transaction to register regmodel.FSR: value='ha
# UVM_INFO ./../regmodel/uart_reg2ahb_adapter.sv(42) @ 2996000: reporter [uart_reg2ahb_adapter] bus2reg: address = 0x14 data = 0xa kind = UVM_READ status = UVM_IS_OK
# UVM_INFO /ictc/other/tools/QuestaDVA/questasim/verilog_src/uvm-1.2/src/reg/uvm_reg_predictor.svh(225) @ 2996000: uvm_test_top.env.ahb_predictor [REG_PREDICT] Observed READ transaction to register regmodel.FSR: value='ha
# UVM_INFO ./../regmodel/uart_reg2ahb_adapter.sv(42) @ 3007000: reporter [uart_reg2ahb_adapter] bus2reg: address = 0x14 data = 0xa kind = UVM_READ status = UVM_IS_OK
# UVM_INFO /ictc/other/tools/QuestaDVA/questasim/verilog_src/uvm-1.2/src/reg/uvm_reg_predictor.svh(225) @ 3007000: uvm_test_top.env.ahb_predictor [REG_PREDICT] Observed READ transaction to register regmodel.FSR: value='ha
# UVM_INFO ./../regmodel/uart_reg2ahb_adapter.sv(42) @ 3017000: reporter [uart_reg2ahb_adapter] bus2reg: address = 0x14 data = 0xa kind = UVM_READ status = UVM_IS_OK
# UVM_INFO /ictc/other/tools/QuestaDVA/questasim/verilog_src/uvm-1.2/src/reg/uvm_reg_predictor.svh(225) @ 3017000: uvm_test_top.env.ahb_predictor [REG_PREDICT] Observed READ transaction to register regmodel.FSR: value='ha
# UVM_INFO ./../regmodel/uart_reg2ahb_adapter.sv(42) @ 3027000: reporter [uart_reg2ahb_adapter] bus2reg: address = 0x14 data = 0xa kind = UVM_READ status = UVM_IS_OK
# UVM_INFO /ictc/other/tools/QuestaDVA/questasim/verilog_src/uvm-1.2/src/reg/uvm_reg_predictor.svh(225) @ 3027000: uvm_test_top.env.ahb_predictor [REG_PREDICT] Observed READ transaction to register regmodel.FSR: value='ha
# UVM_INFO ./../regmodel/uart_reg2ahb_adapter.sv(42) @ 3037000: reporter [uart_reg2ahb_adapter] bus2reg: address = 0x14 data = 0xa kind = UVM_READ status = UVM_IS_OK
# UVM_INFO /ictc/other/tools/QuestaDVA/questasim/verilog_src/uvm-1.2/src/reg/uvm_reg_predictor.svh(225) @ 3037000: uvm_test_top.env.ahb_predictor [REG_PREDICT] Observed READ transaction to register regmodel.FSR: value='ha
# UVM_INFO ./../regmodel/uart_reg2ahb_adapter.sv(42) @ 3047000: reporter [uart_reg2ahb_adapter] bus2reg: address = 0x14 data = 0xa kind = UVM_READ status = UVM_IS_OK
# UVM_INFO /ictc/other/tools/QuestaDVA/questasim/verilog_src/uvm-1.2/src/reg/uvm_reg_predictor.svh(225) @ 3047000: uvm_test_top.env.ahb_predictor [REG_PREDICT] Observed READ transaction to register regmodel.FSR: value='ha
# UVM_INFO ./../regmodel/uart_reg2ahb_adapter.sv(42) @ 3057000: reporter [uart_reg2ahb_adapter] bus2reg: address = 0x14 data = 0xa kind = UVM_READ status = UVM_IS_OK
# UVM_INFO /ictc/other/tools/QuestaDVA/questasim/verilog_src/uvm-1.2/src/reg/uvm_reg_predictor.svh(225) @ 3057000: uvm_test_top.env.ahb_predictor [REG_PREDICT] Observed READ transaction to register regmodel.FSR: value='ha
# UVM_INFO ./../regmodel/uart_reg2ahb_adapter.sv(42) @ 3067000: reporter [uart_reg2ahb_adapter] bus2reg: address = 0x14 data = 0xa kind = UVM_READ status = UVM_IS_OK
# UVM_INFO /ictc/other/tools/QuestaDVA/questasim/verilog_src/uvm-1.2/src/reg/uvm_reg_predictor.svh(225) @ 3067000: uvm_test_top.env.ahb_predictor [REG_PREDICT] Observed READ transaction to register regmodel.FSR: value='ha
# UVM_INFO ./../regmodel/uart_reg2ahb_adapter.sv(42) @ 3077000: reporter [uart_reg2ahb_adapter] bus2reg: address = 0x14 data = 0xa kind = UVM_READ status = UVM_IS_OK
# UVM_INFO /ictc/other/tools/QuestaDVA/questasim/verilog_src/uvm-1.2/src/reg/uvm_reg_predictor.svh(225) @ 3077000: uvm_test_top.env.ahb_predictor [REG_PREDICT] Observed READ transaction to register regmodel.FSR: value='ha
# UVM_INFO ./../regmodel/uart_reg2ahb_adapter.sv(42) @ 3087000: reporter [uart_reg2ahb_adapter] bus2reg: address = 0x14 data = 0xa kind = UVM_READ status = UVM_IS_OK
# UVM_INFO /ictc/other/tools/QuestaDVA/questasim/verilog_src/uvm-1.2/src/reg/uvm_reg_predictor.svh(225) @ 3087000: uvm_test_top.env.ahb_predictor [REG_PREDICT] Observed READ transaction to register regmodel.FSR: value='ha
# UVM_INFO ./../regmodel/uart_reg2ahb_adapter.sv(42) @ 3097000: reporter [uart_reg2ahb_adapter] bus2reg: address = 0x14 data = 0xa kind = UVM_READ status = UVM_IS_OK
# UVM_INFO /ictc/other/tools/QuestaDVA/questasim/verilog_src/uvm-1.2/src/reg/uvm_reg_predictor.svh(225) @ 3097000: uvm_test_top.env.ahb_predictor [REG_PREDICT] Observed READ transaction to register regmodel.FSR: value='ha
# UVM_INFO ./../regmodel/uart_reg2ahb_adapter.sv(42) @ 3107000: reporter [uart_reg2ahb_adapter] bus2reg: address = 0x14 data = 0xa kind = UVM_READ status = UVM_IS_OK
# UVM_INFO /ictc/other/tools/QuestaDVA/questasim/verilog_src/uvm-1.2/src/reg/uvm_reg_predictor.svh(225) @ 3107000: uvm_test_top.env.ahb_predictor [REG_PREDICT] Observed READ transaction to register regmodel.FSR: value='ha
# UVM_INFO ./../regmodel/uart_reg2ahb_adapter.sv(42) @ 3117000: reporter [uart_reg2ahb_adapter] bus2reg: address = 0x14 data = 0xa kind = UVM_READ status = UVM_IS_OK
# UVM_INFO /ictc/other/tools/QuestaDVA/questasim/verilog_src/uvm-1.2/src/reg/uvm_reg_predictor.svh(225) @ 3117000: uvm_test_top.env.ahb_predictor [REG_PREDICT] Observed READ transaction to register regmodel.FSR: value='ha
# UVM_INFO ./../regmodel/uart_reg2ahb_adapter.sv(42) @ 3128000: reporter [uart_reg2ahb_adapter] bus2reg: address = 0x14 data = 0xa kind = UVM_READ status = UVM_IS_OK
# UVM_INFO /ictc/other/tools/QuestaDVA/questasim/verilog_src/uvm-1.2/src/reg/uvm_reg_predictor.svh(225) @ 3128000: uvm_test_top.env.ahb_predictor [REG_PREDICT] Observed READ transaction to register regmodel.FSR: value='ha
# UVM_INFO ./../regmodel/uart_reg2ahb_adapter.sv(42) @ 3138000: reporter [uart_reg2ahb_adapter] bus2reg: address = 0x14 data = 0xa kind = UVM_READ status = UVM_IS_OK
# UVM_INFO /ictc/other/tools/QuestaDVA/questasim/verilog_src/uvm-1.2/src/reg/uvm_reg_predictor.svh(225) @ 3138000: uvm_test_top.env.ahb_predictor [REG_PREDICT] Observed READ transaction to register regmodel.FSR: value='ha
# UVM_INFO ./../regmodel/uart_reg2ahb_adapter.sv(42) @ 3148000: reporter [uart_reg2ahb_adapter] bus2reg: address = 0x14 data = 0xa kind = UVM_READ status = UVM_IS_OK
# UVM_INFO /ictc/other/tools/QuestaDVA/questasim/verilog_src/uvm-1.2/src/reg/uvm_reg_predictor.svh(225) @ 3148000: uvm_test_top.env.ahb_predictor [REG_PREDICT] Observed READ transaction to register regmodel.FSR: value='ha
# UVM_INFO ./../regmodel/uart_reg2ahb_adapter.sv(42) @ 3158000: reporter [uart_reg2ahb_adapter] bus2reg: address = 0x14 data = 0xa kind = UVM_READ status = UVM_IS_OK
# UVM_INFO /ictc/other/tools/QuestaDVA/questasim/verilog_src/uvm-1.2/src/reg/uvm_reg_predictor.svh(225) @ 3158000: uvm_test_top.env.ahb_predictor [REG_PREDICT] Observed READ transaction to register regmodel.FSR: value='ha
# UVM_INFO ./../regmodel/uart_reg2ahb_adapter.sv(42) @ 3168000: reporter [uart_reg2ahb_adapter] bus2reg: address = 0x14 data = 0xa kind = UVM_READ status = UVM_IS_OK
# UVM_INFO /ictc/other/tools/QuestaDVA/questasim/verilog_src/uvm-1.2/src/reg/uvm_reg_predictor.svh(225) @ 3168000: uvm_test_top.env.ahb_predictor [REG_PREDICT] Observed READ transaction to register regmodel.FSR: value='ha
# UVM_INFO ./../regmodel/uart_reg2ahb_adapter.sv(42) @ 3178000: reporter [uart_reg2ahb_adapter] bus2reg: address = 0x14 data = 0xa kind = UVM_READ status = UVM_IS_OK
# UVM_INFO /ictc/other/tools/QuestaDVA/questasim/verilog_src/uvm-1.2/src/reg/uvm_reg_predictor.svh(225) @ 3178000: uvm_test_top.env.ahb_predictor [REG_PREDICT] Observed READ transaction to register regmodel.FSR: value='ha
# UVM_INFO ./../regmodel/uart_reg2ahb_adapter.sv(42) @ 3188000: reporter [uart_reg2ahb_adapter] bus2reg: address = 0x14 data = 0xa kind = UVM_READ status = UVM_IS_OK
# UVM_INFO /ictc/other/tools/QuestaDVA/questasim/verilog_src/uvm-1.2/src/reg/uvm_reg_predictor.svh(225) @ 3188000: uvm_test_top.env.ahb_predictor [REG_PREDICT] Observed READ transaction to register regmodel.FSR: value='ha
# UVM_INFO ./../regmodel/uart_reg2ahb_adapter.sv(42) @ 3198000: reporter [uart_reg2ahb_adapter] bus2reg: address = 0x14 data = 0xa kind = UVM_READ status = UVM_IS_OK
# UVM_INFO /ictc/other/tools/QuestaDVA/questasim/verilog_src/uvm-1.2/src/reg/uvm_reg_predictor.svh(225) @ 3198000: uvm_test_top.env.ahb_predictor [REG_PREDICT] Observed READ transaction to register regmodel.FSR: value='ha
# UVM_INFO ./../regmodel/uart_reg2ahb_adapter.sv(42) @ 3208000: reporter [uart_reg2ahb_adapter] bus2reg: address = 0x14 data = 0xa kind = UVM_READ status = UVM_IS_OK
# UVM_INFO /ictc/other/tools/QuestaDVA/questasim/verilog_src/uvm-1.2/src/reg/uvm_reg_predictor.svh(225) @ 3208000: uvm_test_top.env.ahb_predictor [REG_PREDICT] Observed READ transaction to register regmodel.FSR: value='ha
# UVM_INFO ./../regmodel/uart_reg2ahb_adapter.sv(42) @ 3218000: reporter [uart_reg2ahb_adapter] bus2reg: address = 0x14 data = 0xa kind = UVM_READ status = UVM_IS_OK
# UVM_INFO /ictc/other/tools/QuestaDVA/questasim/verilog_src/uvm-1.2/src/reg/uvm_reg_predictor.svh(225) @ 3218000: uvm_test_top.env.ahb_predictor [REG_PREDICT] Observed READ transaction to register regmodel.FSR: value='ha
# UVM_INFO ./../regmodel/uart_reg2ahb_adapter.sv(42) @ 3228000: reporter [uart_reg2ahb_adapter] bus2reg: address = 0x14 data = 0xa kind = UVM_READ status = UVM_IS_OK
