# vsim -sv_seed 1 -voptargs="+acc" -assertdebug -c testbench -do " log -r /*;run -all;" -l uart_rxd_random_1.log "+UVM_TESTNAME=uart_rxd_random" "+UVM_VERBOSITY=UVM_HIGH" 
# Start time: 19:07:10 on Aug 05,2026
# Loading /tmp/khaminh_3008@ictc-eda-ldap.ipa.test_dpi_44397/linux_x86_64_gcc-11/export_tramp.so
# ** Note: (vsim-3813) Design is being optimized due to module recompilation...
# ** Warning: ./../testcases/uart_txd_x16_parity.sv(20): (vopt-2240) Treating stand-alone use of function 'randomize' as an implicit VOID cast.
# ** Warning: ./../testcases/uart_txd_x16_data_frame.sv(20): (vopt-2240) Treating stand-alone use of function 'randomize' as an implicit VOID cast.
# ** Warning: ./../testcases/uart_txd_x16_stop_bit.sv(20): (vopt-2240) Treating stand-alone use of function 'randomize' as an implicit VOID cast.
# ** Warning: ./../testcases/uart_txd_x16_baud_rate.sv(22): (vopt-2240) Treating stand-alone use of function 'randomize' as an implicit VOID cast.
# ** Warning: ./../testcases/uart_txd_x16_random.sv(26): (vopt-2240) Treating stand-alone use of function 'randomize' as an implicit VOID cast.
# ** Warning: ./../testcases/uart_txd_x13_parity.sv(20): (vopt-2240) Treating stand-alone use of function 'randomize' as an implicit VOID cast.
# ** Warning: ./../testcases/uart_txd_x13_data_frame.sv(20): (vopt-2240) Treating stand-alone use of function 'randomize' as an implicit VOID cast.
# ** Warning: ./../testcases/uart_txd_x13_stop_bit.sv(20): (vopt-2240) Treating stand-alone use of function 'randomize' as an implicit VOID cast.
# ** Warning: ./../testcases/uart_txd_x13_baud_rate.sv(22): (vopt-2240) Treating stand-alone use of function 'randomize' as an implicit VOID cast.
# ** Warning: ./../testcases/uart_txd_x13_random.sv(26): (vopt-2240) Treating stand-alone use of function 'randomize' as an implicit VOID cast.
# ** Warning: ./../testcases/uart_rxd_random.sv(30): (vopt-2240) Treating stand-alone use of function 'randomize' as an implicit VOID cast.
# //  Questa Sim-64
# //  Version 10.6d_1 linux_x86_64 Apr 11 2018
# //
# //  Copyright 1991-2018 Mentor Graphics Corporation
# //  All Rights Reserved.
# //
# //  QuestaSim and its associated documentation contain trade
# //  secrets and commercial or financial information that are the property of
# //  Mentor Graphics Corporation and are privileged, confidential,
# //  and exempt from disclosure under the Freedom of Information Act,
# //  5 U.S.C. Section 552. Furthermore, this information
# //  is prohibited from disclosure under the Trade Secrets Act,
# //  18 U.S.C. Section 1905.
# //
# Loading sv_std.std
# Loading work.uart_if(fast)
# Loading work.ahb_if(fast)
# Loading work.uvm_pkg(fast)
# Loading work.uart_register_pkg(fast)
# ** Note: (vsim-8785) UVM-aware debugging capabilities will be disabled since no compiled "questa_uvm_pkg" can be found.
# This also means that later if you turn on UVM-aware debugging your debug simulations may have
# different random seeds from your non-debug simulations.
# Loading work.ahb_pkg(fast)
# Loading work.uart_regmodel_pkg(fast)
# Loading work.uart_pkg(fast)
# Loading work.seq_pkg(fast)
# Loading work.env_pkg(fast)
# Loading work.test_pkg(fast)
# Loading work.testbench(fast)
# Loading work.ahb_if(fast)
# Loading work.uart_if(fast)
# Loading work.uart_top(fast)
# Loading work.cmsdk_ahb_to_apb(fast)
# Loading work.apb_decoder(fast)
# Loading work.uart_fifo(fast)
# Loading work.uart_transmitter(fast)
# Loading work.uart_receiver(fast)
# Loading work.uart_interrupt(fast)
# Loading work.baud_generator(fast)
# Compiling /tmp/khaminh_3008@ictc-eda-ldap.ipa.test_dpi_44397/linux_x86_64_gcc-5.3.0/exportwrapper.c
# Compiling /tmp/khaminh_3008@ictc-eda-ldap.ipa.test_dpi_44397/linux_x86_64_gcc-11/exportwrapper.c
# Loading /tmp/khaminh_3008@ictc-eda-ldap.ipa.test_dpi_44397/linux_x86_64_gcc-11/vsim_auto_compile.so
#  log -r /*
# run -all
# UVM_INFO /ictc/other/tools/QuestaDVA/questasim/verilog_src/uvm-1.2/src/base/uvm_root.svh(392) @ 0: reporter [UVM/RELNOTES] 
# ----------------------------------------------------------------
# UVM-1.2
# (C) 2007-2014 Mentor Graphics Corporation
# (C) 2007-2014 Cadence Design Systems, Inc.
# (C) 2006-2014 Synopsys, Inc.
# (C) 2011-2013 Cypress Semiconductor Corp.
# (C) 2013-2014 NVIDIA Corporation
# ----------------------------------------------------------------
# 
#   ***********       IMPORTANT RELEASE NOTES         ************
# 
#   You are using a version of the UVM library that has been compiled
#   with `UVM_NO_DEPRECATED undefined.
#   See http://www.eda.org/svdb/view.php?id=3313 for more details.
# 
#   You are using a version of the UVM library that has been compiled
#   with `UVM_OBJECT_DO_NOT_NEED_CONSTRUCTOR undefined.
#   See http://www.eda.org/svdb/view.php?id=3770 for more details.
# 
#       (Specify +UVM_NO_RELNOTES to turn off this notice)
# 
# UVM_INFO /ictc/other/tools/QuestaDVA/questasim/verilog_src/uvm-1.2/src/base/uvm_root.svh(453) @ 0: reporter [NO_DPI_TSTNAME] UVM_NO_DPI defined--getting UVM_TESTNAME directly, without DPI
# UVM_INFO @ 0: reporter [RNTST] Running test uart_rxd_random...
# UVM_INFO ./../vip/ahb_vip/ahb_agent.sv(20) @ 0: uvm_test_top.env.ahb_agt [ahb_agent] Active agent is configued
# ENTER SCOREBOARD BUILD PHASE
# UVM_INFO ./../vip/uart_vip/uart_agent.sv(25) @ 0: uvm_test_top.env.uart_agt [uart_agent] Active agent is configured
# UVM_INFO /ictc/other/tools/QuestaDVA/questasim/verilog_src/uvm-1.2/src/base/uvm_root.svh(579) @ 0: reporter [UVMTOP] UVM testbench topology:
# ----------------------------------------------------------------------------
# Name                       Type                                  Size  Value
# ----------------------------------------------------------------------------
# uvm_test_top               uart_rxd_random                       -     @347 
#   env                      dut_environment                       -     @371 
#     ahb_agt                ahb_agent                             -     @392 
#       driver               ahb_driver                            -     @499 
#         rsp_port           uvm_analysis_port                     -     @518 
#         seq_item_port      uvm_seq_item_pull_port                -     @508 
#       monitor              ahb_monitor                           -     @665 
#         a_port             uvm_analysis_port                     -     @674 
#       sequencer            ahb_sequencer                         -     @528 
#         rsp_export         uvm_analysis_export                   -     @537 
#         seq_item_export    uvm_seq_item_pull_imp                 -     @655 
#         arbitration_queue  array                                 0     -    
#         lock_queue         array                                 0     -    
#         num_last_reqs      integral                              32    'd1  
#         num_last_rsps      integral                              32    'd1  
#     ahb_predictor          uvm_reg_predictor #(ahb_transaction)  -     @410 
#       bus_in               uvm_analysis_imp                      -     @419 
#       reg_ap               uvm_analysis_port                     -     @429 
#     dut_sb                 dut_scoreboard                        -     @383 
#       ahb_a_export         uvm_analysis_imp_ahb                  -     @694 
#       uart_a_export        uvm_analysis_imp_uart                 -     @704 
#     uart_agt               uart_agent                            -     @401 
#       driver               uart_driver                           -     @720 
#         rsp_port           uvm_analysis_port                     -     @739 
#         seq_item_port      uvm_seq_item_pull_port                -     @729 
#         uart_a_port        uvm_analysis_port                     -     @749 
#       monitor              uart_monitor                          -     @759 
#         uart_a_port        uvm_analysis_port                     -     @768 
#       sequencer            uart_sequencer                        -     @778 
#         rsp_export         uvm_analysis_export                   -     @787 
#         seq_item_export    uvm_seq_item_pull_imp                 -     @905 
#         arbitration_queue  array                                 0     -    
#         lock_queue         array                                 0     -    
#         num_last_reqs      integral                              32    'd1  
#         num_last_rsps      integral                              32    'd1  
# ----------------------------------------------------------------------------
# 
# UVM_INFO /ictc/other/tools/QuestaDVA/questasim/verilog_src/uvm-1.2/src/base/uvm_traversal.svh(279) @ 0: reporter [UVM/COMP/NAMECHECK] This implementation of the component name checks requires DPI to be enabled
# UVM_INFO ./../testcases/uart_rxd_random.sv(40) @ 0: uvm_test_top [uart_rxd_random] --------------------------------------------------------------
# Name                Type                Size  Value           
# --------------------------------------------------------------
# cfg                 uart_configuration  -     @360            
#   parity_mode       parity_mode_e       32    UART_PARITY_NONE
#   sampling          sampling_mode_e     32    MODE_X16        
#   data_width        integral            32    'h5             
#   num_of_stop_bit   integral            32    'h1             
#   baud_rate         integral            32    'h960           
#   baud_rate_enable  integral            1     'h0             
#   parity_enable     integral            1     'h0             
# --------------------------------------------------------------
# 
# UVM_INFO ./../regmodel/uart_reg2ahb_adapter.sv(42) @ 0: reporter [uart_reg2ahb_adapter] bus2reg: address = 0x0 data = 0x0 kind = UVM_WRITE status = UVM_IS_OK
# UVM_INFO /ictc/other/tools/QuestaDVA/questasim/verilog_src/uvm-1.2/src/reg/uvm_reg_predictor.svh(221) @ 0: uvm_test_top.env.ahb_predictor [REG_PREDICT] Observed WRITE transaction to register regmodel.MDR: value='h0 : updated value = 'h0
# UVM_INFO ./../regmodel/uart_reg2ahb_adapter.sv(42) @ 0: reporter [uart_reg2ahb_adapter] bus2reg: address = 0x4 data = 0x2c kind = UVM_WRITE status = UVM_IS_OK
# UVM_INFO /ictc/other/tools/QuestaDVA/questasim/verilog_src/uvm-1.2/src/reg/uvm_reg_predictor.svh(221) @ 0: uvm_test_top.env.ahb_predictor [REG_PREDICT] Observed WRITE transaction to register regmodel.DLL: value='h2c : updated value = 'h2c
# UVM_INFO ./../regmodel/uart_reg2ahb_adapter.sv(42) @ 0: reporter [uart_reg2ahb_adapter] bus2reg: address = 0x8 data = 0xa kind = UVM_WRITE status = UVM_IS_OK
# UVM_INFO /ictc/other/tools/QuestaDVA/questasim/verilog_src/uvm-1.2/src/reg/uvm_reg_predictor.svh(221) @ 0: uvm_test_top.env.ahb_predictor [REG_PREDICT] Observed WRITE transaction to register regmodel.DLH: value='ha : updated value = 'ha
# UVM_INFO ./../regmodel/uart_reg2ahb_adapter.sv(42) @ 0: reporter [uart_reg2ahb_adapter] bus2reg: address = 0xc data = 0x20 kind = UVM_WRITE status = UVM_IS_OK
# UVM_INFO /ictc/other/tools/QuestaDVA/questasim/verilog_src/uvm-1.2/src/reg/uvm_reg_predictor.svh(221) @ 0: uvm_test_top.env.ahb_predictor [REG_PREDICT] Observed WRITE transaction to register regmodel.LCR: value='h20 : updated value = 'h20
# UVM_INFO ./../regmodel/uart_reg2ahb_adapter.sv(27) @ 5831000: reporter [uart_reg2ahb_adapter] reg2bus: address = 0x14 data = 0x0 kind = READ
# UVM_INFO ./../regmodel/uart_reg2ahb_adapter.sv(42) @ 5832000: reporter [uart_reg2ahb_adapter] bus2reg: address = 0x14 data = 0xa kind = UVM_READ status = UVM_IS_OK
# UVM_INFO /ictc/other/tools/QuestaDVA/questasim/verilog_src/uvm-1.2/src/reg/uvm_reg_predictor.svh(225) @ 5832000: uvm_test_top.env.ahb_predictor [REG_PREDICT] Observed READ transaction to register regmodel.FSR: value='ha
# UVM_INFO ./../regmodel/uart_reg2ahb_adapter.sv(42) @ 5842000: reporter [uart_reg2ahb_adapter] bus2reg: address = 0x14 data = 0xa kind = UVM_READ status = UVM_IS_OK
# UVM_INFO @ 5842000: reporter [RegModel] Read  register via map regmodel.ahb_map: regmodel.FSR=a
# UVM_INFO ./../regmodel/uart_reg2ahb_adapter.sv(27) @ 5842000: reporter [uart_reg2ahb_adapter] reg2bus: address = 0x14 data = 0x0 kind = READ
# UVM_INFO ./../regmodel/uart_reg2ahb_adapter.sv(42) @ 5842000: reporter [uart_reg2ahb_adapter] bus2reg: address = 0x14 data = 0x2 kind = UVM_READ status = UVM_IS_OK
# UVM_INFO /ictc/other/tools/QuestaDVA/questasim/verilog_src/uvm-1.2/src/reg/uvm_reg_predictor.svh(225) @ 5842000: uvm_test_top.env.ahb_predictor [REG_PREDICT] Observed READ transaction to register regmodel.FSR: value='h2
# UVM_INFO ./../regmodel/uart_reg2ahb_adapter.sv(42) @ 5852000: reporter [uart_reg2ahb_adapter] bus2reg: address = 0x14 data = 0x2 kind = UVM_READ status = UVM_IS_OK
# UVM_INFO @ 5852000: reporter [RegModel] Read  register via map regmodel.ahb_map: regmodel.FSR=2
# UVM_INFO ./../regmodel/uart_reg2ahb_adapter.sv(27) @ 5852000: reporter [uart_reg2ahb_adapter] reg2bus: address = 0x1c data = 0x0 kind = READ
# UVM_INFO ./../regmodel/uart_reg2ahb_adapter.sv(42) @ 5852000: reporter [uart_reg2ahb_adapter] bus2reg: address = 0x1c data = 0x12 kind = UVM_READ status = UVM_IS_OK
# UVM_INFO /ictc/other/tools/QuestaDVA/questasim/verilog_src/uvm-1.2/src/reg/uvm_reg_predictor.svh(225) @ 5852000: uvm_test_top.env.ahb_predictor [REG_PREDICT] Observed READ transaction to register regmodel.RBR: value='h12
# UVM_INFO ./../regmodel/uart_reg2ahb_adapter.sv(42) @ 5862000: reporter [uart_reg2ahb_adapter] bus2reg: address = 0x1c data = 0x12 kind = UVM_READ status = UVM_IS_OK
# UVM_INFO @ 5862000: reporter [RegModel] Read  register via map regmodel.ahb_map: regmodel.RBR=12
# UVM_INFO ./../sequences/ahb_rxd_read_sequence.sv(47) @ 5862000: uvm_test_top.env.ahb_agt.sequencer@@ahb_read [ahb_rxd_read_sequence] 
# ===== PASSED SUCCESSFULLY!!! =====
# UVM_INFO ./../testcases/uart_rxd_random.sv(40) @ 15862000: uvm_test_top [uart_rxd_random] --------------------------------------------------------------
# Name                Type                Size  Value           
# --------------------------------------------------------------
# cfg                 uart_configuration  -     @360            
#   parity_mode       parity_mode_e       32    UART_PARITY_NONE
#   sampling          sampling_mode_e     32    MODE_X13        
#   data_width        integral            32    'h5             
#   num_of_stop_bit   integral            32    'h1             
#   baud_rate         integral            32    'h960           
#   baud_rate_enable  integral            1     'h0             
#   parity_enable     integral            1     'h0             
# --------------------------------------------------------------
# 
# UVM_INFO ./../regmodel/uart_reg2ahb_adapter.sv(42) @ 15862000: reporter [uart_reg2ahb_adapter] bus2reg: address = 0x0 data = 0x1 kind = UVM_WRITE status = UVM_IS_OK
# UVM_INFO /ictc/other/tools/QuestaDVA/questasim/verilog_src/uvm-1.2/src/reg/uvm_reg_predictor.svh(221) @ 15862000: uvm_test_top.env.ahb_predictor [REG_PREDICT] Observed WRITE transaction to register regmodel.MDR: value='h1 : updated value = 'h1
# UVM_INFO ./../regmodel/uart_reg2ahb_adapter.sv(42) @ 15862000: reporter [uart_reg2ahb_adapter] bus2reg: address = 0x4 data = 0x85 kind = UVM_WRITE status = UVM_IS_OK
# UVM_INFO /ictc/other/tools/QuestaDVA/questasim/verilog_src/uvm-1.2/src/reg/uvm_reg_predictor.svh(221) @ 15862000: uvm_test_top.env.ahb_predictor [REG_PREDICT] Observed WRITE transaction to register regmodel.DLL: value='h85 : updated value = 'h85
# UVM_INFO ./../regmodel/uart_reg2ahb_adapter.sv(42) @ 15862000: reporter [uart_reg2ahb_adapter] bus2reg: address = 0x8 data = 0xc kind = UVM_WRITE status = UVM_IS_OK
# UVM_INFO /ictc/other/tools/QuestaDVA/questasim/verilog_src/uvm-1.2/src/reg/uvm_reg_predictor.svh(221) @ 15862000: uvm_test_top.env.ahb_predictor [REG_PREDICT] Observed WRITE transaction to register regmodel.DLH: value='hc : updated value = 'hc
# UVM_INFO ./../regmodel/uart_reg2ahb_adapter.sv(42) @ 15862000: reporter [uart_reg2ahb_adapter] bus2reg: address = 0xc data = 0x20 kind = UVM_WRITE status = UVM_IS_OK
# UVM_INFO /ictc/other/tools/QuestaDVA/questasim/verilog_src/uvm-1.2/src/reg/uvm_reg_predictor.svh(221) @ 15862000: uvm_test_top.env.ahb_predictor [REG_PREDICT] Observed WRITE transaction to register regmodel.LCR: value='h20 : updated value = 'h20
# UVM_INFO ./../regmodel/uart_reg2ahb_adapter.sv(27) @ 21693000: reporter [uart_reg2ahb_adapter] reg2bus: address = 0x14 data = 0x0 kind = READ
# UVM_INFO ./../regmodel/uart_reg2ahb_adapter.sv(42) @ 21693000: reporter [uart_reg2ahb_adapter] bus2reg: address = 0x14 data = 0xa kind = UVM_READ status = UVM_IS_OK
# UVM_INFO /ictc/other/tools/QuestaDVA/questasim/verilog_src/uvm-1.2/src/reg/uvm_reg_predictor.svh(225) @ 21693000: uvm_test_top.env.ahb_predictor [REG_PREDICT] Observed READ transaction to register regmodel.FSR: value='ha
# UVM_INFO ./../regmodel/uart_reg2ahb_adapter.sv(42) @ 21703000: reporter [uart_reg2ahb_adapter] bus2reg: address = 0x14 data = 0xa kind = UVM_READ status = UVM_IS_OK
# UVM_INFO @ 21703000: reporter [RegModel] Read  register via map regmodel.ahb_map: regmodel.FSR=a
# UVM_INFO ./../regmodel/uart_reg2ahb_adapter.sv(27) @ 21703000: reporter [uart_reg2ahb_adapter] reg2bus: address = 0x14 data = 0x0 kind = READ
# UVM_INFO ./../regmodel/uart_reg2ahb_adapter.sv(42) @ 21703000: reporter [uart_reg2ahb_adapter] bus2reg: address = 0x14 data = 0x2 kind = UVM_READ status = UVM_IS_OK
# UVM_INFO /ictc/other/tools/QuestaDVA/questasim/verilog_src/uvm-1.2/src/reg/uvm_reg_predictor.svh(225) @ 21703000: uvm_test_top.env.ahb_predictor [REG_PREDICT] Observed READ transaction to register regmodel.FSR: value='h2
# UVM_INFO ./../regmodel/uart_reg2ahb_adapter.sv(42) @ 21713000: reporter [uart_reg2ahb_adapter] bus2reg: address = 0x14 data = 0x2 kind = UVM_READ status = UVM_IS_OK
# UVM_INFO @ 21713000: reporter [RegModel] Read  register via map regmodel.ahb_map: regmodel.FSR=2
# UVM_INFO ./../regmodel/uart_reg2ahb_adapter.sv(27) @ 21713000: reporter [uart_reg2ahb_adapter] reg2bus: address = 0x1c data = 0x0 kind = READ
# UVM_INFO ./../regmodel/uart_reg2ahb_adapter.sv(42) @ 21713000: reporter [uart_reg2ahb_adapter] bus2reg: address = 0x1c data = 0x10 kind = UVM_READ status = UVM_IS_OK
# UVM_INFO /ictc/other/tools/QuestaDVA/questasim/verilog_src/uvm-1.2/src/reg/uvm_reg_predictor.svh(225) @ 21713000: uvm_test_top.env.ahb_predictor [REG_PREDICT] Observed READ transaction to register regmodel.RBR: value='h10
# UVM_INFO ./../regmodel/uart_reg2ahb_adapter.sv(42) @ 21723000: reporter [uart_reg2ahb_adapter] bus2reg: address = 0x1c data = 0x10 kind = UVM_READ status = UVM_IS_OK
# UVM_INFO @ 21723000: reporter [RegModel] Read  register via map regmodel.ahb_map: regmodel.RBR=10
# UVM_INFO ./../sequences/ahb_rxd_read_sequence.sv(47) @ 21723000: uvm_test_top.env.ahb_agt.sequencer@@ahb_read [ahb_rxd_read_sequence] 
# ===== PASSED SUCCESSFULLY!!! =====
# UVM_INFO ./../testcases/uart_rxd_random.sv(40) @ 31723000: uvm_test_top [uart_rxd_random] --------------------------------------------------------------
# Name                Type                Size  Value           
# --------------------------------------------------------------
# cfg                 uart_configuration  -     @360            
#   parity_mode       parity_mode_e       32    UART_PARITY_NONE
#   sampling          sampling_mode_e     32    MODE_X16        
#   data_width        integral            32    'h5             
#   num_of_stop_bit   integral            32    'h1             
#   baud_rate         integral            32    'h12c0          
#   baud_rate_enable  integral            1     'h0             
#   parity_enable     integral            1     'h0             
# --------------------------------------------------------------
# 
# UVM_INFO ./../regmodel/uart_reg2ahb_adapter.sv(42) @ 31723000: reporter [uart_reg2ahb_adapter] bus2reg: address = 0x0 data = 0x0 kind = UVM_WRITE status = UVM_IS_OK
# UVM_INFO /ictc/other/tools/QuestaDVA/questasim/verilog_src/uvm-1.2/src/reg/uvm_reg_predictor.svh(221) @ 31723000: uvm_test_top.env.ahb_predictor [REG_PREDICT] Observed WRITE transaction to register regmodel.MDR: value='h0 : updated value = 'h0
# UVM_INFO ./../regmodel/uart_reg2ahb_adapter.sv(42) @ 31723000: reporter [uart_reg2ahb_adapter] bus2reg: address = 0x4 data = 0x16 kind = UVM_WRITE status = UVM_IS_OK
# UVM_INFO /ictc/other/tools/QuestaDVA/questasim/verilog_src/uvm-1.2/src/reg/uvm_reg_predictor.svh(221) @ 31723000: uvm_test_top.env.ahb_predictor [REG_PREDICT] Observed WRITE transaction to register regmodel.DLL: value='h16 : updated value = 'h16
# UVM_INFO ./../regmodel/uart_reg2ahb_adapter.sv(42) @ 31723000: reporter [uart_reg2ahb_adapter] bus2reg: address = 0x8 data = 0x5 kind = UVM_WRITE status = UVM_IS_OK
# UVM_INFO /ictc/other/tools/QuestaDVA/questasim/verilog_src/uvm-1.2/src/reg/uvm_reg_predictor.svh(221) @ 31723000: uvm_test_top.env.ahb_predictor [REG_PREDICT] Observed WRITE transaction to register regmodel.DLH: value='h5 : updated value = 'h5
# UVM_INFO ./../regmodel/uart_reg2ahb_adapter.sv(42) @ 31724000: reporter [uart_reg2ahb_adapter] bus2reg: address = 0xc data = 0x20 kind = UVM_WRITE status = UVM_IS_OK
# UVM_INFO /ictc/other/tools/QuestaDVA/questasim/verilog_src/uvm-1.2/src/reg/uvm_reg_predictor.svh(221) @ 31724000: uvm_test_top.env.ahb_predictor [REG_PREDICT] Observed WRITE transaction to register regmodel.LCR: value='h20 : updated value = 'h20
# UVM_INFO ./../regmodel/uart_reg2ahb_adapter.sv(27) @ 34643000: reporter [uart_reg2ahb_adapter] reg2bus: address = 0x14 data = 0x0 kind = READ
# UVM_INFO ./../regmodel/uart_reg2ahb_adapter.sv(42) @ 34643000: reporter [uart_reg2ahb_adapter] bus2reg: address = 0x14 data = 0x2 kind = UVM_READ status = UVM_IS_OK
# UVM_INFO /ictc/other/tools/QuestaDVA/questasim/verilog_src/uvm-1.2/src/reg/uvm_reg_predictor.svh(225) @ 34643000: uvm_test_top.env.ahb_predictor [REG_PREDICT] Observed READ transaction to register regmodel.FSR: value='h2
# UVM_INFO ./../regmodel/uart_reg2ahb_adapter.sv(42) @ 34653000: reporter [uart_reg2ahb_adapter] bus2reg: address = 0x14 data = 0x2 kind = UVM_READ status = UVM_IS_OK
# UVM_INFO @ 34653000: reporter [RegModel] Read  register via map regmodel.ahb_map: regmodel.FSR=2
# UVM_INFO ./../regmodel/uart_reg2ahb_adapter.sv(27) @ 34653000: reporter [uart_reg2ahb_adapter] reg2bus: address = 0x1c data = 0x0 kind = READ
# UVM_INFO ./../regmodel/uart_reg2ahb_adapter.sv(42) @ 34653000: reporter [uart_reg2ahb_adapter] bus2reg: address = 0x1c data = 0x16 kind = UVM_READ status = UVM_IS_OK
# UVM_INFO /ictc/other/tools/QuestaDVA/questasim/verilog_src/uvm-1.2/src/reg/uvm_reg_predictor.svh(225) @ 34653000: uvm_test_top.env.ahb_predictor [REG_PREDICT] Observed READ transaction to register regmodel.RBR: value='h16
# UVM_INFO ./../regmodel/uart_reg2ahb_adapter.sv(42) @ 34663000: reporter [uart_reg2ahb_adapter] bus2reg: address = 0x1c data = 0x16 kind = UVM_READ status = UVM_IS_OK
# UVM_INFO @ 34663000: reporter [RegModel] Read  register via map regmodel.ahb_map: regmodel.RBR=16
# UVM_INFO ./../sequences/ahb_rxd_read_sequence.sv(47) @ 34663000: uvm_test_top.env.ahb_agt.sequencer@@ahb_read [ahb_rxd_read_sequence] 
# ===== PASSED SUCCESSFULLY!!! =====
# UVM_INFO ./../testcases/uart_rxd_random.sv(40) @ 44663000: uvm_test_top [uart_rxd_random] --------------------------------------------------------------
# Name                Type                Size  Value           
# --------------------------------------------------------------
# cfg                 uart_configuration  -     @360            
#   parity_mode       parity_mode_e       32    UART_PARITY_NONE
#   sampling          sampling_mode_e     32    MODE_X13        
#   data_width        integral            32    'h5             
#   num_of_stop_bit   integral            32    'h1             
#   baud_rate         integral            32    'h12c0          
#   baud_rate_enable  integral            1     'h0             
#   parity_enable     integral            1     'h0             
# --------------------------------------------------------------
# 
# UVM_INFO ./../regmodel/uart_reg2ahb_adapter.sv(42) @ 44663000: reporter [uart_reg2ahb_adapter] bus2reg: address = 0x0 data = 0x1 kind = UVM_WRITE status = UVM_IS_OK
# UVM_INFO /ictc/other/tools/QuestaDVA/questasim/verilog_src/uvm-1.2/src/reg/uvm_reg_predictor.svh(221) @ 44663000: uvm_test_top.env.ahb_predictor [REG_PREDICT] Observed WRITE transaction to register regmodel.MDR: value='h1 : updated value = 'h1
# UVM_INFO ./../regmodel/uart_reg2ahb_adapter.sv(42) @ 44663000: reporter [uart_reg2ahb_adapter] bus2reg: address = 0x4 data = 0x42 kind = UVM_WRITE status = UVM_IS_OK
# UVM_INFO /ictc/other/tools/QuestaDVA/questasim/verilog_src/uvm-1.2/src/reg/uvm_reg_predictor.svh(221) @ 44663000: uvm_test_top.env.ahb_predictor [REG_PREDICT] Observed WRITE transaction to register regmodel.DLL: value='h42 : updated value = 'h42
# UVM_INFO ./../regmodel/uart_reg2ahb_adapter.sv(42) @ 44663000: reporter [uart_reg2ahb_adapter] bus2reg: address = 0x8 data = 0x6 kind = UVM_WRITE status = UVM_IS_OK
# UVM_INFO /ictc/other/tools/QuestaDVA/questasim/verilog_src/uvm-1.2/src/reg/uvm_reg_predictor.svh(221) @ 44663000: uvm_test_top.env.ahb_predictor [REG_PREDICT] Observed WRITE transaction to register regmodel.DLH: value='h6 : updated value = 'h6
# UVM_INFO ./../regmodel/uart_reg2ahb_adapter.sv(42) @ 44663000: reporter [uart_reg2ahb_adapter] bus2reg: address = 0xc data = 0x20 kind = UVM_WRITE status = UVM_IS_OK
# UVM_INFO /ictc/other/tools/QuestaDVA/questasim/verilog_src/uvm-1.2/src/reg/uvm_reg_predictor.svh(221) @ 44663000: uvm_test_top.env.ahb_predictor [REG_PREDICT] Observed WRITE transaction to register regmodel.LCR: value='h20 : updated value = 'h20
# UVM_INFO ./../regmodel/uart_reg2ahb_adapter.sv(27) @ 47582000: reporter [uart_reg2ahb_adapter] reg2bus: address = 0x14 data = 0x0 kind = READ
# UVM_INFO ./../regmodel/uart_reg2ahb_adapter.sv(42) @ 47582000: reporter [uart_reg2ahb_adapter] bus2reg: address = 0x14 data = 0x2 kind = UVM_READ status = UVM_IS_OK
# UVM_INFO /ictc/other/tools/QuestaDVA/questasim/verilog_src/uvm-1.2/src/reg/uvm_reg_predictor.svh(225) @ 47582000: uvm_test_top.env.ahb_predictor [REG_PREDICT] Observed READ transaction to register regmodel.FSR: value='h2
# UVM_INFO ./../regmodel/uart_reg2ahb_adapter.sv(42) @ 47592000: reporter [uart_reg2ahb_adapter] bus2reg: address = 0x14 data = 0x2 kind = UVM_READ status = UVM_IS_OK
# UVM_INFO @ 47592000: reporter [RegModel] Read  register via map regmodel.ahb_map: regmodel.FSR=2
# UVM_INFO ./../regmodel/uart_reg2ahb_adapter.sv(27) @ 47592000: reporter [uart_reg2ahb_adapter] reg2bus: address = 0x1c data = 0x0 kind = READ
# UVM_INFO ./../regmodel/uart_reg2ahb_adapter.sv(42) @ 47592000: reporter [uart_reg2ahb_adapter] bus2reg: address = 0x1c data = 0x12 kind = UVM_READ status = UVM_IS_OK
# UVM_INFO /ictc/other/tools/QuestaDVA/questasim/verilog_src/uvm-1.2/src/reg/uvm_reg_predictor.svh(225) @ 47592000: uvm_test_top.env.ahb_predictor [REG_PREDICT] Observed READ transaction to register regmodel.RBR: value='h12
# UVM_INFO ./../regmodel/uart_reg2ahb_adapter.sv(42) @ 47602000: reporter [uart_reg2ahb_adapter] bus2reg: address = 0x1c data = 0x12 kind = UVM_READ status = UVM_IS_OK
# UVM_INFO @ 47602000: reporter [RegModel] Read  register via map regmodel.ahb_map: regmodel.RBR=12
# UVM_INFO ./../sequences/ahb_rxd_read_sequence.sv(47) @ 47602000: uvm_test_top.env.ahb_agt.sequencer@@ahb_read [ahb_rxd_read_sequence] 
# ===== PASSED SUCCESSFULLY!!! =====
# UVM_INFO ./../testcases/uart_rxd_random.sv(40) @ 57602000: uvm_test_top [uart_rxd_random] --------------------------------------------------------------
# Name                Type                Size  Value           
# --------------------------------------------------------------
# cfg                 uart_configuration  -     @360            
#   parity_mode       parity_mode_e       32    UART_PARITY_NONE
#   sampling          sampling_mode_e     32    MODE_X16        
#   data_width        integral            32    'h5             
#   num_of_stop_bit   integral            32    'h1             
#   baud_rate         integral            32    'h2580          
#   baud_rate_enable  integral            1     'h0             
#   parity_enable     integral            1     'h0             
# --------------------------------------------------------------
# 
# UVM_INFO ./../regmodel/uart_reg2ahb_adapter.sv(42) @ 57602000: reporter [uart_reg2ahb_adapter] bus2reg: address = 0x0 data = 0x0 kind = UVM_WRITE status = UVM_IS_OK
# UVM_INFO /ictc/other/tools/QuestaDVA/questasim/verilog_src/uvm-1.2/src/reg/uvm_reg_predictor.svh(221) @ 57602000: uvm_test_top.env.ahb_predictor [REG_PREDICT] Observed WRITE transaction to register regmodel.MDR: value='h0 : updated value = 'h0
# UVM_INFO ./../regmodel/uart_reg2ahb_adapter.sv(42) @ 57602000: reporter [uart_reg2ahb_adapter] bus2reg: address = 0x4 data = 0x8b kind = UVM_WRITE status = UVM_IS_OK
# UVM_INFO /ictc/other/tools/QuestaDVA/questasim/verilog_src/uvm-1.2/src/reg/uvm_reg_predictor.svh(221) @ 57602000: uvm_test_top.env.ahb_predictor [REG_PREDICT] Observed WRITE transaction to register regmodel.DLL: value='h8b : updated value = 'h8b
# UVM_INFO ./../regmodel/uart_reg2ahb_adapter.sv(42) @ 57602000: reporter [uart_reg2ahb_adapter] bus2reg: address = 0x8 data = 0x2 kind = UVM_WRITE status = UVM_IS_OK
# UVM_INFO /ictc/other/tools/QuestaDVA/questasim/verilog_src/uvm-1.2/src/reg/uvm_reg_predictor.svh(221) @ 57602000: uvm_test_top.env.ahb_predictor [REG_PREDICT] Observed WRITE transaction to register regmodel.DLH: value='h2 : updated value = 'h2
# UVM_INFO ./../regmodel/uart_reg2ahb_adapter.sv(42) @ 57603000: reporter [uart_reg2ahb_adapter] bus2reg: address = 0xc data = 0x20 kind = UVM_WRITE status = UVM_IS_OK
# UVM_INFO /ictc/other/tools/QuestaDVA/questasim/verilog_src/uvm-1.2/src/reg/uvm_reg_predictor.svh(221) @ 57603000: uvm_test_top.env.ahb_predictor [REG_PREDICT] Observed WRITE transaction to register regmodel.LCR: value='h20 : updated value = 'h20
# UVM_INFO ./../regmodel/uart_reg2ahb_adapter.sv(27) @ 59059000: reporter [uart_reg2ahb_adapter] reg2bus: address = 0x14 data = 0x0 kind = READ
# UVM_INFO ./../regmodel/uart_reg2ahb_adapter.sv(42) @ 59059000: reporter [uart_reg2ahb_adapter] bus2reg: address = 0x14 data = 0xa kind = UVM_READ status = UVM_IS_OK
# UVM_INFO /ictc/other/tools/QuestaDVA/questasim/verilog_src/uvm-1.2/src/reg/uvm_reg_predictor.svh(225) @ 59059000: uvm_test_top.env.ahb_predictor [REG_PREDICT] Observed READ transaction to register regmodel.FSR: value='ha
# UVM_INFO ./../regmodel/uart_reg2ahb_adapter.sv(42) @ 59069000: reporter [uart_reg2ahb_adapter] bus2reg: address = 0x14 data = 0xa kind = UVM_READ status = UVM_IS_OK
# UVM_INFO @ 59069000: reporter [RegModel] Read  register via map regmodel.ahb_map: regmodel.FSR=a
# UVM_INFO ./../regmodel/uart_reg2ahb_adapter.sv(27) @ 59069000: reporter [uart_reg2ahb_adapter] reg2bus: address = 0x14 data = 0x0 kind = READ
# UVM_INFO ./../regmodel/uart_reg2ahb_adapter.sv(42) @ 59069000: reporter [uart_reg2ahb_adapter] bus2reg: address = 0x14 data = 0x2 kind = UVM_READ status = UVM_IS_OK
# UVM_INFO /ictc/other/tools/QuestaDVA/questasim/verilog_src/uvm-1.2/src/reg/uvm_reg_predictor.svh(225) @ 59069000: uvm_test_top.env.ahb_predictor [REG_PREDICT] Observed READ transaction to register regmodel.FSR: value='h2
# UVM_INFO ./../regmodel/uart_reg2ahb_adapter.sv(42) @ 59079000: reporter [uart_reg2ahb_adapter] bus2reg: address = 0x14 data = 0x2 kind = UVM_READ status = UVM_IS_OK
# UVM_INFO @ 59079000: reporter [RegModel] Read  register via map regmodel.ahb_map: regmodel.FSR=2
# UVM_INFO ./../regmodel/uart_reg2ahb_adapter.sv(27) @ 59079000: reporter [uart_reg2ahb_adapter] reg2bus: address = 0x1c data = 0x0 kind = READ
# UVM_INFO ./../regmodel/uart_reg2ahb_adapter.sv(42) @ 59079000: reporter [uart_reg2ahb_adapter] bus2reg: address = 0x1c data = 0x2 kind = UVM_READ status = UVM_IS_OK
# UVM_INFO /ictc/other/tools/QuestaDVA/questasim/verilog_src/uvm-1.2/src/reg/uvm_reg_predictor.svh(225) @ 59079000: uvm_test_top.env.ahb_predictor [REG_PREDICT] Observed READ transaction to register regmodel.RBR: value='h2
# UVM_INFO ./../regmodel/uart_reg2ahb_adapter.sv(42) @ 59089000: reporter [uart_reg2ahb_adapter] bus2reg: address = 0x1c data = 0x2 kind = UVM_READ status = UVM_IS_OK
# UVM_INFO @ 59089000: reporter [RegModel] Read  register via map regmodel.ahb_map: regmodel.RBR=2
# UVM_INFO ./../sequences/ahb_rxd_read_sequence.sv(47) @ 59089000: uvm_test_top.env.ahb_agt.sequencer@@ahb_read [ahb_rxd_read_sequence] 
# ===== PASSED SUCCESSFULLY!!! =====
# UVM_INFO ./../testcases/uart_rxd_random.sv(40) @ 69089000: uvm_test_top [uart_rxd_random] --------------------------------------------------------------
# Name                Type                Size  Value           
# --------------------------------------------------------------
# cfg                 uart_configuration  -     @360            
#   parity_mode       parity_mode_e       32    UART_PARITY_NONE
#   sampling          sampling_mode_e     32    MODE_X13        
#   data_width        integral            32    'h5             
#   num_of_stop_bit   integral            32    'h1             
#   baud_rate         integral            32    'h2580          
#   baud_rate_enable  integral            1     'h0             
#   parity_enable     integral            1     'h0             
# --------------------------------------------------------------
# 
# UVM_INFO ./../regmodel/uart_reg2ahb_adapter.sv(42) @ 69089000: reporter [uart_reg2ahb_adapter] bus2reg: address = 0x0 data = 0x1 kind = UVM_WRITE status = UVM_IS_OK
# UVM_INFO /ictc/other/tools/QuestaDVA/questasim/verilog_src/uvm-1.2/src/reg/uvm_reg_predictor.svh(221) @ 69089000: uvm_test_top.env.ahb_predictor [REG_PREDICT] Observed WRITE transaction to register regmodel.MDR: value='h1 : updated value = 'h1
# UVM_INFO ./../regmodel/uart_reg2ahb_adapter.sv(42) @ 69089000: reporter [uart_reg2ahb_adapter] bus2reg: address = 0x4 data = 0x21 kind = UVM_WRITE status = UVM_IS_OK
# UVM_INFO /ictc/other/tools/QuestaDVA/questasim/verilog_src/uvm-1.2/src/reg/uvm_reg_predictor.svh(221) @ 69089000: uvm_test_top.env.ahb_predictor [REG_PREDICT] Observed WRITE transaction to register regmodel.DLL: value='h21 : updated value = 'h21
# UVM_INFO ./../regmodel/uart_reg2ahb_adapter.sv(42) @ 69089000: reporter [uart_reg2ahb_adapter] bus2reg: address = 0x8 data = 0x3 kind = UVM_WRITE status = UVM_IS_OK
# UVM_INFO /ictc/other/tools/QuestaDVA/questasim/verilog_src/uvm-1.2/src/reg/uvm_reg_predictor.svh(221) @ 69089000: uvm_test_top.env.ahb_predictor [REG_PREDICT] Observed WRITE transaction to register regmodel.DLH: value='h3 : updated value = 'h3
# UVM_INFO ./../regmodel/uart_reg2ahb_adapter.sv(42) @ 69089000: reporter [uart_reg2ahb_adapter] bus2reg: address = 0xc data = 0x20 kind = UVM_WRITE status = UVM_IS_OK
# UVM_INFO /ictc/other/tools/QuestaDVA/questasim/verilog_src/uvm-1.2/src/reg/uvm_reg_predictor.svh(221) @ 69089000: uvm_test_top.env.ahb_predictor [REG_PREDICT] Observed WRITE transaction to register regmodel.LCR: value='h20 : updated value = 'h20
# UVM_INFO ./../regmodel/uart_reg2ahb_adapter.sv(27) @ 70545000: reporter [uart_reg2ahb_adapter] reg2bus: address = 0x14 data = 0x0 kind = READ
# UVM_INFO ./../regmodel/uart_reg2ahb_adapter.sv(42) @ 70545000: reporter [uart_reg2ahb_adapter] bus2reg: address = 0x14 data = 0xa kind = UVM_READ status = UVM_IS_OK
# UVM_INFO /ictc/other/tools/QuestaDVA/questasim/verilog_src/uvm-1.2/src/reg/uvm_reg_predictor.svh(225) @ 70545000: uvm_test_top.env.ahb_predictor [REG_PREDICT] Observed READ transaction to register regmodel.FSR: value='ha
# UVM_INFO ./../regmodel/uart_reg2ahb_adapter.sv(42) @ 70555000: reporter [uart_reg2ahb_adapter] bus2reg: address = 0x14 data = 0xa kind = UVM_READ status = UVM_IS_OK
# UVM_INFO @ 70555000: reporter [RegModel] Read  register via map regmodel.ahb_map: regmodel.FSR=a
# UVM_INFO ./../regmodel/uart_reg2ahb_adapter.sv(27) @ 70555000: reporter [uart_reg2ahb_adapter] reg2bus: address = 0x14 data = 0x0 kind = READ
# UVM_INFO ./../regmodel/uart_reg2ahb_adapter.sv(42) @ 70555000: reporter [uart_reg2ahb_adapter] bus2reg: address = 0x14 data = 0x2 kind = UVM_READ status = UVM_IS_OK
# UVM_INFO /ictc/other/tools/QuestaDVA/questasim/verilog_src/uvm-1.2/src/reg/uvm_reg_predictor.svh(225) @ 70555000: uvm_test_top.env.ahb_predictor [REG_PREDICT] Observed READ transaction to register regmodel.FSR: value='h2
# UVM_INFO ./../regmodel/uart_reg2ahb_adapter.sv(42) @ 70565000: reporter [uart_reg2ahb_adapter] bus2reg: address = 0x14 data = 0x2 kind = UVM_READ status = UVM_IS_OK
# UVM_INFO @ 70565000: reporter [RegModel] Read  register via map regmodel.ahb_map: regmodel.FSR=2
# UVM_INFO ./../regmodel/uart_reg2ahb_adapter.sv(27) @ 70565000: reporter [uart_reg2ahb_adapter] reg2bus: address = 0x1c data = 0x0 kind = READ
# UVM_INFO ./../regmodel/uart_reg2ahb_adapter.sv(42) @ 70565000: reporter [uart_reg2ahb_adapter] bus2reg: address = 0x1c data = 0x1c kind = UVM_READ status = UVM_IS_OK
# UVM_INFO /ictc/other/tools/QuestaDVA/questasim/verilog_src/uvm-1.2/src/reg/uvm_reg_predictor.svh(225) @ 70565000: uvm_test_top.env.ahb_predictor [REG_PREDICT] Observed READ transaction to register regmodel.RBR: value='h1c
# UVM_INFO ./../regmodel/uart_reg2ahb_adapter.sv(42) @ 70575000: reporter [uart_reg2ahb_adapter] bus2reg: address = 0x1c data = 0x1c kind = UVM_READ status = UVM_IS_OK
# UVM_INFO @ 70575000: reporter [RegModel] Read  register via map regmodel.ahb_map: regmodel.RBR=1c
# UVM_INFO ./../sequences/ahb_rxd_read_sequence.sv(47) @ 70575000: uvm_test_top.env.ahb_agt.sequencer@@ahb_read [ahb_rxd_read_sequence] 
# ===== PASSED SUCCESSFULLY!!! =====
# UVM_INFO ./../testcases/uart_rxd_random.sv(40) @ 80575000: uvm_test_top [uart_rxd_random] --------------------------------------------------------------
# Name                Type                Size  Value           
# --------------------------------------------------------------
# cfg                 uart_configuration  -     @360            
#   parity_mode       parity_mode_e       32    UART_PARITY_NONE
#   sampling          sampling_mode_e     32    MODE_X16        
#   data_width        integral            32    'h5             
#   num_of_stop_bit   integral            32    'h1             
#   baud_rate         integral            32    'h4b00          
#   baud_rate_enable  integral            1     'h0             
#   parity_enable     integral            1     'h0             
# --------------------------------------------------------------
# 
# UVM_INFO ./../regmodel/uart_reg2ahb_adapter.sv(42) @ 80575000: reporter [uart_reg2ahb_adapter] bus2reg: address = 0x0 data = 0x0 kind = UVM_WRITE status = UVM_IS_OK
# UVM_INFO /ictc/other/tools/QuestaDVA/questasim/verilog_src/uvm-1.2/src/reg/uvm_reg_predictor.svh(221) @ 80575000: uvm_test_top.env.ahb_predictor [REG_PREDICT] Observed WRITE transaction to register regmodel.MDR: value='h0 : updated value = 'h0
# UVM_INFO ./../regmodel/uart_reg2ahb_adapter.sv(42) @ 80575000: reporter [uart_reg2ahb_adapter] bus2reg: address = 0x4 data = 0x45 kind = UVM_WRITE status = UVM_IS_OK
# UVM_INFO /ictc/other/tools/QuestaDVA/questasim/verilog_src/uvm-1.2/src/reg/uvm_reg_predictor.svh(221) @ 80575000: uvm_test_top.env.ahb_predictor [REG_PREDICT] Observed WRITE transaction to register regmodel.DLL: value='h45 : updated value = 'h45
# UVM_INFO ./../regmodel/uart_reg2ahb_adapter.sv(42) @ 80576000: reporter [uart_reg2ahb_adapter] bus2reg: address = 0x8 data = 0x1 kind = UVM_WRITE status = UVM_IS_OK
# UVM_INFO /ictc/other/tools/QuestaDVA/questasim/verilog_src/uvm-1.2/src/reg/uvm_reg_predictor.svh(221) @ 80576000: uvm_test_top.env.ahb_predictor [REG_PREDICT] Observed WRITE transaction to register regmodel.DLH: value='h1 : updated value = 'h1
# UVM_INFO ./../regmodel/uart_reg2ahb_adapter.sv(42) @ 80576000: reporter [uart_reg2ahb_adapter] bus2reg: address = 0xc data = 0x20 kind = UVM_WRITE status = UVM_IS_OK
# UVM_INFO /ictc/other/tools/QuestaDVA/questasim/verilog_src/uvm-1.2/src/reg/uvm_reg_predictor.svh(221) @ 80576000: uvm_test_top.env.ahb_predictor [REG_PREDICT] Observed WRITE transaction to register regmodel.LCR: value='h20 : updated value = 'h20
# UVM_INFO ./../regmodel/uart_reg2ahb_adapter.sv(27) @ 81304000: reporter [uart_reg2ahb_adapter] reg2bus: address = 0x14 data = 0x0 kind = READ
# UVM_INFO ./../regmodel/uart_reg2ahb_adapter.sv(42) @ 81304000: reporter [uart_reg2ahb_adapter] bus2reg: address = 0x14 data = 0x2 kind = UVM_READ status = UVM_IS_OK
# UVM_INFO /ictc/other/tools/QuestaDVA/questasim/verilog_src/uvm-1.2/src/reg/uvm_reg_predictor.svh(225) @ 81304000: uvm_test_top.env.ahb_predictor [REG_PREDICT] Observed READ transaction to register regmodel.FSR: value='h2
# UVM_INFO ./../regmodel/uart_reg2ahb_adapter.sv(42) @ 81314000: reporter [uart_reg2ahb_adapter] bus2reg: address = 0x14 data = 0x2 kind = UVM_READ status = UVM_IS_OK
# UVM_INFO @ 81314000: reporter [RegModel] Read  register via map regmodel.ahb_map: regmodel.FSR=2
# UVM_INFO ./../regmodel/uart_reg2ahb_adapter.sv(27) @ 81314000: reporter [uart_reg2ahb_adapter] reg2bus: address = 0x1c data = 0x0 kind = READ
# UVM_INFO ./../regmodel/uart_reg2ahb_adapter.sv(42) @ 81314000: reporter [uart_reg2ahb_adapter] bus2reg: address = 0x1c data = 0x14 kind = UVM_READ status = UVM_IS_OK
# UVM_INFO /ictc/other/tools/QuestaDVA/questasim/verilog_src/uvm-1.2/src/reg/uvm_reg_predictor.svh(225) @ 81314000: uvm_test_top.env.ahb_predictor [REG_PREDICT] Observed READ transaction to register regmodel.RBR: value='h14
# UVM_INFO ./../regmodel/uart_reg2ahb_adapter.sv(42) @ 81324000: reporter [uart_reg2ahb_adapter] bus2reg: address = 0x1c data = 0x14 kind = UVM_READ status = UVM_IS_OK
# UVM_INFO @ 81324000: reporter [RegModel] Read  register via map regmodel.ahb_map: regmodel.RBR=14
# UVM_INFO ./../sequences/ahb_rxd_read_sequence.sv(47) @ 81324000: uvm_test_top.env.ahb_agt.sequencer@@ahb_read [ahb_rxd_read_sequence] 
# ===== PASSED SUCCESSFULLY!!! =====
# UVM_INFO ./../testcases/uart_rxd_random.sv(40) @ 91324000: uvm_test_top [uart_rxd_random] --------------------------------------------------------------
# Name                Type                Size  Value           
# --------------------------------------------------------------
# cfg                 uart_configuration  -     @360            
#   parity_mode       parity_mode_e       32    UART_PARITY_NONE
#   sampling          sampling_mode_e     32    MODE_X13        
#   data_width        integral            32    'h5             
#   num_of_stop_bit   integral            32    'h1             
#   baud_rate         integral            32    'h4b00          
#   baud_rate_enable  integral            1     'h0             
#   parity_enable     integral            1     'h0             
# --------------------------------------------------------------
# 
# UVM_INFO ./../regmodel/uart_reg2ahb_adapter.sv(42) @ 91324000: reporter [uart_reg2ahb_adapter] bus2reg: address = 0x0 data = 0x1 kind = UVM_WRITE status = UVM_IS_OK
# UVM_INFO /ictc/other/tools/QuestaDVA/questasim/verilog_src/uvm-1.2/src/reg/uvm_reg_predictor.svh(221) @ 91324000: uvm_test_top.env.ahb_predictor [REG_PREDICT] Observed WRITE transaction to register regmodel.MDR: value='h1 : updated value = 'h1
# UVM_INFO ./../regmodel/uart_reg2ahb_adapter.sv(42) @ 91324000: reporter [uart_reg2ahb_adapter] bus2reg: address = 0x4 data = 0x91 kind = UVM_WRITE status = UVM_IS_OK
# UVM_INFO /ictc/other/tools/QuestaDVA/questasim/verilog_src/uvm-1.2/src/reg/uvm_reg_predictor.svh(221) @ 91324000: uvm_test_top.env.ahb_predictor [REG_PREDICT] Observed WRITE transaction to register regmodel.DLL: value='h91 : updated value = 'h91
# UVM_INFO ./../regmodel/uart_reg2ahb_adapter.sv(42) @ 91324000: reporter [uart_reg2ahb_adapter] bus2reg: address = 0x8 data = 0x1 kind = UVM_WRITE status = UVM_IS_OK
# UVM_INFO /ictc/other/tools/QuestaDVA/questasim/verilog_src/uvm-1.2/src/reg/uvm_reg_predictor.svh(221) @ 91324000: uvm_test_top.env.ahb_predictor [REG_PREDICT] Observed WRITE transaction to register regmodel.DLH: value='h1 : updated value = 'h1
# UVM_INFO ./../regmodel/uart_reg2ahb_adapter.sv(42) @ 91324000: reporter [uart_reg2ahb_adapter] bus2reg: address = 0xc data = 0x20 kind = UVM_WRITE status = UVM_IS_OK
# UVM_INFO /ictc/other/tools/QuestaDVA/questasim/verilog_src/uvm-1.2/src/reg/uvm_reg_predictor.svh(221) @ 91324000: uvm_test_top.env.ahb_predictor [REG_PREDICT] Observed WRITE transaction to register regmodel.LCR: value='h20 : updated value = 'h20
# UVM_INFO ./../regmodel/uart_reg2ahb_adapter.sv(27) @ 92052000: reporter [uart_reg2ahb_adapter] reg2bus: address = 0x14 data = 0x0 kind = READ
# UVM_INFO ./../regmodel/uart_reg2ahb_adapter.sv(42) @ 92052000: reporter [uart_reg2ahb_adapter] bus2reg: address = 0x14 data = 0xa kind = UVM_READ status = UVM_IS_OK
# UVM_INFO /ictc/other/tools/QuestaDVA/questasim/verilog_src/uvm-1.2/src/reg/uvm_reg_predictor.svh(225) @ 92052000: uvm_test_top.env.ahb_predictor [REG_PREDICT] Observed READ transaction to register regmodel.FSR: value='ha
# UVM_INFO ./../regmodel/uart_reg2ahb_adapter.sv(42) @ 92062000: reporter [uart_reg2ahb_adapter] bus2reg: address = 0x14 data = 0xa kind = UVM_READ status = UVM_IS_OK
# UVM_INFO @ 92062000: reporter [RegModel] Read  register via map regmodel.ahb_map: regmodel.FSR=a
# UVM_INFO ./../regmodel/uart_reg2ahb_adapter.sv(27) @ 92062000: reporter [uart_reg2ahb_adapter] reg2bus: address = 0x14 data = 0x0 kind = READ
# UVM_INFO ./../regmodel/uart_reg2ahb_adapter.sv(42) @ 92062000: reporter [uart_reg2ahb_adapter] bus2reg: address = 0x14 data = 0x2 kind = UVM_READ status = UVM_IS_OK
# UVM_INFO /ictc/other/tools/QuestaDVA/questasim/verilog_src/uvm-1.2/src/reg/uvm_reg_predictor.svh(225) @ 92062000: uvm_test_top.env.ahb_predictor [REG_PREDICT] Observed READ transaction to register regmodel.FSR: value='h2
# UVM_INFO ./../regmodel/uart_reg2ahb_adapter.sv(42) @ 92072000: reporter [uart_reg2ahb_adapter] bus2reg: address = 0x14 data = 0x2 kind = UVM_READ status = UVM_IS_OK
# UVM_INFO @ 92072000: reporter [RegModel] Read  register via map regmodel.ahb_map: regmodel.FSR=2
# UVM_INFO ./../regmodel/uart_reg2ahb_adapter.sv(27) @ 92072000: reporter [uart_reg2ahb_adapter] reg2bus: address = 0x1c data = 0x0 kind = READ
# UVM_INFO ./../regmodel/uart_reg2ahb_adapter.sv(42) @ 92072000: reporter [uart_reg2ahb_adapter] bus2reg: address = 0x1c data = 0x14 kind = UVM_READ status = UVM_IS_OK
# UVM_INFO /ictc/other/tools/QuestaDVA/questasim/verilog_src/uvm-1.2/src/reg/uvm_reg_predictor.svh(225) @ 92072000: uvm_test_top.env.ahb_predictor [REG_PREDICT] Observed READ transaction to register regmodel.RBR: value='h14
# UVM_INFO ./../regmodel/uart_reg2ahb_adapter.sv(42) @ 92082000: reporter [uart_reg2ahb_adapter] bus2reg: address = 0x1c data = 0x14 kind = UVM_READ status = UVM_IS_OK
# UVM_INFO @ 92082000: reporter [RegModel] Read  register via map regmodel.ahb_map: regmodel.RBR=14
# UVM_INFO ./../sequences/ahb_rxd_read_sequence.sv(47) @ 92082000: uvm_test_top.env.ahb_agt.sequencer@@ahb_read [ahb_rxd_read_sequence] 
# ===== PASSED SUCCESSFULLY!!! =====
# UVM_INFO ./../testcases/uart_rxd_random.sv(40) @ 102082000: uvm_test_top [uart_rxd_random] --------------------------------------------------------------
# Name                Type                Size  Value           
# --------------------------------------------------------------
# cfg                 uart_configuration  -     @360            
#   parity_mode       parity_mode_e       32    UART_PARITY_NONE
#   sampling          sampling_mode_e     32    MODE_X16        
#   data_width        integral            32    'h5             
#   num_of_stop_bit   integral            32    'h1             
#   baud_rate         integral            32    'h9600          
#   baud_rate_enable  integral            1     'h0             
#   parity_enable     integral            1     'h0             
# --------------------------------------------------------------
# 
# UVM_INFO ./../regmodel/uart_reg2ahb_adapter.sv(42) @ 102082000: reporter [uart_reg2ahb_adapter] bus2reg: address = 0x0 data = 0x0 kind = UVM_WRITE status = UVM_IS_OK
# UVM_INFO /ictc/other/tools/QuestaDVA/questasim/verilog_src/uvm-1.2/src/reg/uvm_reg_predictor.svh(221) @ 102082000: uvm_test_top.env.ahb_predictor [REG_PREDICT] Observed WRITE transaction to register regmodel.MDR: value='h0 : updated value = 'h0
# UVM_INFO ./../regmodel/uart_reg2ahb_adapter.sv(42) @ 102083000: reporter [uart_reg2ahb_adapter] bus2reg: address = 0x4 data = 0xa4 kind = UVM_WRITE status = UVM_IS_OK
# UVM_INFO /ictc/other/tools/QuestaDVA/questasim/verilog_src/uvm-1.2/src/reg/uvm_reg_predictor.svh(221) @ 102083000: uvm_test_top.env.ahb_predictor [REG_PREDICT] Observed WRITE transaction to register regmodel.DLL: value='ha4 : updated value = 'ha4
# UVM_INFO ./../regmodel/uart_reg2ahb_adapter.sv(42) @ 102083000: reporter [uart_reg2ahb_adapter] bus2reg: address = 0x8 data = 0x0 kind = UVM_WRITE status = UVM_IS_OK
# UVM_INFO /ictc/other/tools/QuestaDVA/questasim/verilog_src/uvm-1.2/src/reg/uvm_reg_predictor.svh(221) @ 102083000: uvm_test_top.env.ahb_predictor [REG_PREDICT] Observed WRITE transaction to register regmodel.DLH: value='h0 : updated value = 'h0
# UVM_INFO ./../regmodel/uart_reg2ahb_adapter.sv(42) @ 102083000: reporter [uart_reg2ahb_adapter] bus2reg: address = 0xc data = 0x20 kind = UVM_WRITE status = UVM_IS_OK
# UVM_INFO /ictc/other/tools/QuestaDVA/questasim/verilog_src/uvm-1.2/src/reg/uvm_reg_predictor.svh(221) @ 102083000: uvm_test_top.env.ahb_predictor [REG_PREDICT] Observed WRITE transaction to register regmodel.LCR: value='h20 : updated value = 'h20
# UVM_INFO ./../regmodel/uart_reg2ahb_adapter.sv(27) @ 102447000: reporter [uart_reg2ahb_adapter] reg2bus: address = 0x14 data = 0x0 kind = READ
# UVM_INFO ./../regmodel/uart_reg2ahb_adapter.sv(42) @ 102447000: reporter [uart_reg2ahb_adapter] bus2reg: address = 0x14 data = 0xa kind = UVM_READ status = UVM_IS_OK
# UVM_INFO /ictc/other/tools/QuestaDVA/questasim/verilog_src/uvm-1.2/src/reg/uvm_reg_predictor.svh(225) @ 102447000: uvm_test_top.env.ahb_predictor [REG_PREDICT] Observed READ transaction to register regmodel.FSR: value='ha
# UVM_INFO ./../regmodel/uart_reg2ahb_adapter.sv(42) @ 102457000: reporter [uart_reg2ahb_adapter] bus2reg: address = 0x14 data = 0xa kind = UVM_READ status = UVM_IS_OK
# UVM_INFO @ 102457000: reporter [RegModel] Read  register via map regmodel.ahb_map: regmodel.FSR=a
# UVM_INFO ./../regmodel/uart_reg2ahb_adapter.sv(27) @ 102457000: reporter [uart_reg2ahb_adapter] reg2bus: address = 0x14 data = 0x0 kind = READ
# UVM_INFO ./../regmodel/uart_reg2ahb_adapter.sv(42) @ 102457000: reporter [uart_reg2ahb_adapter] bus2reg: address = 0x14 data = 0x2 kind = UVM_READ status = UVM_IS_OK
# UVM_INFO /ictc/other/tools/QuestaDVA/questasim/verilog_src/uvm-1.2/src/reg/uvm_reg_predictor.svh(225) @ 102457000: uvm_test_top.env.ahb_predictor [REG_PREDICT] Observed READ transaction to register regmodel.FSR: value='h2
# UVM_INFO ./../regmodel/uart_reg2ahb_adapter.sv(42) @ 102467000: reporter [uart_reg2ahb_adapter] bus2reg: address = 0x14 data = 0x2 kind = UVM_READ status = UVM_IS_OK
# UVM_INFO @ 102467000: reporter [RegModel] Read  register via map regmodel.ahb_map: regmodel.FSR=2
# UVM_INFO ./../regmodel/uart_reg2ahb_adapter.sv(27) @ 102467000: reporter [uart_reg2ahb_adapter] reg2bus: address = 0x1c data = 0x0 kind = READ
# UVM_INFO ./../regmodel/uart_reg2ahb_adapter.sv(42) @ 102467000: reporter [uart_reg2ahb_adapter] bus2reg: address = 0x1c data = 0x9 kind = UVM_READ status = UVM_IS_OK
# UVM_INFO /ictc/other/tools/QuestaDVA/questasim/verilog_src/uvm-1.2/src/reg/uvm_reg_predictor.svh(225) @ 102467000: uvm_test_top.env.ahb_predictor [REG_PREDICT] Observed READ transaction to register regmodel.RBR: value='h9
# UVM_INFO ./../regmodel/uart_reg2ahb_adapter.sv(42) @ 102477000: reporter [uart_reg2ahb_adapter] bus2reg: address = 0x1c data = 0x9 kind = UVM_READ status = UVM_IS_OK
# UVM_INFO @ 102477000: reporter [RegModel] Read  register via map regmodel.ahb_map: regmodel.RBR=9
# UVM_INFO ./../sequences/ahb_rxd_read_sequence.sv(47) @ 102477000: uvm_test_top.env.ahb_agt.sequencer@@ahb_read [ahb_rxd_read_sequence] 
# ===== PASSED SUCCESSFULLY!!! =====
# UVM_INFO ./../testcases/uart_rxd_random.sv(40) @ 112477000: uvm_test_top [uart_rxd_random] --------------------------------------------------------------
# Name                Type                Size  Value           
# --------------------------------------------------------------
# cfg                 uart_configuration  -     @360            
#   parity_mode       parity_mode_e       32    UART_PARITY_NONE
#   sampling          sampling_mode_e     32    MODE_X13        
#   data_width        integral            32    'h5             
#   num_of_stop_bit   integral            32    'h1             
#   baud_rate         integral            32    'h9600          
#   baud_rate_enable  integral            1     'h0             
#   parity_enable     integral            1     'h0             
# --------------------------------------------------------------
# 
# UVM_INFO ./../regmodel/uart_reg2ahb_adapter.sv(42) @ 112477000: reporter [uart_reg2ahb_adapter] bus2reg: address = 0x0 data = 0x1 kind = UVM_WRITE status = UVM_IS_OK
# UVM_INFO /ictc/other/tools/QuestaDVA/questasim/verilog_src/uvm-1.2/src/reg/uvm_reg_predictor.svh(221) @ 112477000: uvm_test_top.env.ahb_predictor [REG_PREDICT] Observed WRITE transaction to register regmodel.MDR: value='h1 : updated value = 'h1
# UVM_INFO ./../regmodel/uart_reg2ahb_adapter.sv(42) @ 112477000: reporter [uart_reg2ahb_adapter] bus2reg: address = 0x4 data = 0xc8 kind = UVM_WRITE status = UVM_IS_OK
# UVM_INFO /ictc/other/tools/QuestaDVA/questasim/verilog_src/uvm-1.2/src/reg/uvm_reg_predictor.svh(221) @ 112477000: uvm_test_top.env.ahb_predictor [REG_PREDICT] Observed WRITE transaction to register regmodel.DLL: value='hc8 : updated value = 'hc8
# UVM_INFO ./../regmodel/uart_reg2ahb_adapter.sv(42) @ 112477000: reporter [uart_reg2ahb_adapter] bus2reg: address = 0x8 data = 0x0 kind = UVM_WRITE status = UVM_IS_OK
# UVM_INFO /ictc/other/tools/QuestaDVA/questasim/verilog_src/uvm-1.2/src/reg/uvm_reg_predictor.svh(221) @ 112477000: uvm_test_top.env.ahb_predictor [REG_PREDICT] Observed WRITE transaction to register regmodel.DLH: value='h0 : updated value = 'h0
# UVM_INFO ./../regmodel/uart_reg2ahb_adapter.sv(42) @ 112477000: reporter [uart_reg2ahb_adapter] bus2reg: address = 0xc data = 0x20 kind = UVM_WRITE status = UVM_IS_OK
# UVM_INFO /ictc/other/tools/QuestaDVA/questasim/verilog_src/uvm-1.2/src/reg/uvm_reg_predictor.svh(221) @ 112477000: uvm_test_top.env.ahb_predictor [REG_PREDICT] Observed WRITE transaction to register regmodel.LCR: value='h20 : updated value = 'h20
# UVM_INFO ./../regmodel/uart_reg2ahb_adapter.sv(27) @ 112841000: reporter [uart_reg2ahb_adapter] reg2bus: address = 0x14 data = 0x0 kind = READ
# UVM_INFO ./../regmodel/uart_reg2ahb_adapter.sv(42) @ 112841000: reporter [uart_reg2ahb_adapter] bus2reg: address = 0x14 data = 0x2 kind = UVM_READ status = UVM_IS_OK
# UVM_INFO /ictc/other/tools/QuestaDVA/questasim/verilog_src/uvm-1.2/src/reg/uvm_reg_predictor.svh(225) @ 112841000: uvm_test_top.env.ahb_predictor [REG_PREDICT] Observed READ transaction to register regmodel.FSR: value='h2
# UVM_INFO ./../regmodel/uart_reg2ahb_adapter.sv(42) @ 112851000: reporter [uart_reg2ahb_adapter] bus2reg: address = 0x14 data = 0x2 kind = UVM_READ status = UVM_IS_OK
# UVM_INFO @ 112851000: reporter [RegModel] Read  register via map regmodel.ahb_map: regmodel.FSR=2
# UVM_INFO ./../regmodel/uart_reg2ahb_adapter.sv(27) @ 112851000: reporter [uart_reg2ahb_adapter] reg2bus: address = 0x1c data = 0x0 kind = READ
# UVM_INFO ./../regmodel/uart_reg2ahb_adapter.sv(42) @ 112851000: reporter [uart_reg2ahb_adapter] bus2reg: address = 0x1c data = 0x1b kind = UVM_READ status = UVM_IS_OK
# UVM_INFO /ictc/other/tools/QuestaDVA/questasim/verilog_src/uvm-1.2/src/reg/uvm_reg_predictor.svh(225) @ 112851000: uvm_test_top.env.ahb_predictor [REG_PREDICT] Observed READ transaction to register regmodel.RBR: value='h1b
# UVM_INFO ./../regmodel/uart_reg2ahb_adapter.sv(42) @ 112861000: reporter [uart_reg2ahb_adapter] bus2reg: address = 0x1c data = 0x1b kind = UVM_READ status = UVM_IS_OK
# UVM_INFO @ 112861000: reporter [RegModel] Read  register via map regmodel.ahb_map: regmodel.RBR=1b
# UVM_INFO ./../sequences/ahb_rxd_read_sequence.sv(47) @ 112861000: uvm_test_top.env.ahb_agt.sequencer@@ahb_read [ahb_rxd_read_sequence] 
# ===== PASSED SUCCESSFULLY!!! =====
# UVM_INFO ./../testcases/uart_rxd_random.sv(40) @ 122861000: uvm_test_top [uart_rxd_random] --------------------------------------------------------------
# Name                Type                Size  Value           
# --------------------------------------------------------------
# cfg                 uart_configuration  -     @360            
#   parity_mode       parity_mode_e       32    UART_PARITY_NONE
#   sampling          sampling_mode_e     32    MODE_X16        
#   data_width        integral            32    'h5             
#   num_of_stop_bit   integral            32    'h1             
#   baud_rate         integral            32    'h12c00         
#   baud_rate_enable  integral            1     'h0             
#   parity_enable     integral            1     'h0             
# --------------------------------------------------------------
# 
# UVM_INFO ./../regmodel/uart_reg2ahb_adapter.sv(42) @ 122861000: reporter [uart_reg2ahb_adapter] bus2reg: address = 0x0 data = 0x0 kind = UVM_WRITE status = UVM_IS_OK
# UVM_INFO /ictc/other/tools/QuestaDVA/questasim/verilog_src/uvm-1.2/src/reg/uvm_reg_predictor.svh(221) @ 122861000: uvm_test_top.env.ahb_predictor [REG_PREDICT] Observed WRITE transaction to register regmodel.MDR: value='h0 : updated value = 'h0
# UVM_INFO ./../regmodel/uart_reg2ahb_adapter.sv(42) @ 122862000: reporter [uart_reg2ahb_adapter] bus2reg: address = 0x4 data = 0x51 kind = UVM_WRITE status = UVM_IS_OK
# UVM_INFO /ictc/other/tools/QuestaDVA/questasim/verilog_src/uvm-1.2/src/reg/uvm_reg_predictor.svh(221) @ 122862000: uvm_test_top.env.ahb_predictor [REG_PREDICT] Observed WRITE transaction to register regmodel.DLL: value='h51 : updated value = 'h51
# UVM_INFO ./../regmodel/uart_reg2ahb_adapter.sv(42) @ 122862000: reporter [uart_reg2ahb_adapter] bus2reg: address = 0x8 data = 0x0 kind = UVM_WRITE status = UVM_IS_OK
# UVM_INFO /ictc/other/tools/QuestaDVA/questasim/verilog_src/uvm-1.2/src/reg/uvm_reg_predictor.svh(221) @ 122862000: uvm_test_top.env.ahb_predictor [REG_PREDICT] Observed WRITE transaction to register regmodel.DLH: value='h0 : updated value = 'h0
# UVM_INFO ./../regmodel/uart_reg2ahb_adapter.sv(42) @ 122862000: reporter [uart_reg2ahb_adapter] bus2reg: address = 0xc data = 0x20 kind = UVM_WRITE status = UVM_IS_OK
# UVM_INFO /ictc/other/tools/QuestaDVA/questasim/verilog_src/uvm-1.2/src/reg/uvm_reg_predictor.svh(221) @ 122862000: uvm_test_top.env.ahb_predictor [REG_PREDICT] Observed WRITE transaction to register regmodel.LCR: value='h20 : updated value = 'h20
# UVM_INFO ./../regmodel/uart_reg2ahb_adapter.sv(27) @ 123044000: reporter [uart_reg2ahb_adapter] reg2bus: address = 0x14 data = 0x0 kind = READ
# UVM_INFO ./../regmodel/uart_reg2ahb_adapter.sv(42) @ 123044000: reporter [uart_reg2ahb_adapter] bus2reg: address = 0x14 data = 0x2 kind = UVM_READ status = UVM_IS_OK
# UVM_INFO /ictc/other/tools/QuestaDVA/questasim/verilog_src/uvm-1.2/src/reg/uvm_reg_predictor.svh(225) @ 123044000: uvm_test_top.env.ahb_predictor [REG_PREDICT] Observed READ transaction to register regmodel.FSR: value='h2
# UVM_INFO ./../regmodel/uart_reg2ahb_adapter.sv(42) @ 123054000: reporter [uart_reg2ahb_adapter] bus2reg: address = 0x14 data = 0x2 kind = UVM_READ status = UVM_IS_OK
# UVM_INFO @ 123054000: reporter [RegModel] Read  register via map regmodel.ahb_map: regmodel.FSR=2
# UVM_INFO ./../regmodel/uart_reg2ahb_adapter.sv(27) @ 123054000: reporter [uart_reg2ahb_adapter] reg2bus: address = 0x1c data = 0x0 kind = READ
# UVM_INFO ./../regmodel/uart_reg2ahb_adapter.sv(42) @ 123054000: reporter [uart_reg2ahb_adapter] bus2reg: address = 0x1c data = 0x12 kind = UVM_READ status = UVM_IS_OK
# UVM_INFO /ictc/other/tools/QuestaDVA/questasim/verilog_src/uvm-1.2/src/reg/uvm_reg_predictor.svh(225) @ 123054000: uvm_test_top.env.ahb_predictor [REG_PREDICT] Observed READ transaction to register regmodel.RBR: value='h12
# UVM_INFO ./../regmodel/uart_reg2ahb_adapter.sv(42) @ 123064000: reporter [uart_reg2ahb_adapter] bus2reg: address = 0x1c data = 0x12 kind = UVM_READ status = UVM_IS_OK
# UVM_INFO @ 123064000: reporter [RegModel] Read  register via map regmodel.ahb_map: regmodel.RBR=12
# UVM_INFO ./../sequences/ahb_rxd_read_sequence.sv(47) @ 123064000: uvm_test_top.env.ahb_agt.sequencer@@ahb_read [ahb_rxd_read_sequence] 
# ===== PASSED SUCCESSFULLY!!! =====
# UVM_INFO ./../testcases/uart_rxd_random.sv(40) @ 133064000: uvm_test_top [uart_rxd_random] --------------------------------------------------------------
# Name                Type                Size  Value           
# --------------------------------------------------------------
# cfg                 uart_configuration  -     @360            
#   parity_mode       parity_mode_e       32    UART_PARITY_NONE
#   sampling          sampling_mode_e     32    MODE_X13        
#   data_width        integral            32    'h5             
#   num_of_stop_bit   integral            32    'h1             
#   baud_rate         integral            32    'h12c00         
#   baud_rate_enable  integral            1     'h0             
#   parity_enable     integral            1     'h0             
# --------------------------------------------------------------
# 
# UVM_INFO ./../regmodel/uart_reg2ahb_adapter.sv(42) @ 133064000: reporter [uart_reg2ahb_adapter] bus2reg: address = 0x0 data = 0x1 kind = UVM_WRITE status = UVM_IS_OK
# UVM_INFO /ictc/other/tools/QuestaDVA/questasim/verilog_src/uvm-1.2/src/reg/uvm_reg_predictor.svh(221) @ 133064000: uvm_test_top.env.ahb_predictor [REG_PREDICT] Observed WRITE transaction to register regmodel.MDR: value='h1 : updated value = 'h1
# UVM_INFO ./../regmodel/uart_reg2ahb_adapter.sv(42) @ 133064000: reporter [uart_reg2ahb_adapter] bus2reg: address = 0x4 data = 0x64 kind = UVM_WRITE status = UVM_IS_OK
# UVM_INFO /ictc/other/tools/QuestaDVA/questasim/verilog_src/uvm-1.2/src/reg/uvm_reg_predictor.svh(221) @ 133064000: uvm_test_top.env.ahb_predictor [REG_PREDICT] Observed WRITE transaction to register regmodel.DLL: value='h64 : updated value = 'h64
# UVM_INFO ./../regmodel/uart_reg2ahb_adapter.sv(42) @ 133064000: reporter [uart_reg2ahb_adapter] bus2reg: address = 0x8 data = 0x0 kind = UVM_WRITE status = UVM_IS_OK
# UVM_INFO /ictc/other/tools/QuestaDVA/questasim/verilog_src/uvm-1.2/src/reg/uvm_reg_predictor.svh(221) @ 133064000: uvm_test_top.env.ahb_predictor [REG_PREDICT] Observed WRITE transaction to register regmodel.DLH: value='h0 : updated value = 'h0
# UVM_INFO ./../regmodel/uart_reg2ahb_adapter.sv(42) @ 133064000: reporter [uart_reg2ahb_adapter] bus2reg: address = 0xc data = 0x20 kind = UVM_WRITE status = UVM_IS_OK
# UVM_INFO /ictc/other/tools/QuestaDVA/questasim/verilog_src/uvm-1.2/src/reg/uvm_reg_predictor.svh(221) @ 133064000: uvm_test_top.env.ahb_predictor [REG_PREDICT] Observed WRITE transaction to register regmodel.LCR: value='h20 : updated value = 'h20
# UVM_INFO ./../regmodel/uart_reg2ahb_adapter.sv(27) @ 133246000: reporter [uart_reg2ahb_adapter] reg2bus: address = 0x14 data = 0x0 kind = READ
# UVM_INFO ./../regmodel/uart_reg2ahb_adapter.sv(42) @ 133246000: reporter [uart_reg2ahb_adapter] bus2reg: address = 0x14 data = 0x2 kind = UVM_READ status = UVM_IS_OK
# UVM_INFO /ictc/other/tools/QuestaDVA/questasim/verilog_src/uvm-1.2/src/reg/uvm_reg_predictor.svh(225) @ 133246000: uvm_test_top.env.ahb_predictor [REG_PREDICT] Observed READ transaction to register regmodel.FSR: value='h2
# UVM_INFO ./../regmodel/uart_reg2ahb_adapter.sv(42) @ 133256000: reporter [uart_reg2ahb_adapter] bus2reg: address = 0x14 data = 0x2 kind = UVM_READ status = UVM_IS_OK
# UVM_INFO @ 133256000: reporter [RegModel] Read  register via map regmodel.ahb_map: regmodel.FSR=2
# UVM_INFO ./../regmodel/uart_reg2ahb_adapter.sv(27) @ 133256000: reporter [uart_reg2ahb_adapter] reg2bus: address = 0x1c data = 0x0 kind = READ
# UVM_INFO ./../regmodel/uart_reg2ahb_adapter.sv(42) @ 133256000: reporter [uart_reg2ahb_adapter] bus2reg: address = 0x1c data = 0x4 kind = UVM_READ status = UVM_IS_OK
# UVM_INFO /ictc/other/tools/QuestaDVA/questasim/verilog_src/uvm-1.2/src/reg/uvm_reg_predictor.svh(225) @ 133256000: uvm_test_top.env.ahb_predictor [REG_PREDICT] Observed READ transaction to register regmodel.RBR: value='h4
# UVM_INFO ./../regmodel/uart_reg2ahb_adapter.sv(42) @ 133266000: reporter [uart_reg2ahb_adapter] bus2reg: address = 0x1c data = 0x4 kind = UVM_READ status = UVM_IS_OK
# UVM_INFO @ 133266000: reporter [RegModel] Read  register via map regmodel.ahb_map: regmodel.RBR=4
# UVM_INFO ./../sequences/ahb_rxd_read_sequence.sv(47) @ 133266000: uvm_test_top.env.ahb_agt.sequencer@@ahb_read [ahb_rxd_read_sequence] 
# ===== PASSED SUCCESSFULLY!!! =====
# UVM_INFO ./../testcases/uart_rxd_random.sv(40) @ 143266000: uvm_test_top [uart_rxd_random] --------------------------------------------------------------
# Name                Type                Size  Value           
# --------------------------------------------------------------
# cfg                 uart_configuration  -     @360            
#   parity_mode       parity_mode_e       32    UART_PARITY_NONE
#   sampling          sampling_mode_e     32    MODE_X16        
#   data_width        integral            32    'h5             
#   num_of_stop_bit   integral            32    'h1             
#   baud_rate         integral            32    'h1c200         
#   baud_rate_enable  integral            1     'h0             
#   parity_enable     integral            1     'h0             
# --------------------------------------------------------------
# 
# UVM_INFO ./../regmodel/uart_reg2ahb_adapter.sv(42) @ 143266000: reporter [uart_reg2ahb_adapter] bus2reg: address = 0x0 data = 0x0 kind = UVM_WRITE status = UVM_IS_OK
# UVM_INFO /ictc/other/tools/QuestaDVA/questasim/verilog_src/uvm-1.2/src/reg/uvm_reg_predictor.svh(221) @ 143266000: uvm_test_top.env.ahb_predictor [REG_PREDICT] Observed WRITE transaction to register regmodel.MDR: value='h0 : updated value = 'h0
# UVM_INFO ./../regmodel/uart_reg2ahb_adapter.sv(42) @ 143267000: reporter [uart_reg2ahb_adapter] bus2reg: address = 0x4 data = 0x36 kind = UVM_WRITE status = UVM_IS_OK
# UVM_INFO /ictc/other/tools/QuestaDVA/questasim/verilog_src/uvm-1.2/src/reg/uvm_reg_predictor.svh(221) @ 143267000: uvm_test_top.env.ahb_predictor [REG_PREDICT] Observed WRITE transaction to register regmodel.DLL: value='h36 : updated value = 'h36
# UVM_INFO ./../regmodel/uart_reg2ahb_adapter.sv(42) @ 143267000: reporter [uart_reg2ahb_adapter] bus2reg: address = 0x8 data = 0x0 kind = UVM_WRITE status = UVM_IS_OK
# UVM_INFO /ictc/other/tools/QuestaDVA/questasim/verilog_src/uvm-1.2/src/reg/uvm_reg_predictor.svh(221) @ 143267000: uvm_test_top.env.ahb_predictor [REG_PREDICT] Observed WRITE transaction to register regmodel.DLH: value='h0 : updated value = 'h0
# UVM_INFO ./../regmodel/uart_reg2ahb_adapter.sv(42) @ 143267000: reporter [uart_reg2ahb_adapter] bus2reg: address = 0xc data = 0x20 kind = UVM_WRITE status = UVM_IS_OK
# UVM_INFO /ictc/other/tools/QuestaDVA/questasim/verilog_src/uvm-1.2/src/reg/uvm_reg_predictor.svh(221) @ 143267000: uvm_test_top.env.ahb_predictor [REG_PREDICT] Observed WRITE transaction to register regmodel.LCR: value='h20 : updated value = 'h20
# UVM_INFO ./../regmodel/uart_reg2ahb_adapter.sv(27) @ 143386000: reporter [uart_reg2ahb_adapter] reg2bus: address = 0x14 data = 0x0 kind = READ
# UVM_INFO ./../regmodel/uart_reg2ahb_adapter.sv(42) @ 143386000: reporter [uart_reg2ahb_adapter] bus2reg: address = 0x14 data = 0xa kind = UVM_READ status = UVM_IS_OK
# UVM_INFO /ictc/other/tools/QuestaDVA/questasim/verilog_src/uvm-1.2/src/reg/uvm_reg_predictor.svh(225) @ 143386000: uvm_test_top.env.ahb_predictor [REG_PREDICT] Observed READ transaction to register regmodel.FSR: value='ha
# UVM_INFO ./../regmodel/uart_reg2ahb_adapter.sv(42) @ 143396000: reporter [uart_reg2ahb_adapter] bus2reg: address = 0x14 data = 0xa kind = UVM_READ status = UVM_IS_OK
# UVM_INFO @ 143396000: reporter [RegModel] Read  register via map regmodel.ahb_map: regmodel.FSR=a
# UVM_INFO ./../regmodel/uart_reg2ahb_adapter.sv(27) @ 143396000: reporter [uart_reg2ahb_adapter] reg2bus: address = 0x14 data = 0x0 kind = READ
# UVM_INFO ./../regmodel/uart_reg2ahb_adapter.sv(42) @ 143396000: reporter [uart_reg2ahb_adapter] bus2reg: address = 0x14 data = 0x2 kind = UVM_READ status = UVM_IS_OK
# UVM_INFO /ictc/other/tools/QuestaDVA/questasim/verilog_src/uvm-1.2/src/reg/uvm_reg_predictor.svh(225) @ 143396000: uvm_test_top.env.ahb_predictor [REG_PREDICT] Observed READ transaction to register regmodel.FSR: value='h2
# UVM_INFO ./../regmodel/uart_reg2ahb_adapter.sv(42) @ 143406000: reporter [uart_reg2ahb_adapter] bus2reg: address = 0x14 data = 0x2 kind = UVM_READ status = UVM_IS_OK
# UVM_INFO @ 143406000: reporter [RegModel] Read  register via map regmodel.ahb_map: regmodel.FSR=2
# UVM_INFO ./../regmodel/uart_reg2ahb_adapter.sv(27) @ 143406000: reporter [uart_reg2ahb_adapter] reg2bus: address = 0x1c data = 0x0 kind = READ
# UVM_INFO ./../regmodel/uart_reg2ahb_adapter.sv(42) @ 143406000: reporter [uart_reg2ahb_adapter] bus2reg: address = 0x1c data = 0x2 kind = UVM_READ status = UVM_IS_OK
# UVM_INFO /ictc/other/tools/QuestaDVA/questasim/verilog_src/uvm-1.2/src/reg/uvm_reg_predictor.svh(225) @ 143406000: uvm_test_top.env.ahb_predictor [REG_PREDICT] Observed READ transaction to register regmodel.RBR: value='h2
# UVM_INFO ./../regmodel/uart_reg2ahb_adapter.sv(42) @ 143416000: reporter [uart_reg2ahb_adapter] bus2reg: address = 0x1c data = 0x2 kind = UVM_READ status = UVM_IS_OK
# UVM_INFO @ 143416000: reporter [RegModel] Read  register via map regmodel.ahb_map: regmodel.RBR=2
# UVM_INFO ./../sequences/ahb_rxd_read_sequence.sv(47) @ 143416000: uvm_test_top.env.ahb_agt.sequencer@@ahb_read [ahb_rxd_read_sequence] 
# ===== PASSED SUCCESSFULLY!!! =====
# UVM_INFO ./../testcases/uart_rxd_random.sv(40) @ 153416000: uvm_test_top [uart_rxd_random] --------------------------------------------------------------
# Name                Type                Size  Value           
# --------------------------------------------------------------
# cfg                 uart_configuration  -     @360            
#   parity_mode       parity_mode_e       32    UART_PARITY_NONE
#   sampling          sampling_mode_e     32    MODE_X13        
#   data_width        integral            32    'h5             
#   num_of_stop_bit   integral            32    'h1             
#   baud_rate         integral            32    'h1c200         
#   baud_rate_enable  integral            1     'h0             
#   parity_enable     integral            1     'h0             
# --------------------------------------------------------------
# 
# UVM_INFO ./../regmodel/uart_reg2ahb_adapter.sv(42) @ 153416000: reporter [uart_reg2ahb_adapter] bus2reg: address = 0x0 data = 0x1 kind = UVM_WRITE status = UVM_IS_OK
# UVM_INFO /ictc/other/tools/QuestaDVA/questasim/verilog_src/uvm-1.2/src/reg/uvm_reg_predictor.svh(221) @ 153416000: uvm_test_top.env.ahb_predictor [REG_PREDICT] Observed WRITE transaction to register regmodel.MDR: value='h1 : updated value = 'h1
# UVM_INFO ./../regmodel/uart_reg2ahb_adapter.sv(42) @ 153416000: reporter [uart_reg2ahb_adapter] bus2reg: address = 0x4 data = 0x43 kind = UVM_WRITE status = UVM_IS_OK
# UVM_INFO /ictc/other/tools/QuestaDVA/questasim/verilog_src/uvm-1.2/src/reg/uvm_reg_predictor.svh(221) @ 153416000: uvm_test_top.env.ahb_predictor [REG_PREDICT] Observed WRITE transaction to register regmodel.DLL: value='h43 : updated value = 'h43
# UVM_INFO ./../regmodel/uart_reg2ahb_adapter.sv(42) @ 153416000: reporter [uart_reg2ahb_adapter] bus2reg: address = 0x8 data = 0x0 kind = UVM_WRITE status = UVM_IS_OK
# UVM_INFO /ictc/other/tools/QuestaDVA/questasim/verilog_src/uvm-1.2/src/reg/uvm_reg_predictor.svh(221) @ 153416000: uvm_test_top.env.ahb_predictor [REG_PREDICT] Observed WRITE transaction to register regmodel.DLH: value='h0 : updated value = 'h0
# UVM_INFO ./../regmodel/uart_reg2ahb_adapter.sv(42) @ 153416000: reporter [uart_reg2ahb_adapter] bus2reg: address = 0xc data = 0x20 kind = UVM_WRITE status = UVM_IS_OK
# UVM_INFO /ictc/other/tools/QuestaDVA/questasim/verilog_src/uvm-1.2/src/reg/uvm_reg_predictor.svh(221) @ 153416000: uvm_test_top.env.ahb_predictor [REG_PREDICT] Observed WRITE transaction to register regmodel.LCR: value='h20 : updated value = 'h20
# UVM_INFO ./../regmodel/uart_reg2ahb_adapter.sv(27) @ 153535000: reporter [uart_reg2ahb_adapter] reg2bus: address = 0x14 data = 0x0 kind = READ
# UVM_INFO ./../regmodel/uart_reg2ahb_adapter.sv(42) @ 153535000: reporter [uart_reg2ahb_adapter] bus2reg: address = 0x14 data = 0xa kind = UVM_READ status = UVM_IS_OK
# UVM_INFO /ictc/other/tools/QuestaDVA/questasim/verilog_src/uvm-1.2/src/reg/uvm_reg_predictor.svh(225) @ 153535000: uvm_test_top.env.ahb_predictor [REG_PREDICT] Observed READ transaction to register regmodel.FSR: value='ha
# UVM_INFO ./../regmodel/uart_reg2ahb_adapter.sv(42) @ 153545000: reporter [uart_reg2ahb_adapter] bus2reg: address = 0x14 data = 0xa kind = UVM_READ status = UVM_IS_OK
# UVM_INFO @ 153545000: reporter [RegModel] Read  register via map regmodel.ahb_map: regmodel.FSR=a
# UVM_INFO ./../regmodel/uart_reg2ahb_adapter.sv(27) @ 153545000: reporter [uart_reg2ahb_adapter] reg2bus: address = 0x14 data = 0x0 kind = READ
# UVM_INFO ./../regmodel/uart_reg2ahb_adapter.sv(42) @ 153545000: reporter [uart_reg2ahb_adapter] bus2reg: address = 0x14 data = 0x2 kind = UVM_READ status = UVM_IS_OK
# UVM_INFO /ictc/other/tools/QuestaDVA/questasim/verilog_src/uvm-1.2/src/reg/uvm_reg_predictor.svh(225) @ 153545000: uvm_test_top.env.ahb_predictor [REG_PREDICT] Observed READ transaction to register regmodel.FSR: value='h2
# UVM_INFO ./../regmodel/uart_reg2ahb_adapter.sv(42) @ 153555000: reporter [uart_reg2ahb_adapter] bus2reg: address = 0x14 data = 0x2 kind = UVM_READ status = UVM_IS_OK
# UVM_INFO @ 153555000: reporter [RegModel] Read  register via map regmodel.ahb_map: regmodel.FSR=2
# UVM_INFO ./../regmodel/uart_reg2ahb_adapter.sv(27) @ 153555000: reporter [uart_reg2ahb_adapter] reg2bus: address = 0x1c data = 0x0 kind = READ
# UVM_INFO ./../regmodel/uart_reg2ahb_adapter.sv(42) @ 153556000: reporter [uart_reg2ahb_adapter] bus2reg: address = 0x1c data = 0x7 kind = UVM_READ status = UVM_IS_OK
# UVM_INFO /ictc/other/tools/QuestaDVA/questasim/verilog_src/uvm-1.2/src/reg/uvm_reg_predictor.svh(225) @ 153556000: uvm_test_top.env.ahb_predictor [REG_PREDICT] Observed READ transaction to register regmodel.RBR: value='h7
# UVM_INFO ./../regmodel/uart_reg2ahb_adapter.sv(42) @ 153566000: reporter [uart_reg2ahb_adapter] bus2reg: address = 0x1c data = 0x7 kind = UVM_READ status = UVM_IS_OK
# UVM_INFO @ 153566000: reporter [RegModel] Read  register via map regmodel.ahb_map: regmodel.RBR=7
# UVM_INFO ./../sequences/ahb_rxd_read_sequence.sv(47) @ 153566000: uvm_test_top.env.ahb_agt.sequencer@@ahb_read [ahb_rxd_read_sequence] 
# ===== PASSED SUCCESSFULLY!!! =====
# UVM_INFO ./../testcases/uart_rxd_random.sv(40) @ 163566000: uvm_test_top [uart_rxd_random] --------------------------------------------------------------
# Name                Type                Size  Value           
# --------------------------------------------------------------
# cfg                 uart_configuration  -     @360            
#   parity_mode       parity_mode_e       32    UART_PARITY_NONE
#   sampling          sampling_mode_e     32    MODE_X16        
#   data_width        integral            32    'h5             
#   num_of_stop_bit   integral            32    'h2             
#   baud_rate         integral            32    'h960           
#   baud_rate_enable  integral            1     'h0             
#   parity_enable     integral            1     'h0             
# --------------------------------------------------------------
# 
# UVM_INFO ./../regmodel/uart_reg2ahb_adapter.sv(42) @ 163566000: reporter [uart_reg2ahb_adapter] bus2reg: address = 0x0 data = 0x0 kind = UVM_WRITE status = UVM_IS_OK
# UVM_INFO /ictc/other/tools/QuestaDVA/questasim/verilog_src/uvm-1.2/src/reg/uvm_reg_predictor.svh(221) @ 163566000: uvm_test_top.env.ahb_predictor [REG_PREDICT] Observed WRITE transaction to register regmodel.MDR: value='h0 : updated value = 'h0
# UVM_INFO ./../regmodel/uart_reg2ahb_adapter.sv(42) @ 163566000: reporter [uart_reg2ahb_adapter] bus2reg: address = 0x4 data = 0x2c kind = UVM_WRITE status = UVM_IS_OK
# UVM_INFO /ictc/other/tools/QuestaDVA/questasim/verilog_src/uvm-1.2/src/reg/uvm_reg_predictor.svh(221) @ 163566000: uvm_test_top.env.ahb_predictor [REG_PREDICT] Observed WRITE transaction to register regmodel.DLL: value='h2c : updated value = 'h2c
# UVM_INFO ./../regmodel/uart_reg2ahb_adapter.sv(42) @ 163566000: reporter [uart_reg2ahb_adapter] bus2reg: address = 0x8 data = 0xa kind = UVM_WRITE status = UVM_IS_OK
# UVM_INFO /ictc/other/tools/QuestaDVA/questasim/verilog_src/uvm-1.2/src/reg/uvm_reg_predictor.svh(221) @ 163566000: uvm_test_top.env.ahb_predictor [REG_PREDICT] Observed WRITE transaction to register regmodel.DLH: value='ha : updated value = 'ha
# UVM_INFO ./../regmodel/uart_reg2ahb_adapter.sv(42) @ 163566000: reporter [uart_reg2ahb_adapter] bus2reg: address = 0xc data = 0x24 kind = UVM_WRITE status = UVM_IS_OK
# UVM_INFO /ictc/other/tools/QuestaDVA/questasim/verilog_src/uvm-1.2/src/reg/uvm_reg_predictor.svh(221) @ 163566000: uvm_test_top.env.ahb_predictor [REG_PREDICT] Observed WRITE transaction to register regmodel.LCR: value='h24 : updated value = 'h24
# UVM_INFO ./../regmodel/uart_reg2ahb_adapter.sv(27) @ 170230000: reporter [uart_reg2ahb_adapter] reg2bus: address = 0x14 data = 0x0 kind = READ
# UVM_INFO ./../regmodel/uart_reg2ahb_adapter.sv(42) @ 170230000: reporter [uart_reg2ahb_adapter] bus2reg: address = 0x14 data = 0xa kind = UVM_READ status = UVM_IS_OK
# UVM_INFO /ictc/other/tools/QuestaDVA/questasim/verilog_src/uvm-1.2/src/reg/uvm_reg_predictor.svh(225) @ 170230000: uvm_test_top.env.ahb_predictor [REG_PREDICT] Observed READ transaction to register regmodel.FSR: value='ha
# UVM_INFO ./../regmodel/uart_reg2ahb_adapter.sv(42) @ 170240000: reporter [uart_reg2ahb_adapter] bus2reg: address = 0x14 data = 0xa kind = UVM_READ status = UVM_IS_OK
# UVM_INFO @ 170240000: reporter [RegModel] Read  register via map regmodel.ahb_map: regmodel.FSR=a
# UVM_INFO ./../regmodel/uart_reg2ahb_adapter.sv(27) @ 170240000: reporter [uart_reg2ahb_adapter] reg2bus: address = 0x14 data = 0x0 kind = READ
# UVM_INFO ./../regmodel/uart_reg2ahb_adapter.sv(42) @ 170240000: reporter [uart_reg2ahb_adapter] bus2reg: address = 0x14 data = 0x2 kind = UVM_READ status = UVM_IS_OK
# UVM_INFO /ictc/other/tools/QuestaDVA/questasim/verilog_src/uvm-1.2/src/reg/uvm_reg_predictor.svh(225) @ 170240000: uvm_test_top.env.ahb_predictor [REG_PREDICT] Observed READ transaction to register regmodel.FSR: value='h2
# UVM_INFO ./../regmodel/uart_reg2ahb_adapter.sv(42) @ 170250000: reporter [uart_reg2ahb_adapter] bus2reg: address = 0x14 data = 0x2 kind = UVM_READ status = UVM_IS_OK
# UVM_INFO @ 170250000: reporter [RegModel] Read  register via map regmodel.ahb_map: regmodel.FSR=2
# UVM_INFO ./../regmodel/uart_reg2ahb_adapter.sv(27) @ 170250000: reporter [uart_reg2ahb_adapter] reg2bus: address = 0x1c data = 0x0 kind = READ
# UVM_INFO ./../regmodel/uart_reg2ahb_adapter.sv(42) @ 170250000: reporter [uart_reg2ahb_adapter] bus2reg: address = 0x1c data = 0x0 kind = UVM_READ status = UVM_IS_OK
# UVM_INFO /ictc/other/tools/QuestaDVA/questasim/verilog_src/uvm-1.2/src/reg/uvm_reg_predictor.svh(225) @ 170250000: uvm_test_top.env.ahb_predictor [REG_PREDICT] Observed READ transaction to register regmodel.RBR: value='h0
# UVM_INFO ./../regmodel/uart_reg2ahb_adapter.sv(42) @ 170260000: reporter [uart_reg2ahb_adapter] bus2reg: address = 0x1c data = 0x0 kind = UVM_READ status = UVM_IS_OK
# UVM_INFO @ 170260000: reporter [RegModel] Read  register via map regmodel.ahb_map: regmodel.RBR=0
# UVM_INFO ./../sequences/ahb_rxd_read_sequence.sv(47) @ 170260000: uvm_test_top.env.ahb_agt.sequencer@@ahb_read [ahb_rxd_read_sequence] 
# ===== PASSED SUCCESSFULLY!!! =====
# UVM_INFO ./../testcases/uart_rxd_random.sv(40) @ 180260000: uvm_test_top [uart_rxd_random] --------------------------------------------------------------
# Name                Type                Size  Value           
# --------------------------------------------------------------
# cfg                 uart_configuration  -     @360            
#   parity_mode       parity_mode_e       32    UART_PARITY_NONE
#   sampling          sampling_mode_e     32    MODE_X13        
#   data_width        integral            32    'h5             
#   num_of_stop_bit   integral            32    'h2             
#   baud_rate         integral            32    'h960           
#   baud_rate_enable  integral            1     'h0             
#   parity_enable     integral            1     'h0             
# --------------------------------------------------------------
# 
# UVM_INFO ./../regmodel/uart_reg2ahb_adapter.sv(42) @ 180260000: reporter [uart_reg2ahb_adapter] bus2reg: address = 0x0 data = 0x1 kind = UVM_WRITE status = UVM_IS_OK
# UVM_INFO /ictc/other/tools/QuestaDVA/questasim/verilog_src/uvm-1.2/src/reg/uvm_reg_predictor.svh(221) @ 180260000: uvm_test_top.env.ahb_predictor [REG_PREDICT] Observed WRITE transaction to register regmodel.MDR: value='h1 : updated value = 'h1
# UVM_INFO ./../regmodel/uart_reg2ahb_adapter.sv(42) @ 180260000: reporter [uart_reg2ahb_adapter] bus2reg: address = 0x4 data = 0x85 kind = UVM_WRITE status = UVM_IS_OK
# UVM_INFO /ictc/other/tools/QuestaDVA/questasim/verilog_src/uvm-1.2/src/reg/uvm_reg_predictor.svh(221) @ 180260000: uvm_test_top.env.ahb_predictor [REG_PREDICT] Observed WRITE transaction to register regmodel.DLL: value='h85 : updated value = 'h85
# UVM_INFO ./../regmodel/uart_reg2ahb_adapter.sv(42) @ 180260000: reporter [uart_reg2ahb_adapter] bus2reg: address = 0x8 data = 0xc kind = UVM_WRITE status = UVM_IS_OK
# UVM_INFO /ictc/other/tools/QuestaDVA/questasim/verilog_src/uvm-1.2/src/reg/uvm_reg_predictor.svh(221) @ 180260000: uvm_test_top.env.ahb_predictor [REG_PREDICT] Observed WRITE transaction to register regmodel.DLH: value='hc : updated value = 'hc
# UVM_INFO ./../regmodel/uart_reg2ahb_adapter.sv(42) @ 180260000: reporter [uart_reg2ahb_adapter] bus2reg: address = 0xc data = 0x24 kind = UVM_WRITE status = UVM_IS_OK
# UVM_INFO /ictc/other/tools/QuestaDVA/questasim/verilog_src/uvm-1.2/src/reg/uvm_reg_predictor.svh(221) @ 180260000: uvm_test_top.env.ahb_predictor [REG_PREDICT] Observed WRITE transaction to register regmodel.LCR: value='h24 : updated value = 'h24
# UVM_INFO ./../regmodel/uart_reg2ahb_adapter.sv(27) @ 186924000: reporter [uart_reg2ahb_adapter] reg2bus: address = 0x14 data = 0x0 kind = READ
# UVM_INFO ./../regmodel/uart_reg2ahb_adapter.sv(42) @ 186924000: reporter [uart_reg2ahb_adapter] bus2reg: address = 0x14 data = 0xa kind = UVM_READ status = UVM_IS_OK
# UVM_INFO /ictc/other/tools/QuestaDVA/questasim/verilog_src/uvm-1.2/src/reg/uvm_reg_predictor.svh(225) @ 186924000: uvm_test_top.env.ahb_predictor [REG_PREDICT] Observed READ transaction to register regmodel.FSR: value='ha
# UVM_INFO ./../regmodel/uart_reg2ahb_adapter.sv(42) @ 186934000: reporter [uart_reg2ahb_adapter] bus2reg: address = 0x14 data = 0xa kind = UVM_READ status = UVM_IS_OK
# UVM_INFO @ 186934000: reporter [RegModel] Read  register via map regmodel.ahb_map: regmodel.FSR=a
# UVM_INFO ./../regmodel/uart_reg2ahb_adapter.sv(27) @ 186934000: reporter [uart_reg2ahb_adapter] reg2bus: address = 0x14 data = 0x0 kind = READ
# UVM_INFO ./../regmodel/uart_reg2ahb_adapter.sv(42) @ 186935000: reporter [uart_reg2ahb_adapter] bus2reg: address = 0x14 data = 0x2 kind = UVM_READ status = UVM_IS_OK
# UVM_INFO /ictc/other/tools/QuestaDVA/questasim/verilog_src/uvm-1.2/src/reg/uvm_reg_predictor.svh(225) @ 186935000: uvm_test_top.env.ahb_predictor [REG_PREDICT] Observed READ transaction to register regmodel.FSR: value='h2
# UVM_INFO ./../regmodel/uart_reg2ahb_adapter.sv(42) @ 186945000: reporter [uart_reg2ahb_adapter] bus2reg: address = 0x14 data = 0x2 kind = UVM_READ status = UVM_IS_OK
# UVM_INFO @ 186945000: reporter [RegModel] Read  register via map regmodel.ahb_map: regmodel.FSR=2
# UVM_INFO ./../regmodel/uart_reg2ahb_adapter.sv(27) @ 186945000: reporter [uart_reg2ahb_adapter] reg2bus: address = 0x1c data = 0x0 kind = READ
# UVM_INFO ./../regmodel/uart_reg2ahb_adapter.sv(42) @ 186945000: reporter [uart_reg2ahb_adapter] bus2reg: address = 0x1c data = 0xd kind = UVM_READ status = UVM_IS_OK
# UVM_INFO /ictc/other/tools/QuestaDVA/questasim/verilog_src/uvm-1.2/src/reg/uvm_reg_predictor.svh(225) @ 186945000: uvm_test_top.env.ahb_predictor [REG_PREDICT] Observed READ transaction to register regmodel.RBR: value='hd
# UVM_INFO ./../regmodel/uart_reg2ahb_adapter.sv(42) @ 186955000: reporter [uart_reg2ahb_adapter] bus2reg: address = 0x1c data = 0xd kind = UVM_READ status = UVM_IS_OK
# UVM_INFO @ 186955000: reporter [RegModel] Read  register via map regmodel.ahb_map: regmodel.RBR=d
# UVM_INFO ./../sequences/ahb_rxd_read_sequence.sv(47) @ 186955000: uvm_test_top.env.ahb_agt.sequencer@@ahb_read [ahb_rxd_read_sequence] 
# ===== PASSED SUCCESSFULLY!!! =====
# UVM_INFO ./../testcases/uart_rxd_random.sv(40) @ 196955000: uvm_test_top [uart_rxd_random] --------------------------------------------------------------
# Name                Type                Size  Value           
# --------------------------------------------------------------
# cfg                 uart_configuration  -     @360            
#   parity_mode       parity_mode_e       32    UART_PARITY_NONE
#   sampling          sampling_mode_e     32    MODE_X16        
#   data_width        integral            32    'h5             
#   num_of_stop_bit   integral            32    'h2             
#   baud_rate         integral            32    'h12c0          
#   baud_rate_enable  integral            1     'h0             
#   parity_enable     integral            1     'h0             
# --------------------------------------------------------------
# 
# UVM_INFO ./../regmodel/uart_reg2ahb_adapter.sv(42) @ 196955000: reporter [uart_reg2ahb_adapter] bus2reg: address = 0x0 data = 0x0 kind = UVM_WRITE status = UVM_IS_OK
# UVM_INFO /ictc/other/tools/QuestaDVA/questasim/verilog_src/uvm-1.2/src/reg/uvm_reg_predictor.svh(221) @ 196955000: uvm_test_top.env.ahb_predictor [REG_PREDICT] Observed WRITE transaction to register regmodel.MDR: value='h0 : updated value = 'h0
# UVM_INFO ./../regmodel/uart_reg2ahb_adapter.sv(42) @ 196955000: reporter [uart_reg2ahb_adapter] bus2reg: address = 0x4 data = 0x16 kind = UVM_WRITE status = UVM_IS_OK
# UVM_INFO /ictc/other/tools/QuestaDVA/questasim/verilog_src/uvm-1.2/src/reg/uvm_reg_predictor.svh(221) @ 196955000: uvm_test_top.env.ahb_predictor [REG_PREDICT] Observed WRITE transaction to register regmodel.DLL: value='h16 : updated value = 'h16
# UVM_INFO ./../regmodel/uart_reg2ahb_adapter.sv(42) @ 196955000: reporter [uart_reg2ahb_adapter] bus2reg: address = 0x8 data = 0x5 kind = UVM_WRITE status = UVM_IS_OK
# UVM_INFO /ictc/other/tools/QuestaDVA/questasim/verilog_src/uvm-1.2/src/reg/uvm_reg_predictor.svh(221) @ 196955000: uvm_test_top.env.ahb_predictor [REG_PREDICT] Observed WRITE transaction to register regmodel.DLH: value='h5 : updated value = 'h5
# UVM_INFO ./../regmodel/uart_reg2ahb_adapter.sv(42) @ 196955000: reporter [uart_reg2ahb_adapter] bus2reg: address = 0xc data = 0x24 kind = UVM_WRITE status = UVM_IS_OK
# UVM_INFO /ictc/other/tools/QuestaDVA/questasim/verilog_src/uvm-1.2/src/reg/uvm_reg_predictor.svh(221) @ 196955000: uvm_test_top.env.ahb_predictor [REG_PREDICT] Observed WRITE transaction to register regmodel.LCR: value='h24 : updated value = 'h24
# UVM_INFO ./../regmodel/uart_reg2ahb_adapter.sv(27) @ 200291000: reporter [uart_reg2ahb_adapter] reg2bus: address = 0x14 data = 0x0 kind = READ
# UVM_INFO ./../regmodel/uart_reg2ahb_adapter.sv(42) @ 200291000: reporter [uart_reg2ahb_adapter] bus2reg: address = 0x14 data = 0x2 kind = UVM_READ status = UVM_IS_OK
# UVM_INFO /ictc/other/tools/QuestaDVA/questasim/verilog_src/uvm-1.2/src/reg/uvm_reg_predictor.svh(225) @ 200291000: uvm_test_top.env.ahb_predictor [REG_PREDICT] Observed READ transaction to register regmodel.FSR: value='h2
# UVM_INFO ./../regmodel/uart_reg2ahb_adapter.sv(42) @ 200301000: reporter [uart_reg2ahb_adapter] bus2reg: address = 0x14 data = 0x2 kind = UVM_READ status = UVM_IS_OK
# UVM_INFO @ 200301000: reporter [RegModel] Read  register via map regmodel.ahb_map: regmodel.FSR=2
# UVM_INFO ./../regmodel/uart_reg2ahb_adapter.sv(27) @ 200301000: reporter [uart_reg2ahb_adapter] reg2bus: address = 0x1c data = 0x0 kind = READ
# UVM_INFO ./../regmodel/uart_reg2ahb_adapter.sv(42) @ 200301000: reporter [uart_reg2ahb_adapter] bus2reg: address = 0x1c data = 0x11 kind = UVM_READ status = UVM_IS_OK
# UVM_INFO /ictc/other/tools/QuestaDVA/questasim/verilog_src/uvm-1.2/src/reg/uvm_reg_predictor.svh(225) @ 200301000: uvm_test_top.env.ahb_predictor [REG_PREDICT] Observed READ transaction to register regmodel.RBR: value='h11
# UVM_INFO ./../regmodel/uart_reg2ahb_adapter.sv(42) @ 200311000: reporter [uart_reg2ahb_adapter] bus2reg: address = 0x1c data = 0x11 kind = UVM_READ status = UVM_IS_OK
# UVM_INFO @ 200311000: reporter [RegModel] Read  register via map regmodel.ahb_map: regmodel.RBR=11
# UVM_INFO ./../sequences/ahb_rxd_read_sequence.sv(47) @ 200311000: uvm_test_top.env.ahb_agt.sequencer@@ahb_read [ahb_rxd_read_sequence] 
# ===== PASSED SUCCESSFULLY!!! =====
# UVM_INFO ./../testcases/uart_rxd_random.sv(40) @ 210311000: uvm_test_top [uart_rxd_random] --------------------------------------------------------------
# Name                Type                Size  Value           
# --------------------------------------------------------------
# cfg                 uart_configuration  -     @360            
#   parity_mode       parity_mode_e       32    UART_PARITY_NONE
#   sampling          sampling_mode_e     32    MODE_X13        
#   data_width        integral            32    'h5             
#   num_of_stop_bit   integral            32    'h2             
#   baud_rate         integral            32    'h12c0          
#   baud_rate_enable  integral            1     'h0             
#   parity_enable     integral            1     'h0             
# --------------------------------------------------------------
# 
# UVM_INFO ./../regmodel/uart_reg2ahb_adapter.sv(42) @ 210311000: reporter [uart_reg2ahb_adapter] bus2reg: address = 0x0 data = 0x1 kind = UVM_WRITE status = UVM_IS_OK
# UVM_INFO /ictc/other/tools/QuestaDVA/questasim/verilog_src/uvm-1.2/src/reg/uvm_reg_predictor.svh(221) @ 210311000: uvm_test_top.env.ahb_predictor [REG_PREDICT] Observed WRITE transaction to register regmodel.MDR: value='h1 : updated value = 'h1
# UVM_INFO ./../regmodel/uart_reg2ahb_adapter.sv(42) @ 210311000: reporter [uart_reg2ahb_adapter] bus2reg: address = 0x4 data = 0x42 kind = UVM_WRITE status = UVM_IS_OK
# UVM_INFO /ictc/other/tools/QuestaDVA/questasim/verilog_src/uvm-1.2/src/reg/uvm_reg_predictor.svh(221) @ 210311000: uvm_test_top.env.ahb_predictor [REG_PREDICT] Observed WRITE transaction to register regmodel.DLL: value='h42 : updated value = 'h42
# UVM_INFO ./../regmodel/uart_reg2ahb_adapter.sv(42) @ 210311000: reporter [uart_reg2ahb_adapter] bus2reg: address = 0x8 data = 0x6 kind = UVM_WRITE status = UVM_IS_OK
# UVM_INFO /ictc/other/tools/QuestaDVA/questasim/verilog_src/uvm-1.2/src/reg/uvm_reg_predictor.svh(221) @ 210311000: uvm_test_top.env.ahb_predictor [REG_PREDICT] Observed WRITE transaction to register regmodel.DLH: value='h6 : updated value = 'h6
# UVM_INFO ./../regmodel/uart_reg2ahb_adapter.sv(42) @ 210311000: reporter [uart_reg2ahb_adapter] bus2reg: address = 0xc data = 0x24 kind = UVM_WRITE status = UVM_IS_OK
# UVM_INFO /ictc/other/tools/QuestaDVA/questasim/verilog_src/uvm-1.2/src/reg/uvm_reg_predictor.svh(221) @ 210311000: uvm_test_top.env.ahb_predictor [REG_PREDICT] Observed WRITE transaction to register regmodel.LCR: value='h24 : updated value = 'h24
# UVM_INFO ./../regmodel/uart_reg2ahb_adapter.sv(27) @ 213647000: reporter [uart_reg2ahb_adapter] reg2bus: address = 0x14 data = 0x0 kind = READ
# UVM_INFO ./../regmodel/uart_reg2ahb_adapter.sv(42) @ 213648000: reporter [uart_reg2ahb_adapter] bus2reg: address = 0x14 data = 0x2 kind = UVM_READ status = UVM_IS_OK
# UVM_INFO /ictc/other/tools/QuestaDVA/questasim/verilog_src/uvm-1.2/src/reg/uvm_reg_predictor.svh(225) @ 213648000: uvm_test_top.env.ahb_predictor [REG_PREDICT] Observed READ transaction to register regmodel.FSR: value='h2
# UVM_INFO ./../regmodel/uart_reg2ahb_adapter.sv(42) @ 213658000: reporter [uart_reg2ahb_adapter] bus2reg: address = 0x14 data = 0x2 kind = UVM_READ status = UVM_IS_OK
# UVM_INFO @ 213658000: reporter [RegModel] Read  register via map regmodel.ahb_map: regmodel.FSR=2
# UVM_INFO ./../regmodel/uart_reg2ahb_adapter.sv(27) @ 213658000: reporter [uart_reg2ahb_adapter] reg2bus: address = 0x1c data = 0x0 kind = READ
# UVM_INFO ./../regmodel/uart_reg2ahb_adapter.sv(42) @ 213658000: reporter [uart_reg2ahb_adapter] bus2reg: address = 0x1c data = 0x3 kind = UVM_READ status = UVM_IS_OK
# UVM_INFO /ictc/other/tools/QuestaDVA/questasim/verilog_src/uvm-1.2/src/reg/uvm_reg_predictor.svh(225) @ 213658000: uvm_test_top.env.ahb_predictor [REG_PREDICT] Observed READ transaction to register regmodel.RBR: value='h3
# UVM_INFO ./../regmodel/uart_reg2ahb_adapter.sv(42) @ 213668000: reporter [uart_reg2ahb_adapter] bus2reg: address = 0x1c data = 0x3 kind = UVM_READ status = UVM_IS_OK
# UVM_INFO @ 213668000: reporter [RegModel] Read  register via map regmodel.ahb_map: regmodel.RBR=3
# UVM_INFO ./../sequences/ahb_rxd_read_sequence.sv(47) @ 213668000: uvm_test_top.env.ahb_agt.sequencer@@ahb_read [ahb_rxd_read_sequence] 
# ===== PASSED SUCCESSFULLY!!! =====
# UVM_INFO ./../testcases/uart_rxd_random.sv(40) @ 223668000: uvm_test_top [uart_rxd_random] --------------------------------------------------------------
# Name                Type                Size  Value           
# --------------------------------------------------------------
# cfg                 uart_configuration  -     @360            
#   parity_mode       parity_mode_e       32    UART_PARITY_NONE
#   sampling          sampling_mode_e     32    MODE_X16        
#   data_width        integral            32    'h5             
#   num_of_stop_bit   integral            32    'h2             
#   baud_rate         integral            32    'h2580          
#   baud_rate_enable  integral            1     'h0             
#   parity_enable     integral            1     'h0             
# --------------------------------------------------------------
# 
# UVM_INFO ./../regmodel/uart_reg2ahb_adapter.sv(42) @ 223668000: reporter [uart_reg2ahb_adapter] bus2reg: address = 0x0 data = 0x0 kind = UVM_WRITE status = UVM_IS_OK
# UVM_INFO /ictc/other/tools/QuestaDVA/questasim/verilog_src/uvm-1.2/src/reg/uvm_reg_predictor.svh(221) @ 223668000: uvm_test_top.env.ahb_predictor [REG_PREDICT] Observed WRITE transaction to register regmodel.MDR: value='h0 : updated value = 'h0
# UVM_INFO ./../regmodel/uart_reg2ahb_adapter.sv(42) @ 223668000: reporter [uart_reg2ahb_adapter] bus2reg: address = 0x4 data = 0x8b kind = UVM_WRITE status = UVM_IS_OK
# UVM_INFO /ictc/other/tools/QuestaDVA/questasim/verilog_src/uvm-1.2/src/reg/uvm_reg_predictor.svh(221) @ 223668000: uvm_test_top.env.ahb_predictor [REG_PREDICT] Observed WRITE transaction to register regmodel.DLL: value='h8b : updated value = 'h8b
# UVM_INFO ./../regmodel/uart_reg2ahb_adapter.sv(42) @ 223668000: reporter [uart_reg2ahb_adapter] bus2reg: address = 0x8 data = 0x2 kind = UVM_WRITE status = UVM_IS_OK
# UVM_INFO /ictc/other/tools/QuestaDVA/questasim/verilog_src/uvm-1.2/src/reg/uvm_reg_predictor.svh(221) @ 223668000: uvm_test_top.env.ahb_predictor [REG_PREDICT] Observed WRITE transaction to register regmodel.DLH: value='h2 : updated value = 'h2
# UVM_INFO ./../regmodel/uart_reg2ahb_adapter.sv(42) @ 223668000: reporter [uart_reg2ahb_adapter] bus2reg: address = 0xc data = 0x24 kind = UVM_WRITE status = UVM_IS_OK
# UVM_INFO /ictc/other/tools/QuestaDVA/questasim/verilog_src/uvm-1.2/src/reg/uvm_reg_predictor.svh(221) @ 223668000: uvm_test_top.env.ahb_predictor [REG_PREDICT] Observed WRITE transaction to register regmodel.LCR: value='h24 : updated value = 'h24
# UVM_INFO ./../regmodel/uart_reg2ahb_adapter.sv(27) @ 225332000: reporter [uart_reg2ahb_adapter] reg2bus: address = 0x14 data = 0x0 kind = READ
# UVM_INFO ./../regmodel/uart_reg2ahb_adapter.sv(42) @ 225332000: reporter [uart_reg2ahb_adapter] bus2reg: address = 0x14 data = 0xa kind = UVM_READ status = UVM_IS_OK
# UVM_INFO /ictc/other/tools/QuestaDVA/questasim/verilog_src/uvm-1.2/src/reg/uvm_reg_predictor.svh(225) @ 225332000: uvm_test_top.env.ahb_predictor [REG_PREDICT] Observed READ transaction to register regmodel.FSR: value='ha
# UVM_INFO ./../regmodel/uart_reg2ahb_adapter.sv(42) @ 225342000: reporter [uart_reg2ahb_adapter] bus2reg: address = 0x14 data = 0xa kind = UVM_READ status = UVM_IS_OK
# UVM_INFO @ 225342000: reporter [RegModel] Read  register via map regmodel.ahb_map: regmodel.FSR=a
# UVM_INFO ./../regmodel/uart_reg2ahb_adapter.sv(27) @ 225342000: reporter [uart_reg2ahb_adapter] reg2bus: address = 0x14 data = 0x0 kind = READ
# UVM_INFO ./../regmodel/uart_reg2ahb_adapter.sv(42) @ 225342000: reporter [uart_reg2ahb_adapter] bus2reg: address = 0x14 data = 0x2 kind = UVM_READ status = UVM_IS_OK
# UVM_INFO /ictc/other/tools/QuestaDVA/questasim/verilog_src/uvm-1.2/src/reg/uvm_reg_predictor.svh(225) @ 225342000: uvm_test_top.env.ahb_predictor [REG_PREDICT] Observed READ transaction to register regmodel.FSR: value='h2
# UVM_INFO ./../regmodel/uart_reg2ahb_adapter.sv(42) @ 225352000: reporter [uart_reg2ahb_adapter] bus2reg: address = 0x14 data = 0x2 kind = UVM_READ status = UVM_IS_OK
# UVM_INFO @ 225352000: reporter [RegModel] Read  register via map regmodel.ahb_map: regmodel.FSR=2
# UVM_INFO ./../regmodel/uart_reg2ahb_adapter.sv(27) @ 225352000: reporter [uart_reg2ahb_adapter] reg2bus: address = 0x1c data = 0x0 kind = READ
# UVM_INFO ./../regmodel/uart_reg2ahb_adapter.sv(42) @ 225352000: reporter [uart_reg2ahb_adapter] bus2reg: address = 0x1c data = 0x19 kind = UVM_READ status = UVM_IS_OK
# UVM_INFO /ictc/other/tools/QuestaDVA/questasim/verilog_src/uvm-1.2/src/reg/uvm_reg_predictor.svh(225) @ 225352000: uvm_test_top.env.ahb_predictor [REG_PREDICT] Observed READ transaction to register regmodel.RBR: value='h19
# UVM_INFO ./../regmodel/uart_reg2ahb_adapter.sv(42) @ 225362000: reporter [uart_reg2ahb_adapter] bus2reg: address = 0x1c data = 0x19 kind = UVM_READ status = UVM_IS_OK
# UVM_INFO @ 225362000: reporter [RegModel] Read  register via map regmodel.ahb_map: regmodel.RBR=19
# UVM_INFO ./../sequences/ahb_rxd_read_sequence.sv(47) @ 225362000: uvm_test_top.env.ahb_agt.sequencer@@ahb_read [ahb_rxd_read_sequence] 
# ===== PASSED SUCCESSFULLY!!! =====
# UVM_INFO ./../testcases/uart_rxd_random.sv(40) @ 235362000: uvm_test_top [uart_rxd_random] --------------------------------------------------------------
# Name                Type                Size  Value           
# --------------------------------------------------------------
# cfg                 uart_configuration  -     @360            
