# vsim -sv_seed 1 -voptargs="+acc" -assertdebug -c testbench -do " log -r /*;run -all;" -l uart_rxd_parity_status_clear_1.log "+UVM_TESTNAME=uart_rxd_parity_status_clear" "+UVM_VERBOSITY=UVM_HIGH" 
# Start time: 18:30:21 on Aug 06,2026
# Loading /tmp/khaminh_3008@ictc-eda-ldap.ipa.test_dpi_17067/linux_x86_64_gcc-11/export_tramp.so
# ** Note: (vsim-3813) Design is being optimized due to module recompilation...
# ** Warning: ./../testcases/uart_txd_x16_parity.sv(20): (vopt-2240) Treating stand-alone use of function 'randomize' as an implicit VOID cast.
# ** Warning: ./../testcases/uart_txd_x16_data_frame.sv(20): (vopt-2240) Treating stand-alone use of function 'randomize' as an implicit VOID cast.
# ** Warning: ./../testcases/uart_txd_x16_stop_bit.sv(20): (vopt-2240) Treating stand-alone use of function 'randomize' as an implicit VOID cast.
# ** Warning: ./../testcases/uart_txd_x16_baud_rate.sv(22): (vopt-2240) Treating stand-alone use of function 'randomize' as an implicit VOID cast.
# ** Warning: ./../testcases/uart_txd_x16_random.sv(26): (vopt-2240) Treating stand-alone use of function 'randomize' as an implicit VOID cast.
# ** Warning: ./../testcases/uart_txd_x13_parity.sv(20): (vopt-2240) Treating stand-alone use of function 'randomize' as an implicit VOID cast.
# ** Warning: ./../testcases/uart_txd_x13_data_frame.sv(20): (vopt-2240) Treating stand-alone use of function 'randomize' as an implicit VOID cast.
# ** Warning: ./../testcases/uart_txd_x13_stop_bit.sv(20): (vopt-2240) Treating stand-alone use of function 'randomize' as an implicit VOID cast.
# ** Warning: ./../testcases/uart_txd_x13_baud_rate.sv(22): (vopt-2240) Treating stand-alone use of function 'randomize' as an implicit VOID cast.
# ** Warning: ./../testcases/uart_txd_x13_random.sv(26): (vopt-2240) Treating stand-alone use of function 'randomize' as an implicit VOID cast.
# ** Warning: ./../testcases/uart_rxd_random.sv(30): (vopt-2240) Treating stand-alone use of function 'randomize' as an implicit VOID cast.
# ** Warning: ./../testcases/uart_rxd_parity_status.sv(30): (vopt-2240) Treating stand-alone use of function 'randomize' as an implicit VOID cast.
# ** Warning: ./../testcases/uart_rxd_parity_status_clear.sv(30): (vopt-2240) Treating stand-alone use of function 'randomize' as an implicit VOID cast.
# //  Questa Sim-64
# //  Version 10.6d_1 linux_x86_64 Apr 11 2018
# //
# //  Copyright 1991-2018 Mentor Graphics Corporation
# //  All Rights Reserved.
# //
# //  QuestaSim and its associated documentation contain trade
# //  secrets and commercial or financial information that are the property of
# //  Mentor Graphics Corporation and are privileged, confidential,
# //  and exempt from disclosure under the Freedom of Information Act,
# //  5 U.S.C. Section 552. Furthermore, this information
# //  is prohibited from disclosure under the Trade Secrets Act,
# //  18 U.S.C. Section 1905.
# //
# Loading sv_std.std
# Loading work.uart_if(fast)
# Loading work.ahb_if(fast)
# Loading work.uvm_pkg(fast)
# Loading work.uart_register_pkg(fast)
# ** Note: (vsim-8785) UVM-aware debugging capabilities will be disabled since no compiled "questa_uvm_pkg" can be found.
# This also means that later if you turn on UVM-aware debugging your debug simulations may have
# different random seeds from your non-debug simulations.
# Loading work.ahb_pkg(fast)
# Loading work.uart_regmodel_pkg(fast)
# Loading work.uart_pkg(fast)
# Loading work.seq_pkg(fast)
# Loading work.env_pkg(fast)
# Loading work.test_pkg(fast)
# Loading work.testbench(fast)
# Loading work.ahb_if(fast)
# Loading work.uart_if(fast)
# Loading work.uart_top(fast)
# Loading work.cmsdk_ahb_to_apb(fast)
# Loading work.apb_decoder(fast)
# Loading work.uart_fifo(fast)
# Loading work.uart_transmitter(fast)
# Loading work.uart_receiver(fast)
# Loading work.uart_interrupt(fast)
# Loading work.baud_generator(fast)
# Compiling /tmp/khaminh_3008@ictc-eda-ldap.ipa.test_dpi_17067/linux_x86_64_gcc-5.3.0/exportwrapper.c
# Compiling /tmp/khaminh_3008@ictc-eda-ldap.ipa.test_dpi_17067/linux_x86_64_gcc-11/exportwrapper.c
# Loading /tmp/khaminh_3008@ictc-eda-ldap.ipa.test_dpi_17067/linux_x86_64_gcc-11/vsim_auto_compile.so
#  log -r /*
# run -all
# UVM_INFO /ictc/other/tools/QuestaDVA/questasim/verilog_src/uvm-1.2/src/base/uvm_root.svh(392) @ 0: reporter [UVM/RELNOTES] 
# ----------------------------------------------------------------
# UVM-1.2
# (C) 2007-2014 Mentor Graphics Corporation
# (C) 2007-2014 Cadence Design Systems, Inc.
# (C) 2006-2014 Synopsys, Inc.
# (C) 2011-2013 Cypress Semiconductor Corp.
# (C) 2013-2014 NVIDIA Corporation
# ----------------------------------------------------------------
# 
#   ***********       IMPORTANT RELEASE NOTES         ************
# 
#   You are using a version of the UVM library that has been compiled
#   with `UVM_NO_DEPRECATED undefined.
#   See http://www.eda.org/svdb/view.php?id=3313 for more details.
# 
#   You are using a version of the UVM library that has been compiled
#   with `UVM_OBJECT_DO_NOT_NEED_CONSTRUCTOR undefined.
#   See http://www.eda.org/svdb/view.php?id=3770 for more details.
# 
#       (Specify +UVM_NO_RELNOTES to turn off this notice)
# 
# UVM_INFO /ictc/other/tools/QuestaDVA/questasim/verilog_src/uvm-1.2/src/base/uvm_root.svh(453) @ 0: reporter [NO_DPI_TSTNAME] UVM_NO_DPI defined--getting UVM_TESTNAME directly, without DPI
# UVM_INFO @ 0: reporter [RNTST] Running test uart_rxd_parity_status_clear...
# UVM_INFO ./../vip/ahb_vip/ahb_agent.sv(20) @ 0: uvm_test_top.env.ahb_agt [ahb_agent] Active agent is configued
# ENTER SCOREBOARD BUILD PHASE
# UVM_INFO ./../vip/uart_vip/uart_agent.sv(25) @ 0: uvm_test_top.env.uart_agt [uart_agent] Active agent is configured
# UVM_INFO /ictc/other/tools/QuestaDVA/questasim/verilog_src/uvm-1.2/src/base/uvm_root.svh(579) @ 0: reporter [UVMTOP] UVM testbench topology:
# ----------------------------------------------------------------------------
# Name                       Type                                  Size  Value
# ----------------------------------------------------------------------------
# uvm_test_top               uart_rxd_parity_status_clear          -     @347 
#   env                      dut_environment                       -     @371 
#     ahb_agt                ahb_agent                             -     @392 
#       driver               ahb_driver                            -     @499 
#         rsp_port           uvm_analysis_port                     -     @518 
#         seq_item_port      uvm_seq_item_pull_port                -     @508 
#       monitor              ahb_monitor                           -     @665 
#         a_port             uvm_analysis_port                     -     @674 
#       sequencer            ahb_sequencer                         -     @528 
#         rsp_export         uvm_analysis_export                   -     @537 
#         seq_item_export    uvm_seq_item_pull_imp                 -     @655 
#         arbitration_queue  array                                 0     -    
#         lock_queue         array                                 0     -    
#         num_last_reqs      integral                              32    'd1  
#         num_last_rsps      integral                              32    'd1  
#     ahb_predictor          uvm_reg_predictor #(ahb_transaction)  -     @410 
#       bus_in               uvm_analysis_imp                      -     @419 
#       reg_ap               uvm_analysis_port                     -     @429 
#     dut_sb                 dut_scoreboard                        -     @383 
#       ahb_a_export         uvm_analysis_imp_ahb                  -     @694 
#       interrupt_a_export   uvm_analysis_imp_interrupt            -     @714 
#       uart_a_export        uvm_analysis_imp_uart                 -     @704 
#     uart_agt               uart_agent                            -     @401 
#       driver               uart_driver                           -     @730 
#         rsp_port           uvm_analysis_port                     -     @749 
#         seq_item_port      uvm_seq_item_pull_port                -     @739 
#         uart_a_port        uvm_analysis_port                     -     @759 
#       monitor              uart_monitor                          -     @769 
#         interrupt_a_port   uvm_analysis_port                     -     @788 
#         uart_a_port        uvm_analysis_port                     -     @778 
#       sequencer            uart_sequencer                        -     @798 
#         rsp_export         uvm_analysis_export                   -     @807 
#         seq_item_export    uvm_seq_item_pull_imp                 -     @925 
#         arbitration_queue  array                                 0     -    
#         lock_queue         array                                 0     -    
#         num_last_reqs      integral                              32    'd1  
#         num_last_rsps      integral                              32    'd1  
# ----------------------------------------------------------------------------
# 
# UVM_INFO /ictc/other/tools/QuestaDVA/questasim/verilog_src/uvm-1.2/src/base/uvm_traversal.svh(279) @ 0: reporter [UVM/COMP/NAMECHECK] This implementation of the component name checks requires DPI to be enabled
# UVM_INFO ./../testcases/uart_rxd_parity_status_clear.sv(40) @ 0: uvm_test_top [uart_rxd_parity_status_clear] -------------------------------------------------------------
# Name                Type                Size  Value          
# -------------------------------------------------------------
# cfg                 uart_configuration  -     @360           
#   parity_mode       parity_mode_e       32    UART_PARITY_ODD
#   sampling          sampling_mode_e     32    MODE_X16       
#   data_width        integral            32    'h5            
#   num_of_stop_bit   integral            32    'h1            
#   baud_rate         integral            32    'h960          
#   baud_rate_enable  integral            1     'h0            
#   parity_enable     integral            1     'h1            
#   interrupt_enable  integral            1     'h0            
# -------------------------------------------------------------
# 
# UVM_INFO ./../regmodel/uart_reg2ahb_adapter.sv(42) @ 0: reporter [uart_reg2ahb_adapter] bus2reg: address = 0x0 data = 0x0 kind = UVM_WRITE status = UVM_IS_OK
# UVM_INFO /ictc/other/tools/QuestaDVA/questasim/verilog_src/uvm-1.2/src/reg/uvm_reg_predictor.svh(221) @ 0: uvm_test_top.env.ahb_predictor [REG_PREDICT] Observed WRITE transaction to register regmodel.MDR: value='h0 : updated value = 'h0
# UVM_INFO ./../regmodel/uart_reg2ahb_adapter.sv(42) @ 0: reporter [uart_reg2ahb_adapter] bus2reg: address = 0x4 data = 0x2c kind = UVM_WRITE status = UVM_IS_OK
# UVM_INFO /ictc/other/tools/QuestaDVA/questasim/verilog_src/uvm-1.2/src/reg/uvm_reg_predictor.svh(221) @ 0: uvm_test_top.env.ahb_predictor [REG_PREDICT] Observed WRITE transaction to register regmodel.DLL: value='h2c : updated value = 'h2c
# UVM_INFO ./../regmodel/uart_reg2ahb_adapter.sv(42) @ 0: reporter [uart_reg2ahb_adapter] bus2reg: address = 0x8 data = 0xa kind = UVM_WRITE status = UVM_IS_OK
# UVM_INFO /ictc/other/tools/QuestaDVA/questasim/verilog_src/uvm-1.2/src/reg/uvm_reg_predictor.svh(221) @ 0: uvm_test_top.env.ahb_predictor [REG_PREDICT] Observed WRITE transaction to register regmodel.DLH: value='ha : updated value = 'ha
# UVM_INFO ./../regmodel/uart_reg2ahb_adapter.sv(42) @ 0: reporter [uart_reg2ahb_adapter] bus2reg: address = 0xc data = 0x28 kind = UVM_WRITE status = UVM_IS_OK
# UVM_INFO /ictc/other/tools/QuestaDVA/questasim/verilog_src/uvm-1.2/src/reg/uvm_reg_predictor.svh(221) @ 0: uvm_test_top.env.ahb_predictor [REG_PREDICT] Observed WRITE transaction to register regmodel.LCR: value='h28 : updated value = 'h28
# UVM_INFO ./../regmodel/uart_reg2ahb_adapter.sv(42) @ 1000: reporter [uart_reg2ahb_adapter] bus2reg: address = 0x10 data = 0x10 kind = UVM_WRITE status = UVM_IS_OK
# UVM_INFO /ictc/other/tools/QuestaDVA/questasim/verilog_src/uvm-1.2/src/reg/uvm_reg_predictor.svh(221) @ 1000: uvm_test_top.env.ahb_predictor [REG_PREDICT] Observed WRITE transaction to register regmodel.IER: value='h10 : updated value = 'h10
# UVM_INFO ./../regmodel/uart_reg2ahb_adapter.sv(27) @ 6665000: reporter [uart_reg2ahb_adapter] reg2bus: address = 0x14 data = 0x0 kind = READ
# UVM_INFO ./../regmodel/uart_reg2ahb_adapter.sv(42) @ 6665000: reporter [uart_reg2ahb_adapter] bus2reg: address = 0x14 data = 0x1a kind = UVM_READ status = UVM_IS_OK
# UVM_INFO /ictc/other/tools/QuestaDVA/questasim/verilog_src/uvm-1.2/src/reg/uvm_reg_predictor.svh(225) @ 6665000: uvm_test_top.env.ahb_predictor [REG_PREDICT] Observed READ transaction to register regmodel.FSR: value='h1a
# UVM_INFO ./../regmodel/uart_reg2ahb_adapter.sv(42) @ 6675000: reporter [uart_reg2ahb_adapter] bus2reg: address = 0x14 data = 0x1a kind = UVM_READ status = UVM_IS_OK
# UVM_INFO @ 6675000: reporter [RegModel] Read  register via map regmodel.ahb_map: regmodel.FSR=1a
# UVM_INFO ./../regmodel/uart_reg2ahb_adapter.sv(27) @ 6675000: reporter [uart_reg2ahb_adapter] reg2bus: address = 0x14 data = 0x0 kind = READ
# UVM_INFO ./../regmodel/uart_reg2ahb_adapter.sv(42) @ 6675000: reporter [uart_reg2ahb_adapter] bus2reg: address = 0x14 data = 0x12 kind = UVM_READ status = UVM_IS_OK
# UVM_INFO /ictc/other/tools/QuestaDVA/questasim/verilog_src/uvm-1.2/src/reg/uvm_reg_predictor.svh(225) @ 6675000: uvm_test_top.env.ahb_predictor [REG_PREDICT] Observed READ transaction to register regmodel.FSR: value='h12
# UVM_INFO ./../regmodel/uart_reg2ahb_adapter.sv(42) @ 6685000: reporter [uart_reg2ahb_adapter] bus2reg: address = 0x14 data = 0x12 kind = UVM_READ status = UVM_IS_OK
# UVM_INFO @ 6685000: reporter [RegModel] Read  register via map regmodel.ahb_map: regmodel.FSR=12
# UVM_INFO ./../regmodel/uart_reg2ahb_adapter.sv(27) @ 6685000: reporter [uart_reg2ahb_adapter] reg2bus: address = 0x14 data = 0x0 kind = READ
# UVM_INFO ./../regmodel/uart_reg2ahb_adapter.sv(42) @ 6685000: reporter [uart_reg2ahb_adapter] bus2reg: address = 0x14 data = 0x12 kind = UVM_READ status = UVM_IS_OK
# UVM_INFO /ictc/other/tools/QuestaDVA/questasim/verilog_src/uvm-1.2/src/reg/uvm_reg_predictor.svh(225) @ 6685000: uvm_test_top.env.ahb_predictor [REG_PREDICT] Observed READ transaction to register regmodel.FSR: value='h12
# UVM_INFO ./../regmodel/uart_reg2ahb_adapter.sv(42) @ 6695000: reporter [uart_reg2ahb_adapter] bus2reg: address = 0x14 data = 0x12 kind = UVM_READ status = UVM_IS_OK
# UVM_INFO @ 6695000: reporter [RegModel] Read  register via map regmodel.ahb_map: regmodel.FSR=12
# UVM_INFO ./../sequences/ahb_rxd_clear_parity_status_sequence.sv(47) @ 6695000: uvm_test_top.env.ahb_agt.sequencer@@ahb_clear [ahb_rxd_clear_parity_status_sequence] 
# ===== Parity Status Error Triggered =====
# UVM_INFO ./../regmodel/uart_reg2ahb_adapter.sv(42) @ 6695000: reporter [uart_reg2ahb_adapter] bus2reg: address = 0x14 data = 0x10 kind = UVM_WRITE status = UVM_IS_OK
# UVM_INFO /ictc/other/tools/QuestaDVA/questasim/verilog_src/uvm-1.2/src/reg/uvm_reg_predictor.svh(221) @ 6695000: uvm_test_top.env.ahb_predictor [REG_PREDICT] Observed WRITE transaction to register regmodel.FSR: value='h10 : updated value = 'h2
# UVM_INFO ./../regmodel/uart_reg2ahb_adapter.sv(27) @ 6695000: reporter [uart_reg2ahb_adapter] reg2bus: address = 0x14 data = 0x0 kind = READ
# UVM_INFO ./../regmodel/uart_reg2ahb_adapter.sv(42) @ 6695000: reporter [uart_reg2ahb_adapter] bus2reg: address = 0x14 data = 0x2 kind = UVM_READ status = UVM_IS_OK
# UVM_INFO /ictc/other/tools/QuestaDVA/questasim/verilog_src/uvm-1.2/src/reg/uvm_reg_predictor.svh(225) @ 6695000: uvm_test_top.env.ahb_predictor [REG_PREDICT] Observed READ transaction to register regmodel.FSR: value='h2
# UVM_INFO ./../regmodel/uart_reg2ahb_adapter.sv(42) @ 6705000: reporter [uart_reg2ahb_adapter] bus2reg: address = 0x14 data = 0x2 kind = UVM_READ status = UVM_IS_OK
# UVM_INFO @ 6705000: reporter [RegModel] Read  register via map regmodel.ahb_map: regmodel.FSR=2
# UVM_INFO ./../sequences/ahb_rxd_clear_parity_status_sequence.sv(58) @ 6705000: uvm_test_top.env.ahb_agt.sequencer@@ahb_clear [ahb_rxd_clear_parity_status_sequence] 
# ===== Parity Status Error is cleared =====
# UVM_INFO ./../testcases/uart_rxd_parity_status_clear.sv(40) @ 16705000: uvm_test_top [uart_rxd_parity_status_clear] -------------------------------------------------------------
# Name                Type                Size  Value          
# -------------------------------------------------------------
# cfg                 uart_configuration  -     @360           
#   parity_mode       parity_mode_e       32    UART_PARITY_ODD
#   sampling          sampling_mode_e     32    MODE_X13       
#   data_width        integral            32    'h5            
#   num_of_stop_bit   integral            32    'h1            
#   baud_rate         integral            32    'h960          
#   baud_rate_enable  integral            1     'h0            
#   parity_enable     integral            1     'h1            
#   interrupt_enable  integral            1     'h0            
# -------------------------------------------------------------
# 
# UVM_INFO ./../regmodel/uart_reg2ahb_adapter.sv(42) @ 16705000: reporter [uart_reg2ahb_adapter] bus2reg: address = 0x0 data = 0x1 kind = UVM_WRITE status = UVM_IS_OK
# UVM_INFO /ictc/other/tools/QuestaDVA/questasim/verilog_src/uvm-1.2/src/reg/uvm_reg_predictor.svh(221) @ 16705000: uvm_test_top.env.ahb_predictor [REG_PREDICT] Observed WRITE transaction to register regmodel.MDR: value='h1 : updated value = 'h1
# UVM_INFO ./../regmodel/uart_reg2ahb_adapter.sv(42) @ 16705000: reporter [uart_reg2ahb_adapter] bus2reg: address = 0x4 data = 0x85 kind = UVM_WRITE status = UVM_IS_OK
# UVM_INFO /ictc/other/tools/QuestaDVA/questasim/verilog_src/uvm-1.2/src/reg/uvm_reg_predictor.svh(221) @ 16705000: uvm_test_top.env.ahb_predictor [REG_PREDICT] Observed WRITE transaction to register regmodel.DLL: value='h85 : updated value = 'h85
# UVM_INFO ./../regmodel/uart_reg2ahb_adapter.sv(42) @ 16705000: reporter [uart_reg2ahb_adapter] bus2reg: address = 0x8 data = 0xc kind = UVM_WRITE status = UVM_IS_OK
# UVM_INFO /ictc/other/tools/QuestaDVA/questasim/verilog_src/uvm-1.2/src/reg/uvm_reg_predictor.svh(221) @ 16705000: uvm_test_top.env.ahb_predictor [REG_PREDICT] Observed WRITE transaction to register regmodel.DLH: value='hc : updated value = 'hc
# UVM_INFO ./../regmodel/uart_reg2ahb_adapter.sv(42) @ 16705000: reporter [uart_reg2ahb_adapter] bus2reg: address = 0xc data = 0x28 kind = UVM_WRITE status = UVM_IS_OK
# UVM_INFO /ictc/other/tools/QuestaDVA/questasim/verilog_src/uvm-1.2/src/reg/uvm_reg_predictor.svh(221) @ 16705000: uvm_test_top.env.ahb_predictor [REG_PREDICT] Observed WRITE transaction to register regmodel.LCR: value='h28 : updated value = 'h28
# UVM_INFO ./../regmodel/uart_reg2ahb_adapter.sv(42) @ 16705000: reporter [uart_reg2ahb_adapter] bus2reg: address = 0x10 data = 0x10 kind = UVM_WRITE status = UVM_IS_OK
# UVM_INFO /ictc/other/tools/QuestaDVA/questasim/verilog_src/uvm-1.2/src/reg/uvm_reg_predictor.svh(221) @ 16705000: uvm_test_top.env.ahb_predictor [REG_PREDICT] Observed WRITE transaction to register regmodel.IER: value='h10 : updated value = 'h10
# UVM_INFO ./../regmodel/uart_reg2ahb_adapter.sv(27) @ 23369000: reporter [uart_reg2ahb_adapter] reg2bus: address = 0x14 data = 0x0 kind = READ
# UVM_INFO ./../regmodel/uart_reg2ahb_adapter.sv(42) @ 23369000: reporter [uart_reg2ahb_adapter] bus2reg: address = 0x14 data = 0x12 kind = UVM_READ status = UVM_IS_OK
# UVM_INFO /ictc/other/tools/QuestaDVA/questasim/verilog_src/uvm-1.2/src/reg/uvm_reg_predictor.svh(225) @ 23369000: uvm_test_top.env.ahb_predictor [REG_PREDICT] Observed READ transaction to register regmodel.FSR: value='h12
# UVM_INFO ./../regmodel/uart_reg2ahb_adapter.sv(42) @ 23379000: reporter [uart_reg2ahb_adapter] bus2reg: address = 0x14 data = 0x12 kind = UVM_READ status = UVM_IS_OK
# UVM_INFO @ 23379000: reporter [RegModel] Read  register via map regmodel.ahb_map: regmodel.FSR=12
# UVM_INFO ./../regmodel/uart_reg2ahb_adapter.sv(27) @ 23379000: reporter [uart_reg2ahb_adapter] reg2bus: address = 0x14 data = 0x0 kind = READ
# UVM_INFO ./../regmodel/uart_reg2ahb_adapter.sv(42) @ 23380000: reporter [uart_reg2ahb_adapter] bus2reg: address = 0x14 data = 0x12 kind = UVM_READ status = UVM_IS_OK
# UVM_INFO /ictc/other/tools/QuestaDVA/questasim/verilog_src/uvm-1.2/src/reg/uvm_reg_predictor.svh(225) @ 23380000: uvm_test_top.env.ahb_predictor [REG_PREDICT] Observed READ transaction to register regmodel.FSR: value='h12
# UVM_INFO ./../regmodel/uart_reg2ahb_adapter.sv(42) @ 23390000: reporter [uart_reg2ahb_adapter] bus2reg: address = 0x14 data = 0x12 kind = UVM_READ status = UVM_IS_OK
# UVM_INFO @ 23390000: reporter [RegModel] Read  register via map regmodel.ahb_map: regmodel.FSR=12
# UVM_INFO ./../sequences/ahb_rxd_clear_parity_status_sequence.sv(47) @ 23390000: uvm_test_top.env.ahb_agt.sequencer@@ahb_clear [ahb_rxd_clear_parity_status_sequence] 
# ===== Parity Status Error Triggered =====
# UVM_INFO ./../regmodel/uart_reg2ahb_adapter.sv(42) @ 23390000: reporter [uart_reg2ahb_adapter] bus2reg: address = 0x14 data = 0x10 kind = UVM_WRITE status = UVM_IS_OK
# UVM_INFO /ictc/other/tools/QuestaDVA/questasim/verilog_src/uvm-1.2/src/reg/uvm_reg_predictor.svh(221) @ 23390000: uvm_test_top.env.ahb_predictor [REG_PREDICT] Observed WRITE transaction to register regmodel.FSR: value='h10 : updated value = 'h2
# UVM_INFO ./../regmodel/uart_reg2ahb_adapter.sv(27) @ 23390000: reporter [uart_reg2ahb_adapter] reg2bus: address = 0x14 data = 0x0 kind = READ
# UVM_INFO ./../regmodel/uart_reg2ahb_adapter.sv(42) @ 23390000: reporter [uart_reg2ahb_adapter] bus2reg: address = 0x14 data = 0x2 kind = UVM_READ status = UVM_IS_OK
# UVM_INFO /ictc/other/tools/QuestaDVA/questasim/verilog_src/uvm-1.2/src/reg/uvm_reg_predictor.svh(225) @ 23390000: uvm_test_top.env.ahb_predictor [REG_PREDICT] Observed READ transaction to register regmodel.FSR: value='h2
# UVM_INFO ./../regmodel/uart_reg2ahb_adapter.sv(42) @ 23400000: reporter [uart_reg2ahb_adapter] bus2reg: address = 0x14 data = 0x2 kind = UVM_READ status = UVM_IS_OK
# UVM_INFO @ 23400000: reporter [RegModel] Read  register via map regmodel.ahb_map: regmodel.FSR=2
# UVM_INFO ./../sequences/ahb_rxd_clear_parity_status_sequence.sv(58) @ 23400000: uvm_test_top.env.ahb_agt.sequencer@@ahb_clear [ahb_rxd_clear_parity_status_sequence] 
# ===== Parity Status Error is cleared =====
# UVM_INFO ./../testcases/uart_rxd_parity_status_clear.sv(40) @ 33400000: uvm_test_top [uart_rxd_parity_status_clear] -------------------------------------------------------------
# Name                Type                Size  Value          
# -------------------------------------------------------------
# cfg                 uart_configuration  -     @360           
#   parity_mode       parity_mode_e       32    UART_PARITY_ODD
#   sampling          sampling_mode_e     32    MODE_X16       
#   data_width        integral            32    'h5            
#   num_of_stop_bit   integral            32    'h1            
#   baud_rate         integral            32    'h12c0         
#   baud_rate_enable  integral            1     'h0            
#   parity_enable     integral            1     'h1            
#   interrupt_enable  integral            1     'h0            
# -------------------------------------------------------------
# 
# UVM_INFO ./../regmodel/uart_reg2ahb_adapter.sv(42) @ 33400000: reporter [uart_reg2ahb_adapter] bus2reg: address = 0x0 data = 0x0 kind = UVM_WRITE status = UVM_IS_OK
# UVM_INFO /ictc/other/tools/QuestaDVA/questasim/verilog_src/uvm-1.2/src/reg/uvm_reg_predictor.svh(221) @ 33400000: uvm_test_top.env.ahb_predictor [REG_PREDICT] Observed WRITE transaction to register regmodel.MDR: value='h0 : updated value = 'h0
# UVM_INFO ./../regmodel/uart_reg2ahb_adapter.sv(42) @ 33400000: reporter [uart_reg2ahb_adapter] bus2reg: address = 0x4 data = 0x16 kind = UVM_WRITE status = UVM_IS_OK
# UVM_INFO /ictc/other/tools/QuestaDVA/questasim/verilog_src/uvm-1.2/src/reg/uvm_reg_predictor.svh(221) @ 33400000: uvm_test_top.env.ahb_predictor [REG_PREDICT] Observed WRITE transaction to register regmodel.DLL: value='h16 : updated value = 'h16
# UVM_INFO ./../regmodel/uart_reg2ahb_adapter.sv(42) @ 33400000: reporter [uart_reg2ahb_adapter] bus2reg: address = 0x8 data = 0x5 kind = UVM_WRITE status = UVM_IS_OK
# UVM_INFO /ictc/other/tools/QuestaDVA/questasim/verilog_src/uvm-1.2/src/reg/uvm_reg_predictor.svh(221) @ 33400000: uvm_test_top.env.ahb_predictor [REG_PREDICT] Observed WRITE transaction to register regmodel.DLH: value='h5 : updated value = 'h5
# UVM_INFO ./../regmodel/uart_reg2ahb_adapter.sv(42) @ 33400000: reporter [uart_reg2ahb_adapter] bus2reg: address = 0xc data = 0x28 kind = UVM_WRITE status = UVM_IS_OK
# UVM_INFO /ictc/other/tools/QuestaDVA/questasim/verilog_src/uvm-1.2/src/reg/uvm_reg_predictor.svh(221) @ 33400000: uvm_test_top.env.ahb_predictor [REG_PREDICT] Observed WRITE transaction to register regmodel.LCR: value='h28 : updated value = 'h28
# UVM_INFO ./../regmodel/uart_reg2ahb_adapter.sv(42) @ 33400000: reporter [uart_reg2ahb_adapter] bus2reg: address = 0x10 data = 0x10 kind = UVM_WRITE status = UVM_IS_OK
# UVM_INFO /ictc/other/tools/QuestaDVA/questasim/verilog_src/uvm-1.2/src/reg/uvm_reg_predictor.svh(221) @ 33400000: uvm_test_top.env.ahb_predictor [REG_PREDICT] Observed WRITE transaction to register regmodel.IER: value='h10 : updated value = 'h10
# UVM_INFO ./../regmodel/uart_reg2ahb_adapter.sv(27) @ 36736000: reporter [uart_reg2ahb_adapter] reg2bus: address = 0x14 data = 0x0 kind = READ
# UVM_INFO ./../regmodel/uart_reg2ahb_adapter.sv(42) @ 36736000: reporter [uart_reg2ahb_adapter] bus2reg: address = 0x14 data = 0x12 kind = UVM_READ status = UVM_IS_OK
# UVM_INFO /ictc/other/tools/QuestaDVA/questasim/verilog_src/uvm-1.2/src/reg/uvm_reg_predictor.svh(225) @ 36736000: uvm_test_top.env.ahb_predictor [REG_PREDICT] Observed READ transaction to register regmodel.FSR: value='h12
# UVM_INFO ./../regmodel/uart_reg2ahb_adapter.sv(42) @ 36746000: reporter [uart_reg2ahb_adapter] bus2reg: address = 0x14 data = 0x12 kind = UVM_READ status = UVM_IS_OK
# UVM_INFO @ 36746000: reporter [RegModel] Read  register via map regmodel.ahb_map: regmodel.FSR=12
# UVM_INFO ./../regmodel/uart_reg2ahb_adapter.sv(27) @ 36746000: reporter [uart_reg2ahb_adapter] reg2bus: address = 0x14 data = 0x0 kind = READ
# UVM_INFO ./../regmodel/uart_reg2ahb_adapter.sv(42) @ 36746000: reporter [uart_reg2ahb_adapter] bus2reg: address = 0x14 data = 0x12 kind = UVM_READ status = UVM_IS_OK
# UVM_INFO /ictc/other/tools/QuestaDVA/questasim/verilog_src/uvm-1.2/src/reg/uvm_reg_predictor.svh(225) @ 36746000: uvm_test_top.env.ahb_predictor [REG_PREDICT] Observed READ transaction to register regmodel.FSR: value='h12
# UVM_INFO ./../regmodel/uart_reg2ahb_adapter.sv(42) @ 36756000: reporter [uart_reg2ahb_adapter] bus2reg: address = 0x14 data = 0x12 kind = UVM_READ status = UVM_IS_OK
# UVM_INFO @ 36756000: reporter [RegModel] Read  register via map regmodel.ahb_map: regmodel.FSR=12
# UVM_INFO ./../sequences/ahb_rxd_clear_parity_status_sequence.sv(47) @ 36756000: uvm_test_top.env.ahb_agt.sequencer@@ahb_clear [ahb_rxd_clear_parity_status_sequence] 
# ===== Parity Status Error Triggered =====
# UVM_INFO ./../regmodel/uart_reg2ahb_adapter.sv(42) @ 36756000: reporter [uart_reg2ahb_adapter] bus2reg: address = 0x14 data = 0x10 kind = UVM_WRITE status = UVM_IS_OK
# UVM_INFO /ictc/other/tools/QuestaDVA/questasim/verilog_src/uvm-1.2/src/reg/uvm_reg_predictor.svh(221) @ 36756000: uvm_test_top.env.ahb_predictor [REG_PREDICT] Observed WRITE transaction to register regmodel.FSR: value='h10 : updated value = 'h2
# UVM_INFO ./../regmodel/uart_reg2ahb_adapter.sv(27) @ 36756000: reporter [uart_reg2ahb_adapter] reg2bus: address = 0x14 data = 0x0 kind = READ
# UVM_INFO ./../regmodel/uart_reg2ahb_adapter.sv(42) @ 36756000: reporter [uart_reg2ahb_adapter] bus2reg: address = 0x14 data = 0x2 kind = UVM_READ status = UVM_IS_OK
# UVM_INFO /ictc/other/tools/QuestaDVA/questasim/verilog_src/uvm-1.2/src/reg/uvm_reg_predictor.svh(225) @ 36756000: uvm_test_top.env.ahb_predictor [REG_PREDICT] Observed READ transaction to register regmodel.FSR: value='h2
# UVM_INFO ./../regmodel/uart_reg2ahb_adapter.sv(42) @ 36766000: reporter [uart_reg2ahb_adapter] bus2reg: address = 0x14 data = 0x2 kind = UVM_READ status = UVM_IS_OK
# UVM_INFO @ 36766000: reporter [RegModel] Read  register via map regmodel.ahb_map: regmodel.FSR=2
# UVM_INFO ./../sequences/ahb_rxd_clear_parity_status_sequence.sv(58) @ 36766000: uvm_test_top.env.ahb_agt.sequencer@@ahb_clear [ahb_rxd_clear_parity_status_sequence] 
# ===== Parity Status Error is cleared =====
# UVM_INFO ./../testcases/uart_rxd_parity_status_clear.sv(40) @ 46766000: uvm_test_top [uart_rxd_parity_status_clear] -------------------------------------------------------------
# Name                Type                Size  Value          
# -------------------------------------------------------------
# cfg                 uart_configuration  -     @360           
#   parity_mode       parity_mode_e       32    UART_PARITY_ODD
#   sampling          sampling_mode_e     32    MODE_X13       
#   data_width        integral            32    'h5            
#   num_of_stop_bit   integral            32    'h1            
#   baud_rate         integral            32    'h12c0         
#   baud_rate_enable  integral            1     'h0            
#   parity_enable     integral            1     'h1            
#   interrupt_enable  integral            1     'h0            
# -------------------------------------------------------------
# 
# UVM_INFO ./../regmodel/uart_reg2ahb_adapter.sv(42) @ 46766000: reporter [uart_reg2ahb_adapter] bus2reg: address = 0x0 data = 0x1 kind = UVM_WRITE status = UVM_IS_OK
# UVM_INFO /ictc/other/tools/QuestaDVA/questasim/verilog_src/uvm-1.2/src/reg/uvm_reg_predictor.svh(221) @ 46766000: uvm_test_top.env.ahb_predictor [REG_PREDICT] Observed WRITE transaction to register regmodel.MDR: value='h1 : updated value = 'h1
# UVM_INFO ./../regmodel/uart_reg2ahb_adapter.sv(42) @ 46767000: reporter [uart_reg2ahb_adapter] bus2reg: address = 0x4 data = 0x42 kind = UVM_WRITE status = UVM_IS_OK
# UVM_INFO /ictc/other/tools/QuestaDVA/questasim/verilog_src/uvm-1.2/src/reg/uvm_reg_predictor.svh(221) @ 46767000: uvm_test_top.env.ahb_predictor [REG_PREDICT] Observed WRITE transaction to register regmodel.DLL: value='h42 : updated value = 'h42
# UVM_INFO ./../regmodel/uart_reg2ahb_adapter.sv(42) @ 46767000: reporter [uart_reg2ahb_adapter] bus2reg: address = 0x8 data = 0x6 kind = UVM_WRITE status = UVM_IS_OK
# UVM_INFO /ictc/other/tools/QuestaDVA/questasim/verilog_src/uvm-1.2/src/reg/uvm_reg_predictor.svh(221) @ 46767000: uvm_test_top.env.ahb_predictor [REG_PREDICT] Observed WRITE transaction to register regmodel.DLH: value='h6 : updated value = 'h6
# UVM_INFO ./../regmodel/uart_reg2ahb_adapter.sv(42) @ 46767000: reporter [uart_reg2ahb_adapter] bus2reg: address = 0xc data = 0x28 kind = UVM_WRITE status = UVM_IS_OK
# UVM_INFO /ictc/other/tools/QuestaDVA/questasim/verilog_src/uvm-1.2/src/reg/uvm_reg_predictor.svh(221) @ 46767000: uvm_test_top.env.ahb_predictor [REG_PREDICT] Observed WRITE transaction to register regmodel.LCR: value='h28 : updated value = 'h28
# UVM_INFO ./../regmodel/uart_reg2ahb_adapter.sv(42) @ 46767000: reporter [uart_reg2ahb_adapter] bus2reg: address = 0x10 data = 0x10 kind = UVM_WRITE status = UVM_IS_OK
# UVM_INFO /ictc/other/tools/QuestaDVA/questasim/verilog_src/uvm-1.2/src/reg/uvm_reg_predictor.svh(221) @ 46767000: uvm_test_top.env.ahb_predictor [REG_PREDICT] Observed WRITE transaction to register regmodel.IER: value='h10 : updated value = 'h10
# UVM_INFO ./../regmodel/uart_reg2ahb_adapter.sv(27) @ 50103000: reporter [uart_reg2ahb_adapter] reg2bus: address = 0x14 data = 0x0 kind = READ
# UVM_INFO ./../regmodel/uart_reg2ahb_adapter.sv(42) @ 50103000: reporter [uart_reg2ahb_adapter] bus2reg: address = 0x14 data = 0x12 kind = UVM_READ status = UVM_IS_OK
# UVM_INFO /ictc/other/tools/QuestaDVA/questasim/verilog_src/uvm-1.2/src/reg/uvm_reg_predictor.svh(225) @ 50103000: uvm_test_top.env.ahb_predictor [REG_PREDICT] Observed READ transaction to register regmodel.FSR: value='h12
# UVM_INFO ./../regmodel/uart_reg2ahb_adapter.sv(42) @ 50113000: reporter [uart_reg2ahb_adapter] bus2reg: address = 0x14 data = 0x12 kind = UVM_READ status = UVM_IS_OK
# UVM_INFO @ 50113000: reporter [RegModel] Read  register via map regmodel.ahb_map: regmodel.FSR=12
# UVM_INFO ./../regmodel/uart_reg2ahb_adapter.sv(27) @ 50113000: reporter [uart_reg2ahb_adapter] reg2bus: address = 0x14 data = 0x0 kind = READ
# UVM_INFO ./../regmodel/uart_reg2ahb_adapter.sv(42) @ 50113000: reporter [uart_reg2ahb_adapter] bus2reg: address = 0x14 data = 0x12 kind = UVM_READ status = UVM_IS_OK
# UVM_INFO /ictc/other/tools/QuestaDVA/questasim/verilog_src/uvm-1.2/src/reg/uvm_reg_predictor.svh(225) @ 50113000: uvm_test_top.env.ahb_predictor [REG_PREDICT] Observed READ transaction to register regmodel.FSR: value='h12
# UVM_INFO ./../regmodel/uart_reg2ahb_adapter.sv(42) @ 50123000: reporter [uart_reg2ahb_adapter] bus2reg: address = 0x14 data = 0x12 kind = UVM_READ status = UVM_IS_OK
# UVM_INFO @ 50123000: reporter [RegModel] Read  register via map regmodel.ahb_map: regmodel.FSR=12
# UVM_INFO ./../sequences/ahb_rxd_clear_parity_status_sequence.sv(47) @ 50123000: uvm_test_top.env.ahb_agt.sequencer@@ahb_clear [ahb_rxd_clear_parity_status_sequence] 
# ===== Parity Status Error Triggered =====
# UVM_INFO ./../regmodel/uart_reg2ahb_adapter.sv(42) @ 50123000: reporter [uart_reg2ahb_adapter] bus2reg: address = 0x14 data = 0x10 kind = UVM_WRITE status = UVM_IS_OK
# UVM_INFO /ictc/other/tools/QuestaDVA/questasim/verilog_src/uvm-1.2/src/reg/uvm_reg_predictor.svh(221) @ 50123000: uvm_test_top.env.ahb_predictor [REG_PREDICT] Observed WRITE transaction to register regmodel.FSR: value='h10 : updated value = 'h2
# UVM_INFO ./../regmodel/uart_reg2ahb_adapter.sv(27) @ 50123000: reporter [uart_reg2ahb_adapter] reg2bus: address = 0x14 data = 0x0 kind = READ
# UVM_INFO ./../regmodel/uart_reg2ahb_adapter.sv(42) @ 50123000: reporter [uart_reg2ahb_adapter] bus2reg: address = 0x14 data = 0x2 kind = UVM_READ status = UVM_IS_OK
# UVM_INFO /ictc/other/tools/QuestaDVA/questasim/verilog_src/uvm-1.2/src/reg/uvm_reg_predictor.svh(225) @ 50123000: uvm_test_top.env.ahb_predictor [REG_PREDICT] Observed READ transaction to register regmodel.FSR: value='h2
# UVM_INFO ./../regmodel/uart_reg2ahb_adapter.sv(42) @ 50133000: reporter [uart_reg2ahb_adapter] bus2reg: address = 0x14 data = 0x2 kind = UVM_READ status = UVM_IS_OK
# UVM_INFO @ 50133000: reporter [RegModel] Read  register via map regmodel.ahb_map: regmodel.FSR=2
# UVM_INFO ./../sequences/ahb_rxd_clear_parity_status_sequence.sv(58) @ 50133000: uvm_test_top.env.ahb_agt.sequencer@@ahb_clear [ahb_rxd_clear_parity_status_sequence] 
# ===== Parity Status Error is cleared =====
# UVM_INFO ./../testcases/uart_rxd_parity_status_clear.sv(40) @ 60133000: uvm_test_top [uart_rxd_parity_status_clear] -------------------------------------------------------------
# Name                Type                Size  Value          
# -------------------------------------------------------------
# cfg                 uart_configuration  -     @360           
#   parity_mode       parity_mode_e       32    UART_PARITY_ODD
#   sampling          sampling_mode_e     32    MODE_X16       
#   data_width        integral            32    'h5            
#   num_of_stop_bit   integral            32    'h1            
#   baud_rate         integral            32    'h2580         
#   baud_rate_enable  integral            1     'h0            
#   parity_enable     integral            1     'h1            
#   interrupt_enable  integral            1     'h0            
# -------------------------------------------------------------
# 
# UVM_INFO ./../regmodel/uart_reg2ahb_adapter.sv(42) @ 60133000: reporter [uart_reg2ahb_adapter] bus2reg: address = 0x0 data = 0x0 kind = UVM_WRITE status = UVM_IS_OK
# UVM_INFO /ictc/other/tools/QuestaDVA/questasim/verilog_src/uvm-1.2/src/reg/uvm_reg_predictor.svh(221) @ 60133000: uvm_test_top.env.ahb_predictor [REG_PREDICT] Observed WRITE transaction to register regmodel.MDR: value='h0 : updated value = 'h0
# UVM_INFO ./../regmodel/uart_reg2ahb_adapter.sv(42) @ 60133000: reporter [uart_reg2ahb_adapter] bus2reg: address = 0x4 data = 0x8b kind = UVM_WRITE status = UVM_IS_OK
# UVM_INFO /ictc/other/tools/QuestaDVA/questasim/verilog_src/uvm-1.2/src/reg/uvm_reg_predictor.svh(221) @ 60133000: uvm_test_top.env.ahb_predictor [REG_PREDICT] Observed WRITE transaction to register regmodel.DLL: value='h8b : updated value = 'h8b
# UVM_INFO ./../regmodel/uart_reg2ahb_adapter.sv(42) @ 60133000: reporter [uart_reg2ahb_adapter] bus2reg: address = 0x8 data = 0x2 kind = UVM_WRITE status = UVM_IS_OK
# UVM_INFO /ictc/other/tools/QuestaDVA/questasim/verilog_src/uvm-1.2/src/reg/uvm_reg_predictor.svh(221) @ 60133000: uvm_test_top.env.ahb_predictor [REG_PREDICT] Observed WRITE transaction to register regmodel.DLH: value='h2 : updated value = 'h2
# UVM_INFO ./../regmodel/uart_reg2ahb_adapter.sv(42) @ 60133000: reporter [uart_reg2ahb_adapter] bus2reg: address = 0xc data = 0x28 kind = UVM_WRITE status = UVM_IS_OK
# UVM_INFO /ictc/other/tools/QuestaDVA/questasim/verilog_src/uvm-1.2/src/reg/uvm_reg_predictor.svh(221) @ 60133000: uvm_test_top.env.ahb_predictor [REG_PREDICT] Observed WRITE transaction to register regmodel.LCR: value='h28 : updated value = 'h28
# UVM_INFO ./../regmodel/uart_reg2ahb_adapter.sv(42) @ 60133000: reporter [uart_reg2ahb_adapter] bus2reg: address = 0x10 data = 0x10 kind = UVM_WRITE status = UVM_IS_OK
# UVM_INFO /ictc/other/tools/QuestaDVA/questasim/verilog_src/uvm-1.2/src/reg/uvm_reg_predictor.svh(221) @ 60133000: uvm_test_top.env.ahb_predictor [REG_PREDICT] Observed WRITE transaction to register regmodel.IER: value='h10 : updated value = 'h10
# UVM_INFO ./../regmodel/uart_reg2ahb_adapter.sv(27) @ 61798000: reporter [uart_reg2ahb_adapter] reg2bus: address = 0x14 data = 0x0 kind = READ
# UVM_INFO ./../regmodel/uart_reg2ahb_adapter.sv(42) @ 61798000: reporter [uart_reg2ahb_adapter] bus2reg: address = 0x14 data = 0x12 kind = UVM_READ status = UVM_IS_OK
# UVM_INFO /ictc/other/tools/QuestaDVA/questasim/verilog_src/uvm-1.2/src/reg/uvm_reg_predictor.svh(225) @ 61798000: uvm_test_top.env.ahb_predictor [REG_PREDICT] Observed READ transaction to register regmodel.FSR: value='h12
# UVM_INFO ./../regmodel/uart_reg2ahb_adapter.sv(42) @ 61808000: reporter [uart_reg2ahb_adapter] bus2reg: address = 0x14 data = 0x12 kind = UVM_READ status = UVM_IS_OK
# UVM_INFO @ 61808000: reporter [RegModel] Read  register via map regmodel.ahb_map: regmodel.FSR=12
# UVM_INFO ./../regmodel/uart_reg2ahb_adapter.sv(27) @ 61808000: reporter [uart_reg2ahb_adapter] reg2bus: address = 0x14 data = 0x0 kind = READ
# UVM_INFO ./../regmodel/uart_reg2ahb_adapter.sv(42) @ 61808000: reporter [uart_reg2ahb_adapter] bus2reg: address = 0x14 data = 0x12 kind = UVM_READ status = UVM_IS_OK
# UVM_INFO /ictc/other/tools/QuestaDVA/questasim/verilog_src/uvm-1.2/src/reg/uvm_reg_predictor.svh(225) @ 61808000: uvm_test_top.env.ahb_predictor [REG_PREDICT] Observed READ transaction to register regmodel.FSR: value='h12
# UVM_INFO ./../regmodel/uart_reg2ahb_adapter.sv(42) @ 61818000: reporter [uart_reg2ahb_adapter] bus2reg: address = 0x14 data = 0x12 kind = UVM_READ status = UVM_IS_OK
# UVM_INFO @ 61818000: reporter [RegModel] Read  register via map regmodel.ahb_map: regmodel.FSR=12
# UVM_INFO ./../sequences/ahb_rxd_clear_parity_status_sequence.sv(47) @ 61818000: uvm_test_top.env.ahb_agt.sequencer@@ahb_clear [ahb_rxd_clear_parity_status_sequence] 
# ===== Parity Status Error Triggered =====
# UVM_INFO ./../regmodel/uart_reg2ahb_adapter.sv(42) @ 61818000: reporter [uart_reg2ahb_adapter] bus2reg: address = 0x14 data = 0x10 kind = UVM_WRITE status = UVM_IS_OK
# UVM_INFO /ictc/other/tools/QuestaDVA/questasim/verilog_src/uvm-1.2/src/reg/uvm_reg_predictor.svh(221) @ 61818000: uvm_test_top.env.ahb_predictor [REG_PREDICT] Observed WRITE transaction to register regmodel.FSR: value='h10 : updated value = 'h2
# UVM_INFO ./../regmodel/uart_reg2ahb_adapter.sv(27) @ 61818000: reporter [uart_reg2ahb_adapter] reg2bus: address = 0x14 data = 0x0 kind = READ
# UVM_INFO ./../regmodel/uart_reg2ahb_adapter.sv(42) @ 61818000: reporter [uart_reg2ahb_adapter] bus2reg: address = 0x14 data = 0x2 kind = UVM_READ status = UVM_IS_OK
# UVM_INFO /ictc/other/tools/QuestaDVA/questasim/verilog_src/uvm-1.2/src/reg/uvm_reg_predictor.svh(225) @ 61818000: uvm_test_top.env.ahb_predictor [REG_PREDICT] Observed READ transaction to register regmodel.FSR: value='h2
# UVM_INFO ./../regmodel/uart_reg2ahb_adapter.sv(42) @ 61828000: reporter [uart_reg2ahb_adapter] bus2reg: address = 0x14 data = 0x2 kind = UVM_READ status = UVM_IS_OK
# UVM_INFO @ 61828000: reporter [RegModel] Read  register via map regmodel.ahb_map: regmodel.FSR=2
# UVM_INFO ./../sequences/ahb_rxd_clear_parity_status_sequence.sv(58) @ 61828000: uvm_test_top.env.ahb_agt.sequencer@@ahb_clear [ahb_rxd_clear_parity_status_sequence] 
# ===== Parity Status Error is cleared =====
# UVM_INFO ./../testcases/uart_rxd_parity_status_clear.sv(40) @ 71828000: uvm_test_top [uart_rxd_parity_status_clear] -------------------------------------------------------------
# Name                Type                Size  Value          
# -------------------------------------------------------------
# cfg                 uart_configuration  -     @360           
#   parity_mode       parity_mode_e       32    UART_PARITY_ODD
#   sampling          sampling_mode_e     32    MODE_X13       
#   data_width        integral            32    'h5            
#   num_of_stop_bit   integral            32    'h1            
#   baud_rate         integral            32    'h2580         
#   baud_rate_enable  integral            1     'h0            
#   parity_enable     integral            1     'h1            
#   interrupt_enable  integral            1     'h0            
# -------------------------------------------------------------
# 
# UVM_INFO ./../regmodel/uart_reg2ahb_adapter.sv(42) @ 71828000: reporter [uart_reg2ahb_adapter] bus2reg: address = 0x0 data = 0x1 kind = UVM_WRITE status = UVM_IS_OK
# UVM_INFO /ictc/other/tools/QuestaDVA/questasim/verilog_src/uvm-1.2/src/reg/uvm_reg_predictor.svh(221) @ 71828000: uvm_test_top.env.ahb_predictor [REG_PREDICT] Observed WRITE transaction to register regmodel.MDR: value='h1 : updated value = 'h1
# UVM_INFO ./../regmodel/uart_reg2ahb_adapter.sv(42) @ 71828000: reporter [uart_reg2ahb_adapter] bus2reg: address = 0x4 data = 0x21 kind = UVM_WRITE status = UVM_IS_OK
# UVM_INFO /ictc/other/tools/QuestaDVA/questasim/verilog_src/uvm-1.2/src/reg/uvm_reg_predictor.svh(221) @ 71828000: uvm_test_top.env.ahb_predictor [REG_PREDICT] Observed WRITE transaction to register regmodel.DLL: value='h21 : updated value = 'h21
# UVM_INFO ./../regmodel/uart_reg2ahb_adapter.sv(42) @ 71828000: reporter [uart_reg2ahb_adapter] bus2reg: address = 0x8 data = 0x3 kind = UVM_WRITE status = UVM_IS_OK
# UVM_INFO /ictc/other/tools/QuestaDVA/questasim/verilog_src/uvm-1.2/src/reg/uvm_reg_predictor.svh(221) @ 71828000: uvm_test_top.env.ahb_predictor [REG_PREDICT] Observed WRITE transaction to register regmodel.DLH: value='h3 : updated value = 'h3
# UVM_INFO ./../regmodel/uart_reg2ahb_adapter.sv(42) @ 71828000: reporter [uart_reg2ahb_adapter] bus2reg: address = 0xc data = 0x28 kind = UVM_WRITE status = UVM_IS_OK
# UVM_INFO /ictc/other/tools/QuestaDVA/questasim/verilog_src/uvm-1.2/src/reg/uvm_reg_predictor.svh(221) @ 71828000: uvm_test_top.env.ahb_predictor [REG_PREDICT] Observed WRITE transaction to register regmodel.LCR: value='h28 : updated value = 'h28
# UVM_INFO ./../regmodel/uart_reg2ahb_adapter.sv(42) @ 71828000: reporter [uart_reg2ahb_adapter] bus2reg: address = 0x10 data = 0x10 kind = UVM_WRITE status = UVM_IS_OK
# UVM_INFO /ictc/other/tools/QuestaDVA/questasim/verilog_src/uvm-1.2/src/reg/uvm_reg_predictor.svh(221) @ 71828000: uvm_test_top.env.ahb_predictor [REG_PREDICT] Observed WRITE transaction to register regmodel.IER: value='h10 : updated value = 'h10
# UVM_INFO ./../regmodel/uart_reg2ahb_adapter.sv(27) @ 73492000: reporter [uart_reg2ahb_adapter] reg2bus: address = 0x14 data = 0x0 kind = READ
# UVM_INFO ./../regmodel/uart_reg2ahb_adapter.sv(42) @ 73492000: reporter [uart_reg2ahb_adapter] bus2reg: address = 0x14 data = 0x12 kind = UVM_READ status = UVM_IS_OK
# UVM_INFO /ictc/other/tools/QuestaDVA/questasim/verilog_src/uvm-1.2/src/reg/uvm_reg_predictor.svh(225) @ 73492000: uvm_test_top.env.ahb_predictor [REG_PREDICT] Observed READ transaction to register regmodel.FSR: value='h12
# UVM_INFO ./../regmodel/uart_reg2ahb_adapter.sv(42) @ 73502000: reporter [uart_reg2ahb_adapter] bus2reg: address = 0x14 data = 0x12 kind = UVM_READ status = UVM_IS_OK
# UVM_INFO @ 73502000: reporter [RegModel] Read  register via map regmodel.ahb_map: regmodel.FSR=12
# UVM_INFO ./../regmodel/uart_reg2ahb_adapter.sv(27) @ 73502000: reporter [uart_reg2ahb_adapter] reg2bus: address = 0x14 data = 0x0 kind = READ
# UVM_INFO ./../regmodel/uart_reg2ahb_adapter.sv(42) @ 73502000: reporter [uart_reg2ahb_adapter] bus2reg: address = 0x14 data = 0x12 kind = UVM_READ status = UVM_IS_OK
# UVM_INFO /ictc/other/tools/QuestaDVA/questasim/verilog_src/uvm-1.2/src/reg/uvm_reg_predictor.svh(225) @ 73502000: uvm_test_top.env.ahb_predictor [REG_PREDICT] Observed READ transaction to register regmodel.FSR: value='h12
# UVM_INFO ./../regmodel/uart_reg2ahb_adapter.sv(42) @ 73512000: reporter [uart_reg2ahb_adapter] bus2reg: address = 0x14 data = 0x12 kind = UVM_READ status = UVM_IS_OK
# UVM_INFO @ 73512000: reporter [RegModel] Read  register via map regmodel.ahb_map: regmodel.FSR=12
# UVM_INFO ./../sequences/ahb_rxd_clear_parity_status_sequence.sv(47) @ 73512000: uvm_test_top.env.ahb_agt.sequencer@@ahb_clear [ahb_rxd_clear_parity_status_sequence] 
# ===== Parity Status Error Triggered =====
# UVM_INFO ./../regmodel/uart_reg2ahb_adapter.sv(42) @ 73512000: reporter [uart_reg2ahb_adapter] bus2reg: address = 0x14 data = 0x10 kind = UVM_WRITE status = UVM_IS_OK
# UVM_INFO /ictc/other/tools/QuestaDVA/questasim/verilog_src/uvm-1.2/src/reg/uvm_reg_predictor.svh(221) @ 73512000: uvm_test_top.env.ahb_predictor [REG_PREDICT] Observed WRITE transaction to register regmodel.FSR: value='h10 : updated value = 'h2
# UVM_INFO ./../regmodel/uart_reg2ahb_adapter.sv(27) @ 73512000: reporter [uart_reg2ahb_adapter] reg2bus: address = 0x14 data = 0x0 kind = READ
# UVM_INFO ./../regmodel/uart_reg2ahb_adapter.sv(42) @ 73513000: reporter [uart_reg2ahb_adapter] bus2reg: address = 0x14 data = 0x2 kind = UVM_READ status = UVM_IS_OK
# UVM_INFO /ictc/other/tools/QuestaDVA/questasim/verilog_src/uvm-1.2/src/reg/uvm_reg_predictor.svh(225) @ 73513000: uvm_test_top.env.ahb_predictor [REG_PREDICT] Observed READ transaction to register regmodel.FSR: value='h2
# UVM_INFO ./../regmodel/uart_reg2ahb_adapter.sv(42) @ 73523000: reporter [uart_reg2ahb_adapter] bus2reg: address = 0x14 data = 0x2 kind = UVM_READ status = UVM_IS_OK
# UVM_INFO @ 73523000: reporter [RegModel] Read  register via map regmodel.ahb_map: regmodel.FSR=2
# UVM_INFO ./../sequences/ahb_rxd_clear_parity_status_sequence.sv(58) @ 73523000: uvm_test_top.env.ahb_agt.sequencer@@ahb_clear [ahb_rxd_clear_parity_status_sequence] 
# ===== Parity Status Error is cleared =====
# UVM_INFO ./../testcases/uart_rxd_parity_status_clear.sv(40) @ 83523000: uvm_test_top [uart_rxd_parity_status_clear] -------------------------------------------------------------
# Name                Type                Size  Value          
# -------------------------------------------------------------
# cfg                 uart_configuration  -     @360           
#   parity_mode       parity_mode_e       32    UART_PARITY_ODD
#   sampling          sampling_mode_e     32    MODE_X16       
#   data_width        integral            32    'h5            
#   num_of_stop_bit   integral            32    'h1            
#   baud_rate         integral            32    'h4b00         
#   baud_rate_enable  integral            1     'h0            
#   parity_enable     integral            1     'h1            
#   interrupt_enable  integral            1     'h0            
# -------------------------------------------------------------
# 
# UVM_INFO ./../regmodel/uart_reg2ahb_adapter.sv(42) @ 83523000: reporter [uart_reg2ahb_adapter] bus2reg: address = 0x0 data = 0x0 kind = UVM_WRITE status = UVM_IS_OK
# UVM_INFO /ictc/other/tools/QuestaDVA/questasim/verilog_src/uvm-1.2/src/reg/uvm_reg_predictor.svh(221) @ 83523000: uvm_test_top.env.ahb_predictor [REG_PREDICT] Observed WRITE transaction to register regmodel.MDR: value='h0 : updated value = 'h0
# UVM_INFO ./../regmodel/uart_reg2ahb_adapter.sv(42) @ 83523000: reporter [uart_reg2ahb_adapter] bus2reg: address = 0x4 data = 0x45 kind = UVM_WRITE status = UVM_IS_OK
# UVM_INFO /ictc/other/tools/QuestaDVA/questasim/verilog_src/uvm-1.2/src/reg/uvm_reg_predictor.svh(221) @ 83523000: uvm_test_top.env.ahb_predictor [REG_PREDICT] Observed WRITE transaction to register regmodel.DLL: value='h45 : updated value = 'h45
# UVM_INFO ./../regmodel/uart_reg2ahb_adapter.sv(42) @ 83523000: reporter [uart_reg2ahb_adapter] bus2reg: address = 0x8 data = 0x1 kind = UVM_WRITE status = UVM_IS_OK
# UVM_INFO /ictc/other/tools/QuestaDVA/questasim/verilog_src/uvm-1.2/src/reg/uvm_reg_predictor.svh(221) @ 83523000: uvm_test_top.env.ahb_predictor [REG_PREDICT] Observed WRITE transaction to register regmodel.DLH: value='h1 : updated value = 'h1
# UVM_INFO ./../regmodel/uart_reg2ahb_adapter.sv(42) @ 83523000: reporter [uart_reg2ahb_adapter] bus2reg: address = 0xc data = 0x28 kind = UVM_WRITE status = UVM_IS_OK
# UVM_INFO /ictc/other/tools/QuestaDVA/questasim/verilog_src/uvm-1.2/src/reg/uvm_reg_predictor.svh(221) @ 83523000: uvm_test_top.env.ahb_predictor [REG_PREDICT] Observed WRITE transaction to register regmodel.LCR: value='h28 : updated value = 'h28
# UVM_INFO ./../regmodel/uart_reg2ahb_adapter.sv(42) @ 83523000: reporter [uart_reg2ahb_adapter] bus2reg: address = 0x10 data = 0x10 kind = UVM_WRITE status = UVM_IS_OK
# UVM_INFO /ictc/other/tools/QuestaDVA/questasim/verilog_src/uvm-1.2/src/reg/uvm_reg_predictor.svh(221) @ 83523000: uvm_test_top.env.ahb_predictor [REG_PREDICT] Observed WRITE transaction to register regmodel.IER: value='h10 : updated value = 'h10
# UVM_INFO ./../regmodel/uart_reg2ahb_adapter.sv(27) @ 84355000: reporter [uart_reg2ahb_adapter] reg2bus: address = 0x14 data = 0x0 kind = READ
# UVM_INFO ./../regmodel/uart_reg2ahb_adapter.sv(42) @ 84355000: reporter [uart_reg2ahb_adapter] bus2reg: address = 0x14 data = 0x12 kind = UVM_READ status = UVM_IS_OK
# UVM_INFO /ictc/other/tools/QuestaDVA/questasim/verilog_src/uvm-1.2/src/reg/uvm_reg_predictor.svh(225) @ 84355000: uvm_test_top.env.ahb_predictor [REG_PREDICT] Observed READ transaction to register regmodel.FSR: value='h12
# UVM_INFO ./../regmodel/uart_reg2ahb_adapter.sv(42) @ 84365000: reporter [uart_reg2ahb_adapter] bus2reg: address = 0x14 data = 0x12 kind = UVM_READ status = UVM_IS_OK
# UVM_INFO @ 84365000: reporter [RegModel] Read  register via map regmodel.ahb_map: regmodel.FSR=12
# UVM_INFO ./../regmodel/uart_reg2ahb_adapter.sv(27) @ 84365000: reporter [uart_reg2ahb_adapter] reg2bus: address = 0x14 data = 0x0 kind = READ
# UVM_INFO ./../regmodel/uart_reg2ahb_adapter.sv(42) @ 84365000: reporter [uart_reg2ahb_adapter] bus2reg: address = 0x14 data = 0x12 kind = UVM_READ status = UVM_IS_OK
# UVM_INFO /ictc/other/tools/QuestaDVA/questasim/verilog_src/uvm-1.2/src/reg/uvm_reg_predictor.svh(225) @ 84365000: uvm_test_top.env.ahb_predictor [REG_PREDICT] Observed READ transaction to register regmodel.FSR: value='h12
# UVM_INFO ./../regmodel/uart_reg2ahb_adapter.sv(42) @ 84375000: reporter [uart_reg2ahb_adapter] bus2reg: address = 0x14 data = 0x12 kind = UVM_READ status = UVM_IS_OK
# UVM_INFO @ 84375000: reporter [RegModel] Read  register via map regmodel.ahb_map: regmodel.FSR=12
# UVM_INFO ./../sequences/ahb_rxd_clear_parity_status_sequence.sv(47) @ 84375000: uvm_test_top.env.ahb_agt.sequencer@@ahb_clear [ahb_rxd_clear_parity_status_sequence] 
# ===== Parity Status Error Triggered =====
# UVM_INFO ./../regmodel/uart_reg2ahb_adapter.sv(42) @ 84375000: reporter [uart_reg2ahb_adapter] bus2reg: address = 0x14 data = 0x10 kind = UVM_WRITE status = UVM_IS_OK
# UVM_INFO /ictc/other/tools/QuestaDVA/questasim/verilog_src/uvm-1.2/src/reg/uvm_reg_predictor.svh(221) @ 84375000: uvm_test_top.env.ahb_predictor [REG_PREDICT] Observed WRITE transaction to register regmodel.FSR: value='h10 : updated value = 'h2
# UVM_INFO ./../regmodel/uart_reg2ahb_adapter.sv(27) @ 84375000: reporter [uart_reg2ahb_adapter] reg2bus: address = 0x14 data = 0x0 kind = READ
# UVM_INFO ./../regmodel/uart_reg2ahb_adapter.sv(42) @ 84375000: reporter [uart_reg2ahb_adapter] bus2reg: address = 0x14 data = 0x2 kind = UVM_READ status = UVM_IS_OK
# UVM_INFO /ictc/other/tools/QuestaDVA/questasim/verilog_src/uvm-1.2/src/reg/uvm_reg_predictor.svh(225) @ 84375000: uvm_test_top.env.ahb_predictor [REG_PREDICT] Observed READ transaction to register regmodel.FSR: value='h2
# UVM_INFO ./../regmodel/uart_reg2ahb_adapter.sv(42) @ 84385000: reporter [uart_reg2ahb_adapter] bus2reg: address = 0x14 data = 0x2 kind = UVM_READ status = UVM_IS_OK
# UVM_INFO @ 84385000: reporter [RegModel] Read  register via map regmodel.ahb_map: regmodel.FSR=2
# UVM_INFO ./../sequences/ahb_rxd_clear_parity_status_sequence.sv(58) @ 84385000: uvm_test_top.env.ahb_agt.sequencer@@ahb_clear [ahb_rxd_clear_parity_status_sequence] 
# ===== Parity Status Error is cleared =====
# UVM_INFO ./../testcases/uart_rxd_parity_status_clear.sv(40) @ 94385000: uvm_test_top [uart_rxd_parity_status_clear] -------------------------------------------------------------
# Name                Type                Size  Value          
# -------------------------------------------------------------
# cfg                 uart_configuration  -     @360           
#   parity_mode       parity_mode_e       32    UART_PARITY_ODD
#   sampling          sampling_mode_e     32    MODE_X13       
#   data_width        integral            32    'h5            
#   num_of_stop_bit   integral            32    'h1            
#   baud_rate         integral            32    'h4b00         
#   baud_rate_enable  integral            1     'h0            
#   parity_enable     integral            1     'h1            
#   interrupt_enable  integral            1     'h0            
# -------------------------------------------------------------
# 
# UVM_INFO ./../regmodel/uart_reg2ahb_adapter.sv(42) @ 94385000: reporter [uart_reg2ahb_adapter] bus2reg: address = 0x0 data = 0x1 kind = UVM_WRITE status = UVM_IS_OK
# UVM_INFO /ictc/other/tools/QuestaDVA/questasim/verilog_src/uvm-1.2/src/reg/uvm_reg_predictor.svh(221) @ 94385000: uvm_test_top.env.ahb_predictor [REG_PREDICT] Observed WRITE transaction to register regmodel.MDR: value='h1 : updated value = 'h1
# UVM_INFO ./../regmodel/uart_reg2ahb_adapter.sv(42) @ 94385000: reporter [uart_reg2ahb_adapter] bus2reg: address = 0x4 data = 0x91 kind = UVM_WRITE status = UVM_IS_OK
# UVM_INFO /ictc/other/tools/QuestaDVA/questasim/verilog_src/uvm-1.2/src/reg/uvm_reg_predictor.svh(221) @ 94385000: uvm_test_top.env.ahb_predictor [REG_PREDICT] Observed WRITE transaction to register regmodel.DLL: value='h91 : updated value = 'h91
# UVM_INFO ./../regmodel/uart_reg2ahb_adapter.sv(42) @ 94385000: reporter [uart_reg2ahb_adapter] bus2reg: address = 0x8 data = 0x1 kind = UVM_WRITE status = UVM_IS_OK
# UVM_INFO /ictc/other/tools/QuestaDVA/questasim/verilog_src/uvm-1.2/src/reg/uvm_reg_predictor.svh(221) @ 94385000: uvm_test_top.env.ahb_predictor [REG_PREDICT] Observed WRITE transaction to register regmodel.DLH: value='h1 : updated value = 'h1
# UVM_INFO ./../regmodel/uart_reg2ahb_adapter.sv(42) @ 94386000: reporter [uart_reg2ahb_adapter] bus2reg: address = 0xc data = 0x28 kind = UVM_WRITE status = UVM_IS_OK
# UVM_INFO /ictc/other/tools/QuestaDVA/questasim/verilog_src/uvm-1.2/src/reg/uvm_reg_predictor.svh(221) @ 94386000: uvm_test_top.env.ahb_predictor [REG_PREDICT] Observed WRITE transaction to register regmodel.LCR: value='h28 : updated value = 'h28
# UVM_INFO ./../regmodel/uart_reg2ahb_adapter.sv(42) @ 94386000: reporter [uart_reg2ahb_adapter] bus2reg: address = 0x10 data = 0x10 kind = UVM_WRITE status = UVM_IS_OK
# UVM_INFO /ictc/other/tools/QuestaDVA/questasim/verilog_src/uvm-1.2/src/reg/uvm_reg_predictor.svh(221) @ 94386000: uvm_test_top.env.ahb_predictor [REG_PREDICT] Observed WRITE transaction to register regmodel.IER: value='h10 : updated value = 'h10
# UVM_INFO ./../regmodel/uart_reg2ahb_adapter.sv(27) @ 95218000: reporter [uart_reg2ahb_adapter] reg2bus: address = 0x14 data = 0x0 kind = READ
# UVM_INFO ./../regmodel/uart_reg2ahb_adapter.sv(42) @ 95218000: reporter [uart_reg2ahb_adapter] bus2reg: address = 0x14 data = 0x12 kind = UVM_READ status = UVM_IS_OK
# UVM_INFO /ictc/other/tools/QuestaDVA/questasim/verilog_src/uvm-1.2/src/reg/uvm_reg_predictor.svh(225) @ 95218000: uvm_test_top.env.ahb_predictor [REG_PREDICT] Observed READ transaction to register regmodel.FSR: value='h12
# UVM_INFO ./../regmodel/uart_reg2ahb_adapter.sv(42) @ 95228000: reporter [uart_reg2ahb_adapter] bus2reg: address = 0x14 data = 0x12 kind = UVM_READ status = UVM_IS_OK
# UVM_INFO @ 95228000: reporter [RegModel] Read  register via map regmodel.ahb_map: regmodel.FSR=12
# UVM_INFO ./../regmodel/uart_reg2ahb_adapter.sv(27) @ 95228000: reporter [uart_reg2ahb_adapter] reg2bus: address = 0x14 data = 0x0 kind = READ
# UVM_INFO ./../regmodel/uart_reg2ahb_adapter.sv(42) @ 95228000: reporter [uart_reg2ahb_adapter] bus2reg: address = 0x14 data = 0x12 kind = UVM_READ status = UVM_IS_OK
# UVM_INFO /ictc/other/tools/QuestaDVA/questasim/verilog_src/uvm-1.2/src/reg/uvm_reg_predictor.svh(225) @ 95228000: uvm_test_top.env.ahb_predictor [REG_PREDICT] Observed READ transaction to register regmodel.FSR: value='h12
# UVM_INFO ./../regmodel/uart_reg2ahb_adapter.sv(42) @ 95238000: reporter [uart_reg2ahb_adapter] bus2reg: address = 0x14 data = 0x12 kind = UVM_READ status = UVM_IS_OK
# UVM_INFO @ 95238000: reporter [RegModel] Read  register via map regmodel.ahb_map: regmodel.FSR=12
# UVM_INFO ./../sequences/ahb_rxd_clear_parity_status_sequence.sv(47) @ 95238000: uvm_test_top.env.ahb_agt.sequencer@@ahb_clear [ahb_rxd_clear_parity_status_sequence] 
# ===== Parity Status Error Triggered =====
# UVM_INFO ./../regmodel/uart_reg2ahb_adapter.sv(42) @ 95238000: reporter [uart_reg2ahb_adapter] bus2reg: address = 0x14 data = 0x10 kind = UVM_WRITE status = UVM_IS_OK
# UVM_INFO /ictc/other/tools/QuestaDVA/questasim/verilog_src/uvm-1.2/src/reg/uvm_reg_predictor.svh(221) @ 95238000: uvm_test_top.env.ahb_predictor [REG_PREDICT] Observed WRITE transaction to register regmodel.FSR: value='h10 : updated value = 'h2
# UVM_INFO ./../regmodel/uart_reg2ahb_adapter.sv(27) @ 95238000: reporter [uart_reg2ahb_adapter] reg2bus: address = 0x14 data = 0x0 kind = READ
# UVM_INFO ./../regmodel/uart_reg2ahb_adapter.sv(42) @ 95238000: reporter [uart_reg2ahb_adapter] bus2reg: address = 0x14 data = 0x2 kind = UVM_READ status = UVM_IS_OK
# UVM_INFO /ictc/other/tools/QuestaDVA/questasim/verilog_src/uvm-1.2/src/reg/uvm_reg_predictor.svh(225) @ 95238000: uvm_test_top.env.ahb_predictor [REG_PREDICT] Observed READ transaction to register regmodel.FSR: value='h2
# UVM_INFO ./../regmodel/uart_reg2ahb_adapter.sv(42) @ 95248000: reporter [uart_reg2ahb_adapter] bus2reg: address = 0x14 data = 0x2 kind = UVM_READ status = UVM_IS_OK
# UVM_INFO @ 95248000: reporter [RegModel] Read  register via map regmodel.ahb_map: regmodel.FSR=2
# UVM_INFO ./../sequences/ahb_rxd_clear_parity_status_sequence.sv(58) @ 95248000: uvm_test_top.env.ahb_agt.sequencer@@ahb_clear [ahb_rxd_clear_parity_status_sequence] 
# ===== Parity Status Error is cleared =====
# UVM_INFO ./../testcases/uart_rxd_parity_status_clear.sv(40) @ 105248000: uvm_test_top [uart_rxd_parity_status_clear] -------------------------------------------------------------
# Name                Type                Size  Value          
# -------------------------------------------------------------
# cfg                 uart_configuration  -     @360           
#   parity_mode       parity_mode_e       32    UART_PARITY_ODD
#   sampling          sampling_mode_e     32    MODE_X16       
#   data_width        integral            32    'h5            
#   num_of_stop_bit   integral            32    'h1            
#   baud_rate         integral            32    'h9600         
#   baud_rate_enable  integral            1     'h0            
#   parity_enable     integral            1     'h1            
#   interrupt_enable  integral            1     'h0            
# -------------------------------------------------------------
# 
# UVM_INFO ./../regmodel/uart_reg2ahb_adapter.sv(42) @ 105248000: reporter [uart_reg2ahb_adapter] bus2reg: address = 0x0 data = 0x0 kind = UVM_WRITE status = UVM_IS_OK
# UVM_INFO /ictc/other/tools/QuestaDVA/questasim/verilog_src/uvm-1.2/src/reg/uvm_reg_predictor.svh(221) @ 105248000: uvm_test_top.env.ahb_predictor [REG_PREDICT] Observed WRITE transaction to register regmodel.MDR: value='h0 : updated value = 'h0
# UVM_INFO ./../regmodel/uart_reg2ahb_adapter.sv(42) @ 105248000: reporter [uart_reg2ahb_adapter] bus2reg: address = 0x4 data = 0xa4 kind = UVM_WRITE status = UVM_IS_OK
# UVM_INFO /ictc/other/tools/QuestaDVA/questasim/verilog_src/uvm-1.2/src/reg/uvm_reg_predictor.svh(221) @ 105248000: uvm_test_top.env.ahb_predictor [REG_PREDICT] Observed WRITE transaction to register regmodel.DLL: value='ha4 : updated value = 'ha4
# UVM_INFO ./../regmodel/uart_reg2ahb_adapter.sv(42) @ 105248000: reporter [uart_reg2ahb_adapter] bus2reg: address = 0x8 data = 0x0 kind = UVM_WRITE status = UVM_IS_OK
# UVM_INFO /ictc/other/tools/QuestaDVA/questasim/verilog_src/uvm-1.2/src/reg/uvm_reg_predictor.svh(221) @ 105248000: uvm_test_top.env.ahb_predictor [REG_PREDICT] Observed WRITE transaction to register regmodel.DLH: value='h0 : updated value = 'h0
# UVM_INFO ./../regmodel/uart_reg2ahb_adapter.sv(42) @ 105248000: reporter [uart_reg2ahb_adapter] bus2reg: address = 0xc data = 0x28 kind = UVM_WRITE status = UVM_IS_OK
# UVM_INFO /ictc/other/tools/QuestaDVA/questasim/verilog_src/uvm-1.2/src/reg/uvm_reg_predictor.svh(221) @ 105248000: uvm_test_top.env.ahb_predictor [REG_PREDICT] Observed WRITE transaction to register regmodel.LCR: value='h28 : updated value = 'h28
# UVM_INFO ./../regmodel/uart_reg2ahb_adapter.sv(42) @ 105248000: reporter [uart_reg2ahb_adapter] bus2reg: address = 0x10 data = 0x10 kind = UVM_WRITE status = UVM_IS_OK
# UVM_INFO /ictc/other/tools/QuestaDVA/questasim/verilog_src/uvm-1.2/src/reg/uvm_reg_predictor.svh(221) @ 105248000: uvm_test_top.env.ahb_predictor [REG_PREDICT] Observed WRITE transaction to register regmodel.IER: value='h10 : updated value = 'h10
# UVM_INFO ./../regmodel/uart_reg2ahb_adapter.sv(27) @ 105664000: reporter [uart_reg2ahb_adapter] reg2bus: address = 0x14 data = 0x0 kind = READ
# UVM_INFO ./../regmodel/uart_reg2ahb_adapter.sv(42) @ 105664000: reporter [uart_reg2ahb_adapter] bus2reg: address = 0x14 data = 0x12 kind = UVM_READ status = UVM_IS_OK
# UVM_INFO /ictc/other/tools/QuestaDVA/questasim/verilog_src/uvm-1.2/src/reg/uvm_reg_predictor.svh(225) @ 105664000: uvm_test_top.env.ahb_predictor [REG_PREDICT] Observed READ transaction to register regmodel.FSR: value='h12
# UVM_INFO ./../regmodel/uart_reg2ahb_adapter.sv(42) @ 105674000: reporter [uart_reg2ahb_adapter] bus2reg: address = 0x14 data = 0x12 kind = UVM_READ status = UVM_IS_OK
# UVM_INFO @ 105674000: reporter [RegModel] Read  register via map regmodel.ahb_map: regmodel.FSR=12
# UVM_INFO ./../regmodel/uart_reg2ahb_adapter.sv(27) @ 105674000: reporter [uart_reg2ahb_adapter] reg2bus: address = 0x14 data = 0x0 kind = READ
# UVM_INFO ./../regmodel/uart_reg2ahb_adapter.sv(42) @ 105675000: reporter [uart_reg2ahb_adapter] bus2reg: address = 0x14 data = 0x12 kind = UVM_READ status = UVM_IS_OK
# UVM_INFO /ictc/other/tools/QuestaDVA/questasim/verilog_src/uvm-1.2/src/reg/uvm_reg_predictor.svh(225) @ 105675000: uvm_test_top.env.ahb_predictor [REG_PREDICT] Observed READ transaction to register regmodel.FSR: value='h12
# UVM_INFO ./../regmodel/uart_reg2ahb_adapter.sv(42) @ 105685000: reporter [uart_reg2ahb_adapter] bus2reg: address = 0x14 data = 0x12 kind = UVM_READ status = UVM_IS_OK
# UVM_INFO @ 105685000: reporter [RegModel] Read  register via map regmodel.ahb_map: regmodel.FSR=12
# UVM_INFO ./../sequences/ahb_rxd_clear_parity_status_sequence.sv(47) @ 105685000: uvm_test_top.env.ahb_agt.sequencer@@ahb_clear [ahb_rxd_clear_parity_status_sequence] 
# ===== Parity Status Error Triggered =====
# UVM_INFO ./../regmodel/uart_reg2ahb_adapter.sv(42) @ 105685000: reporter [uart_reg2ahb_adapter] bus2reg: address = 0x14 data = 0x10 kind = UVM_WRITE status = UVM_IS_OK
# UVM_INFO /ictc/other/tools/QuestaDVA/questasim/verilog_src/uvm-1.2/src/reg/uvm_reg_predictor.svh(221) @ 105685000: uvm_test_top.env.ahb_predictor [REG_PREDICT] Observed WRITE transaction to register regmodel.FSR: value='h10 : updated value = 'h2
# UVM_INFO ./../regmodel/uart_reg2ahb_adapter.sv(27) @ 105685000: reporter [uart_reg2ahb_adapter] reg2bus: address = 0x14 data = 0x0 kind = READ
# UVM_INFO ./../regmodel/uart_reg2ahb_adapter.sv(42) @ 105685000: reporter [uart_reg2ahb_adapter] bus2reg: address = 0x14 data = 0x2 kind = UVM_READ status = UVM_IS_OK
# UVM_INFO /ictc/other/tools/QuestaDVA/questasim/verilog_src/uvm-1.2/src/reg/uvm_reg_predictor.svh(225) @ 105685000: uvm_test_top.env.ahb_predictor [REG_PREDICT] Observed READ transaction to register regmodel.FSR: value='h2
# UVM_INFO ./../regmodel/uart_reg2ahb_adapter.sv(42) @ 105695000: reporter [uart_reg2ahb_adapter] bus2reg: address = 0x14 data = 0x2 kind = UVM_READ status = UVM_IS_OK
# UVM_INFO @ 105695000: reporter [RegModel] Read  register via map regmodel.ahb_map: regmodel.FSR=2
# UVM_INFO ./../sequences/ahb_rxd_clear_parity_status_sequence.sv(58) @ 105695000: uvm_test_top.env.ahb_agt.sequencer@@ahb_clear [ahb_rxd_clear_parity_status_sequence] 
# ===== Parity Status Error is cleared =====
# UVM_INFO ./../testcases/uart_rxd_parity_status_clear.sv(40) @ 115695000: uvm_test_top [uart_rxd_parity_status_clear] -------------------------------------------------------------
# Name                Type                Size  Value          
# -------------------------------------------------------------
# cfg                 uart_configuration  -     @360           
#   parity_mode       parity_mode_e       32    UART_PARITY_ODD
#   sampling          sampling_mode_e     32    MODE_X13       
#   data_width        integral            32    'h5            
#   num_of_stop_bit   integral            32    'h1            
#   baud_rate         integral            32    'h9600         
#   baud_rate_enable  integral            1     'h0            
#   parity_enable     integral            1     'h1            
#   interrupt_enable  integral            1     'h0            
# -------------------------------------------------------------
# 
# UVM_INFO ./../regmodel/uart_reg2ahb_adapter.sv(42) @ 115695000: reporter [uart_reg2ahb_adapter] bus2reg: address = 0x0 data = 0x1 kind = UVM_WRITE status = UVM_IS_OK
# UVM_INFO /ictc/other/tools/QuestaDVA/questasim/verilog_src/uvm-1.2/src/reg/uvm_reg_predictor.svh(221) @ 115695000: uvm_test_top.env.ahb_predictor [REG_PREDICT] Observed WRITE transaction to register regmodel.MDR: value='h1 : updated value = 'h1
# UVM_INFO ./../regmodel/uart_reg2ahb_adapter.sv(42) @ 115695000: reporter [uart_reg2ahb_adapter] bus2reg: address = 0x4 data = 0xc8 kind = UVM_WRITE status = UVM_IS_OK
# UVM_INFO /ictc/other/tools/QuestaDVA/questasim/verilog_src/uvm-1.2/src/reg/uvm_reg_predictor.svh(221) @ 115695000: uvm_test_top.env.ahb_predictor [REG_PREDICT] Observed WRITE transaction to register regmodel.DLL: value='hc8 : updated value = 'hc8
# UVM_INFO ./../regmodel/uart_reg2ahb_adapter.sv(42) @ 115695000: reporter [uart_reg2ahb_adapter] bus2reg: address = 0x8 data = 0x0 kind = UVM_WRITE status = UVM_IS_OK
# UVM_INFO /ictc/other/tools/QuestaDVA/questasim/verilog_src/uvm-1.2/src/reg/uvm_reg_predictor.svh(221) @ 115695000: uvm_test_top.env.ahb_predictor [REG_PREDICT] Observed WRITE transaction to register regmodel.DLH: value='h0 : updated value = 'h0
# UVM_INFO ./../regmodel/uart_reg2ahb_adapter.sv(42) @ 115695000: reporter [uart_reg2ahb_adapter] bus2reg: address = 0xc data = 0x28 kind = UVM_WRITE status = UVM_IS_OK
# UVM_INFO /ictc/other/tools/QuestaDVA/questasim/verilog_src/uvm-1.2/src/reg/uvm_reg_predictor.svh(221) @ 115695000: uvm_test_top.env.ahb_predictor [REG_PREDICT] Observed WRITE transaction to register regmodel.LCR: value='h28 : updated value = 'h28
# UVM_INFO ./../regmodel/uart_reg2ahb_adapter.sv(42) @ 115695000: reporter [uart_reg2ahb_adapter] bus2reg: address = 0x10 data = 0x10 kind = UVM_WRITE status = UVM_IS_OK
# UVM_INFO /ictc/other/tools/QuestaDVA/questasim/verilog_src/uvm-1.2/src/reg/uvm_reg_predictor.svh(221) @ 115695000: uvm_test_top.env.ahb_predictor [REG_PREDICT] Observed WRITE transaction to register regmodel.IER: value='h10 : updated value = 'h10
# UVM_INFO ./../regmodel/uart_reg2ahb_adapter.sv(27) @ 116111000: reporter [uart_reg2ahb_adapter] reg2bus: address = 0x14 data = 0x0 kind = READ
# UVM_INFO ./../regmodel/uart_reg2ahb_adapter.sv(42) @ 116111000: reporter [uart_reg2ahb_adapter] bus2reg: address = 0x14 data = 0x12 kind = UVM_READ status = UVM_IS_OK
# UVM_INFO /ictc/other/tools/QuestaDVA/questasim/verilog_src/uvm-1.2/src/reg/uvm_reg_predictor.svh(225) @ 116111000: uvm_test_top.env.ahb_predictor [REG_PREDICT] Observed READ transaction to register regmodel.FSR: value='h12
# UVM_INFO ./../regmodel/uart_reg2ahb_adapter.sv(42) @ 116121000: reporter [uart_reg2ahb_adapter] bus2reg: address = 0x14 data = 0x12 kind = UVM_READ status = UVM_IS_OK
# UVM_INFO @ 116121000: reporter [RegModel] Read  register via map regmodel.ahb_map: regmodel.FSR=12
# UVM_INFO ./../regmodel/uart_reg2ahb_adapter.sv(27) @ 116121000: reporter [uart_reg2ahb_adapter] reg2bus: address = 0x14 data = 0x0 kind = READ
# UVM_INFO ./../regmodel/uart_reg2ahb_adapter.sv(42) @ 116121000: reporter [uart_reg2ahb_adapter] bus2reg: address = 0x14 data = 0x12 kind = UVM_READ status = UVM_IS_OK
# UVM_INFO /ictc/other/tools/QuestaDVA/questasim/verilog_src/uvm-1.2/src/reg/uvm_reg_predictor.svh(225) @ 116121000: uvm_test_top.env.ahb_predictor [REG_PREDICT] Observed READ transaction to register regmodel.FSR: value='h12
# UVM_INFO ./../regmodel/uart_reg2ahb_adapter.sv(42) @ 116131000: reporter [uart_reg2ahb_adapter] bus2reg: address = 0x14 data = 0x12 kind = UVM_READ status = UVM_IS_OK
# UVM_INFO @ 116131000: reporter [RegModel] Read  register via map regmodel.ahb_map: regmodel.FSR=12
# UVM_INFO ./../sequences/ahb_rxd_clear_parity_status_sequence.sv(47) @ 116131000: uvm_test_top.env.ahb_agt.sequencer@@ahb_clear [ahb_rxd_clear_parity_status_sequence] 
# ===== Parity Status Error Triggered =====
# UVM_INFO ./../regmodel/uart_reg2ahb_adapter.sv(42) @ 116131000: reporter [uart_reg2ahb_adapter] bus2reg: address = 0x14 data = 0x10 kind = UVM_WRITE status = UVM_IS_OK
# UVM_INFO /ictc/other/tools/QuestaDVA/questasim/verilog_src/uvm-1.2/src/reg/uvm_reg_predictor.svh(221) @ 116131000: uvm_test_top.env.ahb_predictor [REG_PREDICT] Observed WRITE transaction to register regmodel.FSR: value='h10 : updated value = 'h2
# UVM_INFO ./../regmodel/uart_reg2ahb_adapter.sv(27) @ 116131000: reporter [uart_reg2ahb_adapter] reg2bus: address = 0x14 data = 0x0 kind = READ
# UVM_INFO ./../regmodel/uart_reg2ahb_adapter.sv(42) @ 116131000: reporter [uart_reg2ahb_adapter] bus2reg: address = 0x14 data = 0x2 kind = UVM_READ status = UVM_IS_OK
# UVM_INFO /ictc/other/tools/QuestaDVA/questasim/verilog_src/uvm-1.2/src/reg/uvm_reg_predictor.svh(225) @ 116131000: uvm_test_top.env.ahb_predictor [REG_PREDICT] Observed READ transaction to register regmodel.FSR: value='h2
# UVM_INFO ./../regmodel/uart_reg2ahb_adapter.sv(42) @ 116141000: reporter [uart_reg2ahb_adapter] bus2reg: address = 0x14 data = 0x2 kind = UVM_READ status = UVM_IS_OK
# UVM_INFO @ 116141000: reporter [RegModel] Read  register via map regmodel.ahb_map: regmodel.FSR=2
# UVM_INFO ./../sequences/ahb_rxd_clear_parity_status_sequence.sv(58) @ 116141000: uvm_test_top.env.ahb_agt.sequencer@@ahb_clear [ahb_rxd_clear_parity_status_sequence] 
# ===== Parity Status Error is cleared =====
# UVM_INFO ./../testcases/uart_rxd_parity_status_clear.sv(40) @ 126141000: uvm_test_top [uart_rxd_parity_status_clear] -------------------------------------------------------------
# Name                Type                Size  Value          
# -------------------------------------------------------------
# cfg                 uart_configuration  -     @360           
#   parity_mode       parity_mode_e       32    UART_PARITY_ODD
#   sampling          sampling_mode_e     32    MODE_X16       
#   data_width        integral            32    'h5            
#   num_of_stop_bit   integral            32    'h1            
#   baud_rate         integral            32    'h12c00        
#   baud_rate_enable  integral            1     'h0            
#   parity_enable     integral            1     'h1            
#   interrupt_enable  integral            1     'h0            
# -------------------------------------------------------------
# 
# UVM_INFO ./../regmodel/uart_reg2ahb_adapter.sv(42) @ 126141000: reporter [uart_reg2ahb_adapter] bus2reg: address = 0x0 data = 0x0 kind = UVM_WRITE status = UVM_IS_OK
# UVM_INFO /ictc/other/tools/QuestaDVA/questasim/verilog_src/uvm-1.2/src/reg/uvm_reg_predictor.svh(221) @ 126141000: uvm_test_top.env.ahb_predictor [REG_PREDICT] Observed WRITE transaction to register regmodel.MDR: value='h0 : updated value = 'h0
# UVM_INFO ./../regmodel/uart_reg2ahb_adapter.sv(42) @ 126142000: reporter [uart_reg2ahb_adapter] bus2reg: address = 0x4 data = 0x51 kind = UVM_WRITE status = UVM_IS_OK
# UVM_INFO /ictc/other/tools/QuestaDVA/questasim/verilog_src/uvm-1.2/src/reg/uvm_reg_predictor.svh(221) @ 126142000: uvm_test_top.env.ahb_predictor [REG_PREDICT] Observed WRITE transaction to register regmodel.DLL: value='h51 : updated value = 'h51
# UVM_INFO ./../regmodel/uart_reg2ahb_adapter.sv(42) @ 126142000: reporter [uart_reg2ahb_adapter] bus2reg: address = 0x8 data = 0x0 kind = UVM_WRITE status = UVM_IS_OK
# UVM_INFO /ictc/other/tools/QuestaDVA/questasim/verilog_src/uvm-1.2/src/reg/uvm_reg_predictor.svh(221) @ 126142000: uvm_test_top.env.ahb_predictor [REG_PREDICT] Observed WRITE transaction to register regmodel.DLH: value='h0 : updated value = 'h0
# UVM_INFO ./../regmodel/uart_reg2ahb_adapter.sv(42) @ 126142000: reporter [uart_reg2ahb_adapter] bus2reg: address = 0xc data = 0x28 kind = UVM_WRITE status = UVM_IS_OK
# UVM_INFO /ictc/other/tools/QuestaDVA/questasim/verilog_src/uvm-1.2/src/reg/uvm_reg_predictor.svh(221) @ 126142000: uvm_test_top.env.ahb_predictor [REG_PREDICT] Observed WRITE transaction to register regmodel.LCR: value='h28 : updated value = 'h28
# UVM_INFO ./../regmodel/uart_reg2ahb_adapter.sv(42) @ 126142000: reporter [uart_reg2ahb_adapter] bus2reg: address = 0x10 data = 0x10 kind = UVM_WRITE status = UVM_IS_OK
# UVM_INFO /ictc/other/tools/QuestaDVA/questasim/verilog_src/uvm-1.2/src/reg/uvm_reg_predictor.svh(221) @ 126142000: uvm_test_top.env.ahb_predictor [REG_PREDICT] Observed WRITE transaction to register regmodel.IER: value='h10 : updated value = 'h10
# UVM_INFO ./../regmodel/uart_reg2ahb_adapter.sv(27) @ 126350000: reporter [uart_reg2ahb_adapter] reg2bus: address = 0x14 data = 0x0 kind = READ
# UVM_INFO ./../regmodel/uart_reg2ahb_adapter.sv(42) @ 126350000: reporter [uart_reg2ahb_adapter] bus2reg: address = 0x14 data = 0x12 kind = UVM_READ status = UVM_IS_OK
# UVM_INFO /ictc/other/tools/QuestaDVA/questasim/verilog_src/uvm-1.2/src/reg/uvm_reg_predictor.svh(225) @ 126350000: uvm_test_top.env.ahb_predictor [REG_PREDICT] Observed READ transaction to register regmodel.FSR: value='h12
# UVM_INFO ./../regmodel/uart_reg2ahb_adapter.sv(42) @ 126360000: reporter [uart_reg2ahb_adapter] bus2reg: address = 0x14 data = 0x12 kind = UVM_READ status = UVM_IS_OK
# UVM_INFO @ 126360000: reporter [RegModel] Read  register via map regmodel.ahb_map: regmodel.FSR=12
# UVM_INFO ./../regmodel/uart_reg2ahb_adapter.sv(27) @ 126360000: reporter [uart_reg2ahb_adapter] reg2bus: address = 0x14 data = 0x0 kind = READ
# UVM_INFO ./../regmodel/uart_reg2ahb_adapter.sv(42) @ 126360000: reporter [uart_reg2ahb_adapter] bus2reg: address = 0x14 data = 0x12 kind = UVM_READ status = UVM_IS_OK
# UVM_INFO /ictc/other/tools/QuestaDVA/questasim/verilog_src/uvm-1.2/src/reg/uvm_reg_predictor.svh(225) @ 126360000: uvm_test_top.env.ahb_predictor [REG_PREDICT] Observed READ transaction to register regmodel.FSR: value='h12
# UVM_INFO ./../regmodel/uart_reg2ahb_adapter.sv(42) @ 126370000: reporter [uart_reg2ahb_adapter] bus2reg: address = 0x14 data = 0x12 kind = UVM_READ status = UVM_IS_OK
# UVM_INFO @ 126370000: reporter [RegModel] Read  register via map regmodel.ahb_map: regmodel.FSR=12
# UVM_INFO ./../sequences/ahb_rxd_clear_parity_status_sequence.sv(47) @ 126370000: uvm_test_top.env.ahb_agt.sequencer@@ahb_clear [ahb_rxd_clear_parity_status_sequence] 
# ===== Parity Status Error Triggered =====
# UVM_INFO ./../regmodel/uart_reg2ahb_adapter.sv(42) @ 126370000: reporter [uart_reg2ahb_adapter] bus2reg: address = 0x14 data = 0x10 kind = UVM_WRITE status = UVM_IS_OK
# UVM_INFO /ictc/other/tools/QuestaDVA/questasim/verilog_src/uvm-1.2/src/reg/uvm_reg_predictor.svh(221) @ 126370000: uvm_test_top.env.ahb_predictor [REG_PREDICT] Observed WRITE transaction to register regmodel.FSR: value='h10 : updated value = 'h2
# UVM_INFO ./../regmodel/uart_reg2ahb_adapter.sv(27) @ 126370000: reporter [uart_reg2ahb_adapter] reg2bus: address = 0x14 data = 0x0 kind = READ
# UVM_INFO ./../regmodel/uart_reg2ahb_adapter.sv(42) @ 126370000: reporter [uart_reg2ahb_adapter] bus2reg: address = 0x14 data = 0x2 kind = UVM_READ status = UVM_IS_OK
# UVM_INFO /ictc/other/tools/QuestaDVA/questasim/verilog_src/uvm-1.2/src/reg/uvm_reg_predictor.svh(225) @ 126370000: uvm_test_top.env.ahb_predictor [REG_PREDICT] Observed READ transaction to register regmodel.FSR: value='h2
# UVM_INFO ./../regmodel/uart_reg2ahb_adapter.sv(42) @ 126380000: reporter [uart_reg2ahb_adapter] bus2reg: address = 0x14 data = 0x2 kind = UVM_READ status = UVM_IS_OK
# UVM_INFO @ 126380000: reporter [RegModel] Read  register via map regmodel.ahb_map: regmodel.FSR=2
# UVM_INFO ./../sequences/ahb_rxd_clear_parity_status_sequence.sv(58) @ 126380000: uvm_test_top.env.ahb_agt.sequencer@@ahb_clear [ahb_rxd_clear_parity_status_sequence] 
# ===== Parity Status Error is cleared =====
# UVM_INFO ./../testcases/uart_rxd_parity_status_clear.sv(40) @ 136380000: uvm_test_top [uart_rxd_parity_status_clear] -------------------------------------------------------------
# Name                Type                Size  Value          
# -------------------------------------------------------------
# cfg                 uart_configuration  -     @360           
#   parity_mode       parity_mode_e       32    UART_PARITY_ODD
#   sampling          sampling_mode_e     32    MODE_X13       
#   data_width        integral            32    'h5            
#   num_of_stop_bit   integral            32    'h1            
#   baud_rate         integral            32    'h12c00        
#   baud_rate_enable  integral            1     'h0            
#   parity_enable     integral            1     'h1            
#   interrupt_enable  integral            1     'h0            
# -------------------------------------------------------------
# 
# UVM_INFO ./../regmodel/uart_reg2ahb_adapter.sv(42) @ 136380000: reporter [uart_reg2ahb_adapter] bus2reg: address = 0x0 data = 0x1 kind = UVM_WRITE status = UVM_IS_OK
# UVM_INFO /ictc/other/tools/QuestaDVA/questasim/verilog_src/uvm-1.2/src/reg/uvm_reg_predictor.svh(221) @ 136380000: uvm_test_top.env.ahb_predictor [REG_PREDICT] Observed WRITE transaction to register regmodel.MDR: value='h1 : updated value = 'h1
# UVM_INFO ./../regmodel/uart_reg2ahb_adapter.sv(42) @ 136380000: reporter [uart_reg2ahb_adapter] bus2reg: address = 0x4 data = 0x64 kind = UVM_WRITE status = UVM_IS_OK
# UVM_INFO /ictc/other/tools/QuestaDVA/questasim/verilog_src/uvm-1.2/src/reg/uvm_reg_predictor.svh(221) @ 136380000: uvm_test_top.env.ahb_predictor [REG_PREDICT] Observed WRITE transaction to register regmodel.DLL: value='h64 : updated value = 'h64
# UVM_INFO ./../regmodel/uart_reg2ahb_adapter.sv(42) @ 136380000: reporter [uart_reg2ahb_adapter] bus2reg: address = 0x8 data = 0x0 kind = UVM_WRITE status = UVM_IS_OK
# UVM_INFO /ictc/other/tools/QuestaDVA/questasim/verilog_src/uvm-1.2/src/reg/uvm_reg_predictor.svh(221) @ 136380000: uvm_test_top.env.ahb_predictor [REG_PREDICT] Observed WRITE transaction to register regmodel.DLH: value='h0 : updated value = 'h0
# UVM_INFO ./../regmodel/uart_reg2ahb_adapter.sv(42) @ 136380000: reporter [uart_reg2ahb_adapter] bus2reg: address = 0xc data = 0x28 kind = UVM_WRITE status = UVM_IS_OK
# UVM_INFO /ictc/other/tools/QuestaDVA/questasim/verilog_src/uvm-1.2/src/reg/uvm_reg_predictor.svh(221) @ 136380000: uvm_test_top.env.ahb_predictor [REG_PREDICT] Observed WRITE transaction to register regmodel.LCR: value='h28 : updated value = 'h28
# UVM_INFO ./../regmodel/uart_reg2ahb_adapter.sv(42) @ 136381000: reporter [uart_reg2ahb_adapter] bus2reg: address = 0x10 data = 0x10 kind = UVM_WRITE status = UVM_IS_OK
# UVM_INFO /ictc/other/tools/QuestaDVA/questasim/verilog_src/uvm-1.2/src/reg/uvm_reg_predictor.svh(221) @ 136381000: uvm_test_top.env.ahb_predictor [REG_PREDICT] Observed WRITE transaction to register regmodel.IER: value='h10 : updated value = 'h10
# UVM_INFO ./../regmodel/uart_reg2ahb_adapter.sv(27) @ 136589000: reporter [uart_reg2ahb_adapter] reg2bus: address = 0x14 data = 0x0 kind = READ
# UVM_INFO ./../regmodel/uart_reg2ahb_adapter.sv(42) @ 136589000: reporter [uart_reg2ahb_adapter] bus2reg: address = 0x14 data = 0x12 kind = UVM_READ status = UVM_IS_OK
# UVM_INFO /ictc/other/tools/QuestaDVA/questasim/verilog_src/uvm-1.2/src/reg/uvm_reg_predictor.svh(225) @ 136589000: uvm_test_top.env.ahb_predictor [REG_PREDICT] Observed READ transaction to register regmodel.FSR: value='h12
# UVM_INFO ./../regmodel/uart_reg2ahb_adapter.sv(42) @ 136599000: reporter [uart_reg2ahb_adapter] bus2reg: address = 0x14 data = 0x12 kind = UVM_READ status = UVM_IS_OK
# UVM_INFO @ 136599000: reporter [RegModel] Read  register via map regmodel.ahb_map: regmodel.FSR=12
# UVM_INFO ./../regmodel/uart_reg2ahb_adapter.sv(27) @ 136599000: reporter [uart_reg2ahb_adapter] reg2bus: address = 0x14 data = 0x0 kind = READ
# UVM_INFO ./../regmodel/uart_reg2ahb_adapter.sv(42) @ 136599000: reporter [uart_reg2ahb_adapter] bus2reg: address = 0x14 data = 0x12 kind = UVM_READ status = UVM_IS_OK
# UVM_INFO /ictc/other/tools/QuestaDVA/questasim/verilog_src/uvm-1.2/src/reg/uvm_reg_predictor.svh(225) @ 136599000: uvm_test_top.env.ahb_predictor [REG_PREDICT] Observed READ transaction to register regmodel.FSR: value='h12
# UVM_INFO ./../regmodel/uart_reg2ahb_adapter.sv(42) @ 136609000: reporter [uart_reg2ahb_adapter] bus2reg: address = 0x14 data = 0x12 kind = UVM_READ status = UVM_IS_OK
# UVM_INFO @ 136609000: reporter [RegModel] Read  register via map regmodel.ahb_map: regmodel.FSR=12
# UVM_INFO ./../sequences/ahb_rxd_clear_parity_status_sequence.sv(47) @ 136609000: uvm_test_top.env.ahb_agt.sequencer@@ahb_clear [ahb_rxd_clear_parity_status_sequence] 
# ===== Parity Status Error Triggered =====
# UVM_INFO ./../regmodel/uart_reg2ahb_adapter.sv(42) @ 136609000: reporter [uart_reg2ahb_adapter] bus2reg: address = 0x14 data = 0x10 kind = UVM_WRITE status = UVM_IS_OK
# UVM_INFO /ictc/other/tools/QuestaDVA/questasim/verilog_src/uvm-1.2/src/reg/uvm_reg_predictor.svh(221) @ 136609000: uvm_test_top.env.ahb_predictor [REG_PREDICT] Observed WRITE transaction to register regmodel.FSR: value='h10 : updated value = 'h2
# UVM_INFO ./../regmodel/uart_reg2ahb_adapter.sv(27) @ 136609000: reporter [uart_reg2ahb_adapter] reg2bus: address = 0x14 data = 0x0 kind = READ
# UVM_INFO ./../regmodel/uart_reg2ahb_adapter.sv(42) @ 136609000: reporter [uart_reg2ahb_adapter] bus2reg: address = 0x14 data = 0x2 kind = UVM_READ status = UVM_IS_OK
# UVM_INFO /ictc/other/tools/QuestaDVA/questasim/verilog_src/uvm-1.2/src/reg/uvm_reg_predictor.svh(225) @ 136609000: uvm_test_top.env.ahb_predictor [REG_PREDICT] Observed READ transaction to register regmodel.FSR: value='h2
# UVM_INFO ./../regmodel/uart_reg2ahb_adapter.sv(42) @ 136619000: reporter [uart_reg2ahb_adapter] bus2reg: address = 0x14 data = 0x2 kind = UVM_READ status = UVM_IS_OK
# UVM_INFO @ 136619000: reporter [RegModel] Read  register via map regmodel.ahb_map: regmodel.FSR=2
# UVM_INFO ./../sequences/ahb_rxd_clear_parity_status_sequence.sv(58) @ 136619000: uvm_test_top.env.ahb_agt.sequencer@@ahb_clear [ahb_rxd_clear_parity_status_sequence] 
# ===== Parity Status Error is cleared =====
# UVM_INFO ./../testcases/uart_rxd_parity_status_clear.sv(40) @ 146619000: uvm_test_top [uart_rxd_parity_status_clear] -------------------------------------------------------------
# Name                Type                Size  Value          
# -------------------------------------------------------------
# cfg                 uart_configuration  -     @360           
#   parity_mode       parity_mode_e       32    UART_PARITY_ODD
#   sampling          sampling_mode_e     32    MODE_X16       
#   data_width        integral            32    'h5            
#   num_of_stop_bit   integral            32    'h1            
#   baud_rate         integral            32    'h1c200        
#   baud_rate_enable  integral            1     'h0            
#   parity_enable     integral            1     'h1            
#   interrupt_enable  integral            1     'h0            
# -------------------------------------------------------------
# 
# UVM_INFO ./../regmodel/uart_reg2ahb_adapter.sv(42) @ 146619000: reporter [uart_reg2ahb_adapter] bus2reg: address = 0x0 data = 0x0 kind = UVM_WRITE status = UVM_IS_OK
# UVM_INFO /ictc/other/tools/QuestaDVA/questasim/verilog_src/uvm-1.2/src/reg/uvm_reg_predictor.svh(221) @ 146619000: uvm_test_top.env.ahb_predictor [REG_PREDICT] Observed WRITE transaction to register regmodel.MDR: value='h0 : updated value = 'h0
# UVM_INFO ./../regmodel/uart_reg2ahb_adapter.sv(42) @ 146619000: reporter [uart_reg2ahb_adapter] bus2reg: address = 0x4 data = 0x36 kind = UVM_WRITE status = UVM_IS_OK
# UVM_INFO /ictc/other/tools/QuestaDVA/questasim/verilog_src/uvm-1.2/src/reg/uvm_reg_predictor.svh(221) @ 146619000: uvm_test_top.env.ahb_predictor [REG_PREDICT] Observed WRITE transaction to register regmodel.DLL: value='h36 : updated value = 'h36
# UVM_INFO ./../regmodel/uart_reg2ahb_adapter.sv(42) @ 146619000: reporter [uart_reg2ahb_adapter] bus2reg: address = 0x8 data = 0x0 kind = UVM_WRITE status = UVM_IS_OK
# UVM_INFO /ictc/other/tools/QuestaDVA/questasim/verilog_src/uvm-1.2/src/reg/uvm_reg_predictor.svh(221) @ 146619000: uvm_test_top.env.ahb_predictor [REG_PREDICT] Observed WRITE transaction to register regmodel.DLH: value='h0 : updated value = 'h0
# UVM_INFO ./../regmodel/uart_reg2ahb_adapter.sv(42) @ 146619000: reporter [uart_reg2ahb_adapter] bus2reg: address = 0xc data = 0x28 kind = UVM_WRITE status = UVM_IS_OK
# UVM_INFO /ictc/other/tools/QuestaDVA/questasim/verilog_src/uvm-1.2/src/reg/uvm_reg_predictor.svh(221) @ 146619000: uvm_test_top.env.ahb_predictor [REG_PREDICT] Observed WRITE transaction to register regmodel.LCR: value='h28 : updated value = 'h28
# UVM_INFO ./../regmodel/uart_reg2ahb_adapter.sv(42) @ 146619000: reporter [uart_reg2ahb_adapter] bus2reg: address = 0x10 data = 0x10 kind = UVM_WRITE status = UVM_IS_OK
# UVM_INFO /ictc/other/tools/QuestaDVA/questasim/verilog_src/uvm-1.2/src/reg/uvm_reg_predictor.svh(221) @ 146619000: uvm_test_top.env.ahb_predictor [REG_PREDICT] Observed WRITE transaction to register regmodel.IER: value='h10 : updated value = 'h10
# UVM_INFO ./../regmodel/uart_reg2ahb_adapter.sv(27) @ 146755000: reporter [uart_reg2ahb_adapter] reg2bus: address = 0x14 data = 0x0 kind = READ
# UVM_INFO ./../regmodel/uart_reg2ahb_adapter.sv(42) @ 146755000: reporter [uart_reg2ahb_adapter] bus2reg: address = 0x14 data = 0x12 kind = UVM_READ status = UVM_IS_OK
# UVM_INFO /ictc/other/tools/QuestaDVA/questasim/verilog_src/uvm-1.2/src/reg/uvm_reg_predictor.svh(225) @ 146755000: uvm_test_top.env.ahb_predictor [REG_PREDICT] Observed READ transaction to register regmodel.FSR: value='h12
# UVM_INFO ./../regmodel/uart_reg2ahb_adapter.sv(42) @ 146765000: reporter [uart_reg2ahb_adapter] bus2reg: address = 0x14 data = 0x12 kind = UVM_READ status = UVM_IS_OK
# UVM_INFO @ 146765000: reporter [RegModel] Read  register via map regmodel.ahb_map: regmodel.FSR=12
# UVM_INFO ./../regmodel/uart_reg2ahb_adapter.sv(27) @ 146765000: reporter [uart_reg2ahb_adapter] reg2bus: address = 0x14 data = 0x0 kind = READ
# UVM_INFO ./../regmodel/uart_reg2ahb_adapter.sv(42) @ 146765000: reporter [uart_reg2ahb_adapter] bus2reg: address = 0x14 data = 0x12 kind = UVM_READ status = UVM_IS_OK
# UVM_INFO /ictc/other/tools/QuestaDVA/questasim/verilog_src/uvm-1.2/src/reg/uvm_reg_predictor.svh(225) @ 146765000: uvm_test_top.env.ahb_predictor [REG_PREDICT] Observed READ transaction to register regmodel.FSR: value='h12
# UVM_INFO ./../regmodel/uart_reg2ahb_adapter.sv(42) @ 146775000: reporter [uart_reg2ahb_adapter] bus2reg: address = 0x14 data = 0x12 kind = UVM_READ status = UVM_IS_OK
# UVM_INFO @ 146775000: reporter [RegModel] Read  register via map regmodel.ahb_map: regmodel.FSR=12
# UVM_INFO ./../sequences/ahb_rxd_clear_parity_status_sequence.sv(47) @ 146775000: uvm_test_top.env.ahb_agt.sequencer@@ahb_clear [ahb_rxd_clear_parity_status_sequence] 
# ===== Parity Status Error Triggered =====
# UVM_INFO ./../regmodel/uart_reg2ahb_adapter.sv(42) @ 146775000: reporter [uart_reg2ahb_adapter] bus2reg: address = 0x14 data = 0x10 kind = UVM_WRITE status = UVM_IS_OK
# UVM_INFO /ictc/other/tools/QuestaDVA/questasim/verilog_src/uvm-1.2/src/reg/uvm_reg_predictor.svh(221) @ 146775000: uvm_test_top.env.ahb_predictor [REG_PREDICT] Observed WRITE transaction to register regmodel.FSR: value='h10 : updated value = 'h2
# UVM_INFO ./../regmodel/uart_reg2ahb_adapter.sv(27) @ 146776000: reporter [uart_reg2ahb_adapter] reg2bus: address = 0x14 data = 0x0 kind = READ
# UVM_INFO ./../regmodel/uart_reg2ahb_adapter.sv(42) @ 146776000: reporter [uart_reg2ahb_adapter] bus2reg: address = 0x14 data = 0x2 kind = UVM_READ status = UVM_IS_OK
# UVM_INFO /ictc/other/tools/QuestaDVA/questasim/verilog_src/uvm-1.2/src/reg/uvm_reg_predictor.svh(225) @ 146776000: uvm_test_top.env.ahb_predictor [REG_PREDICT] Observed READ transaction to register regmodel.FSR: value='h2
# UVM_INFO ./../regmodel/uart_reg2ahb_adapter.sv(42) @ 146786000: reporter [uart_reg2ahb_adapter] bus2reg: address = 0x14 data = 0x2 kind = UVM_READ status = UVM_IS_OK
# UVM_INFO @ 146786000: reporter [RegModel] Read  register via map regmodel.ahb_map: regmodel.FSR=2
# UVM_INFO ./../sequences/ahb_rxd_clear_parity_status_sequence.sv(58) @ 146786000: uvm_test_top.env.ahb_agt.sequencer@@ahb_clear [ahb_rxd_clear_parity_status_sequence] 
# ===== Parity Status Error is cleared =====
# UVM_INFO ./../testcases/uart_rxd_parity_status_clear.sv(40) @ 156786000: uvm_test_top [uart_rxd_parity_status_clear] -------------------------------------------------------------
# Name                Type                Size  Value          
# -------------------------------------------------------------
# cfg                 uart_configuration  -     @360           
#   parity_mode       parity_mode_e       32    UART_PARITY_ODD
#   sampling          sampling_mode_e     32    MODE_X13       
#   data_width        integral            32    'h5            
#   num_of_stop_bit   integral            32    'h1            
#   baud_rate         integral            32    'h1c200        
#   baud_rate_enable  integral            1     'h0            
#   parity_enable     integral            1     'h1            
#   interrupt_enable  integral            1     'h0            
# -------------------------------------------------------------
# 
# UVM_INFO ./../regmodel/uart_reg2ahb_adapter.sv(42) @ 156786000: reporter [uart_reg2ahb_adapter] bus2reg: address = 0x0 data = 0x1 kind = UVM_WRITE status = UVM_IS_OK
# UVM_INFO /ictc/other/tools/QuestaDVA/questasim/verilog_src/uvm-1.2/src/reg/uvm_reg_predictor.svh(221) @ 156786000: uvm_test_top.env.ahb_predictor [REG_PREDICT] Observed WRITE transaction to register regmodel.MDR: value='h1 : updated value = 'h1
# UVM_INFO ./../regmodel/uart_reg2ahb_adapter.sv(42) @ 156786000: reporter [uart_reg2ahb_adapter] bus2reg: address = 0x4 data = 0x43 kind = UVM_WRITE status = UVM_IS_OK
# UVM_INFO /ictc/other/tools/QuestaDVA/questasim/verilog_src/uvm-1.2/src/reg/uvm_reg_predictor.svh(221) @ 156786000: uvm_test_top.env.ahb_predictor [REG_PREDICT] Observed WRITE transaction to register regmodel.DLL: value='h43 : updated value = 'h43
# UVM_INFO ./../regmodel/uart_reg2ahb_adapter.sv(42) @ 156786000: reporter [uart_reg2ahb_adapter] bus2reg: address = 0x8 data = 0x0 kind = UVM_WRITE status = UVM_IS_OK
# UVM_INFO /ictc/other/tools/QuestaDVA/questasim/verilog_src/uvm-1.2/src/reg/uvm_reg_predictor.svh(221) @ 156786000: uvm_test_top.env.ahb_predictor [REG_PREDICT] Observed WRITE transaction to register regmodel.DLH: value='h0 : updated value = 'h0
# UVM_INFO ./../regmodel/uart_reg2ahb_adapter.sv(42) @ 156786000: reporter [uart_reg2ahb_adapter] bus2reg: address = 0xc data = 0x28 kind = UVM_WRITE status = UVM_IS_OK
# UVM_INFO /ictc/other/tools/QuestaDVA/questasim/verilog_src/uvm-1.2/src/reg/uvm_reg_predictor.svh(221) @ 156786000: uvm_test_top.env.ahb_predictor [REG_PREDICT] Observed WRITE transaction to register regmodel.LCR: value='h28 : updated value = 'h28
# UVM_INFO ./../regmodel/uart_reg2ahb_adapter.sv(42) @ 156786000: reporter [uart_reg2ahb_adapter] bus2reg: address = 0x10 data = 0x10 kind = UVM_WRITE status = UVM_IS_OK
# UVM_INFO /ictc/other/tools/QuestaDVA/questasim/verilog_src/uvm-1.2/src/reg/uvm_reg_predictor.svh(221) @ 156786000: uvm_test_top.env.ahb_predictor [REG_PREDICT] Observed WRITE transaction to register regmodel.IER: value='h10 : updated value = 'h10
# UVM_INFO ./../regmodel/uart_reg2ahb_adapter.sv(27) @ 156922000: reporter [uart_reg2ahb_adapter] reg2bus: address = 0x14 data = 0x0 kind = READ
# UVM_INFO ./../regmodel/uart_reg2ahb_adapter.sv(42) @ 156922000: reporter [uart_reg2ahb_adapter] bus2reg: address = 0x14 data = 0x12 kind = UVM_READ status = UVM_IS_OK
# UVM_INFO /ictc/other/tools/QuestaDVA/questasim/verilog_src/uvm-1.2/src/reg/uvm_reg_predictor.svh(225) @ 156922000: uvm_test_top.env.ahb_predictor [REG_PREDICT] Observed READ transaction to register regmodel.FSR: value='h12
# UVM_INFO ./../regmodel/uart_reg2ahb_adapter.sv(42) @ 156932000: reporter [uart_reg2ahb_adapter] bus2reg: address = 0x14 data = 0x12 kind = UVM_READ status = UVM_IS_OK
# UVM_INFO @ 156932000: reporter [RegModel] Read  register via map regmodel.ahb_map: regmodel.FSR=12
# UVM_INFO ./../regmodel/uart_reg2ahb_adapter.sv(27) @ 156932000: reporter [uart_reg2ahb_adapter] reg2bus: address = 0x14 data = 0x0 kind = READ
# UVM_INFO ./../regmodel/uart_reg2ahb_adapter.sv(42) @ 156932000: reporter [uart_reg2ahb_adapter] bus2reg: address = 0x14 data = 0x12 kind = UVM_READ status = UVM_IS_OK
# UVM_INFO /ictc/other/tools/QuestaDVA/questasim/verilog_src/uvm-1.2/src/reg/uvm_reg_predictor.svh(225) @ 156932000: uvm_test_top.env.ahb_predictor [REG_PREDICT] Observed READ transaction to register regmodel.FSR: value='h12
# UVM_INFO ./../regmodel/uart_reg2ahb_adapter.sv(42) @ 156942000: reporter [uart_reg2ahb_adapter] bus2reg: address = 0x14 data = 0x12 kind = UVM_READ status = UVM_IS_OK
# UVM_INFO @ 156942000: reporter [RegModel] Read  register via map regmodel.ahb_map: regmodel.FSR=12
# UVM_INFO ./../sequences/ahb_rxd_clear_parity_status_sequence.sv(47) @ 156942000: uvm_test_top.env.ahb_agt.sequencer@@ahb_clear [ahb_rxd_clear_parity_status_sequence] 
# ===== Parity Status Error Triggered =====
# UVM_INFO ./../regmodel/uart_reg2ahb_adapter.sv(42) @ 156942000: reporter [uart_reg2ahb_adapter] bus2reg: address = 0x14 data = 0x10 kind = UVM_WRITE status = UVM_IS_OK
# UVM_INFO /ictc/other/tools/QuestaDVA/questasim/verilog_src/uvm-1.2/src/reg/uvm_reg_predictor.svh(221) @ 156942000: uvm_test_top.env.ahb_predictor [REG_PREDICT] Observed WRITE transaction to register regmodel.FSR: value='h10 : updated value = 'h2
# UVM_INFO ./../regmodel/uart_reg2ahb_adapter.sv(27) @ 156942000: reporter [uart_reg2ahb_adapter] reg2bus: address = 0x14 data = 0x0 kind = READ
# UVM_INFO ./../regmodel/uart_reg2ahb_adapter.sv(42) @ 156942000: reporter [uart_reg2ahb_adapter] bus2reg: address = 0x14 data = 0x2 kind = UVM_READ status = UVM_IS_OK
# UVM_INFO /ictc/other/tools/QuestaDVA/questasim/verilog_src/uvm-1.2/src/reg/uvm_reg_predictor.svh(225) @ 156942000: uvm_test_top.env.ahb_predictor [REG_PREDICT] Observed READ transaction to register regmodel.FSR: value='h2
# UVM_INFO ./../regmodel/uart_reg2ahb_adapter.sv(42) @ 156952000: reporter [uart_reg2ahb_adapter] bus2reg: address = 0x14 data = 0x2 kind = UVM_READ status = UVM_IS_OK
# UVM_INFO @ 156952000: reporter [RegModel] Read  register via map regmodel.ahb_map: regmodel.FSR=2
# UVM_INFO ./../sequences/ahb_rxd_clear_parity_status_sequence.sv(58) @ 156952000: uvm_test_top.env.ahb_agt.sequencer@@ahb_clear [ahb_rxd_clear_parity_status_sequence] 
# ===== Parity Status Error is cleared =====
# UVM_INFO ./../testcases/uart_rxd_parity_status_clear.sv(40) @ 166952000: uvm_test_top [uart_rxd_parity_status_clear] -------------------------------------------------------------
# Name                Type                Size  Value          
# -------------------------------------------------------------
# cfg                 uart_configuration  -     @360           
#   parity_mode       parity_mode_e       32    UART_PARITY_ODD
#   sampling          sampling_mode_e     32    MODE_X16       
#   data_width        integral            32    'h5            
#   num_of_stop_bit   integral            32    'h2            
#   baud_rate         integral            32    'h960          
#   baud_rate_enable  integral            1     'h0            
#   parity_enable     integral            1     'h1            
#   interrupt_enable  integral            1     'h0            
# -------------------------------------------------------------
# 
# UVM_INFO ./../regmodel/uart_reg2ahb_adapter.sv(42) @ 166952000: reporter [uart_reg2ahb_adapter] bus2reg: address = 0x0 data = 0x0 kind = UVM_WRITE status = UVM_IS_OK
# UVM_INFO /ictc/other/tools/QuestaDVA/questasim/verilog_src/uvm-1.2/src/reg/uvm_reg_predictor.svh(221) @ 166952000: uvm_test_top.env.ahb_predictor [REG_PREDICT] Observed WRITE transaction to register regmodel.MDR: value='h0 : updated value = 'h0
# UVM_INFO ./../regmodel/uart_reg2ahb_adapter.sv(42) @ 166952000: reporter [uart_reg2ahb_adapter] bus2reg: address = 0x4 data = 0x2c kind = UVM_WRITE status = UVM_IS_OK
# UVM_INFO /ictc/other/tools/QuestaDVA/questasim/verilog_src/uvm-1.2/src/reg/uvm_reg_predictor.svh(221) @ 166952000: uvm_test_top.env.ahb_predictor [REG_PREDICT] Observed WRITE transaction to register regmodel.DLL: value='h2c : updated value = 'h2c
