# vsim -sv_seed 1 -voptargs="+acc" -assertdebug -c testbench -do " log -r /*;run -all;" -l uart_rxd_parity_status_1.log "+UVM_TESTNAME=uart_rxd_parity_status" "+UVM_VERBOSITY=UVM_HIGH" 
# Start time: 14:47:28 on Aug 06,2026
# Loading /tmp/khaminh_3008@ictc-eda-ldap.ipa.test_dpi_93730/linux_x86_64_gcc-11/export_tramp.so
# ** Note: (vsim-3813) Design is being optimized due to module recompilation...
# ** Warning: ./../testcases/uart_txd_x16_parity.sv(20): (vopt-2240) Treating stand-alone use of function 'randomize' as an implicit VOID cast.
# ** Warning: ./../testcases/uart_txd_x16_data_frame.sv(20): (vopt-2240) Treating stand-alone use of function 'randomize' as an implicit VOID cast.
# ** Warning: ./../testcases/uart_txd_x16_stop_bit.sv(20): (vopt-2240) Treating stand-alone use of function 'randomize' as an implicit VOID cast.
# ** Warning: ./../testcases/uart_txd_x16_baud_rate.sv(22): (vopt-2240) Treating stand-alone use of function 'randomize' as an implicit VOID cast.
# ** Warning: ./../testcases/uart_txd_x16_random.sv(26): (vopt-2240) Treating stand-alone use of function 'randomize' as an implicit VOID cast.
# ** Warning: ./../testcases/uart_txd_x13_parity.sv(20): (vopt-2240) Treating stand-alone use of function 'randomize' as an implicit VOID cast.
# ** Warning: ./../testcases/uart_txd_x13_data_frame.sv(20): (vopt-2240) Treating stand-alone use of function 'randomize' as an implicit VOID cast.
# ** Warning: ./../testcases/uart_txd_x13_stop_bit.sv(20): (vopt-2240) Treating stand-alone use of function 'randomize' as an implicit VOID cast.
# ** Warning: ./../testcases/uart_txd_x13_baud_rate.sv(22): (vopt-2240) Treating stand-alone use of function 'randomize' as an implicit VOID cast.
# ** Warning: ./../testcases/uart_txd_x13_random.sv(26): (vopt-2240) Treating stand-alone use of function 'randomize' as an implicit VOID cast.
# ** Warning: ./../testcases/uart_rxd_random.sv(30): (vopt-2240) Treating stand-alone use of function 'randomize' as an implicit VOID cast.
# ** Warning: ./../testcases/uart_rxd_parity_status.sv(30): (vopt-2240) Treating stand-alone use of function 'randomize' as an implicit VOID cast.
# //  Questa Sim-64
# //  Version 10.6d_1 linux_x86_64 Apr 11 2018
# //
# //  Copyright 1991-2018 Mentor Graphics Corporation
# //  All Rights Reserved.
# //
# //  QuestaSim and its associated documentation contain trade
# //  secrets and commercial or financial information that are the property of
# //  Mentor Graphics Corporation and are privileged, confidential,
# //  and exempt from disclosure under the Freedom of Information Act,
# //  5 U.S.C. Section 552. Furthermore, this information
# //  is prohibited from disclosure under the Trade Secrets Act,
# //  18 U.S.C. Section 1905.
# //
# Loading sv_std.std
# Loading work.uart_if(fast)
# Loading work.ahb_if(fast)
# Loading work.uvm_pkg(fast)
# Loading work.uart_register_pkg(fast)
# ** Note: (vsim-8785) UVM-aware debugging capabilities will be disabled since no compiled "questa_uvm_pkg" can be found.
# This also means that later if you turn on UVM-aware debugging your debug simulations may have
# different random seeds from your non-debug simulations.
# Loading work.ahb_pkg(fast)
# Loading work.uart_regmodel_pkg(fast)
# Loading work.uart_pkg(fast)
# Loading work.seq_pkg(fast)
# Loading work.env_pkg(fast)
# Loading work.test_pkg(fast)
# Loading work.testbench(fast)
# Loading work.ahb_if(fast)
# Loading work.uart_if(fast)
# Loading work.uart_top(fast)
# Loading work.cmsdk_ahb_to_apb(fast)
# Loading work.apb_decoder(fast)
# Loading work.uart_fifo(fast)
# Loading work.uart_transmitter(fast)
# Loading work.uart_receiver(fast)
# Loading work.uart_interrupt(fast)
# Loading work.baud_generator(fast)
# Compiling /tmp/khaminh_3008@ictc-eda-ldap.ipa.test_dpi_93730/linux_x86_64_gcc-5.3.0/exportwrapper.c
# Compiling /tmp/khaminh_3008@ictc-eda-ldap.ipa.test_dpi_93730/linux_x86_64_gcc-11/exportwrapper.c
# Loading /tmp/khaminh_3008@ictc-eda-ldap.ipa.test_dpi_93730/linux_x86_64_gcc-11/vsim_auto_compile.so
#  log -r /*
# run -all
# UVM_INFO /ictc/other/tools/QuestaDVA/questasim/verilog_src/uvm-1.2/src/base/uvm_root.svh(392) @ 0: reporter [UVM/RELNOTES] 
# ----------------------------------------------------------------
# UVM-1.2
# (C) 2007-2014 Mentor Graphics Corporation
# (C) 2007-2014 Cadence Design Systems, Inc.
# (C) 2006-2014 Synopsys, Inc.
# (C) 2011-2013 Cypress Semiconductor Corp.
# (C) 2013-2014 NVIDIA Corporation
# ----------------------------------------------------------------
# 
#   ***********       IMPORTANT RELEASE NOTES         ************
# 
#   You are using a version of the UVM library that has been compiled
#   with `UVM_NO_DEPRECATED undefined.
#   See http://www.eda.org/svdb/view.php?id=3313 for more details.
# 
#   You are using a version of the UVM library that has been compiled
#   with `UVM_OBJECT_DO_NOT_NEED_CONSTRUCTOR undefined.
#   See http://www.eda.org/svdb/view.php?id=3770 for more details.
# 
#       (Specify +UVM_NO_RELNOTES to turn off this notice)
# 
# UVM_INFO /ictc/other/tools/QuestaDVA/questasim/verilog_src/uvm-1.2/src/base/uvm_root.svh(453) @ 0: reporter [NO_DPI_TSTNAME] UVM_NO_DPI defined--getting UVM_TESTNAME directly, without DPI
# UVM_INFO @ 0: reporter [RNTST] Running test uart_rxd_parity_status...
# UVM_INFO ./../vip/ahb_vip/ahb_agent.sv(20) @ 0: uvm_test_top.env.ahb_agt [ahb_agent] Active agent is configued
# ENTER SCOREBOARD BUILD PHASE
# UVM_INFO ./../vip/uart_vip/uart_agent.sv(25) @ 0: uvm_test_top.env.uart_agt [uart_agent] Active agent is configured
# UVM_INFO /ictc/other/tools/QuestaDVA/questasim/verilog_src/uvm-1.2/src/base/uvm_root.svh(579) @ 0: reporter [UVMTOP] UVM testbench topology:
# ----------------------------------------------------------------------------
# Name                       Type                                  Size  Value
# ----------------------------------------------------------------------------
# uvm_test_top               uart_rxd_parity_status                -     @347 
#   env                      dut_environment                       -     @371 
#     ahb_agt                ahb_agent                             -     @392 
#       driver               ahb_driver                            -     @499 
#         rsp_port           uvm_analysis_port                     -     @518 
#         seq_item_port      uvm_seq_item_pull_port                -     @508 
#       monitor              ahb_monitor                           -     @665 
#         a_port             uvm_analysis_port                     -     @674 
#       sequencer            ahb_sequencer                         -     @528 
#         rsp_export         uvm_analysis_export                   -     @537 
#         seq_item_export    uvm_seq_item_pull_imp                 -     @655 
#         arbitration_queue  array                                 0     -    
#         lock_queue         array                                 0     -    
#         num_last_reqs      integral                              32    'd1  
#         num_last_rsps      integral                              32    'd1  
#     ahb_predictor          uvm_reg_predictor #(ahb_transaction)  -     @410 
#       bus_in               uvm_analysis_imp                      -     @419 
#       reg_ap               uvm_analysis_port                     -     @429 
#     dut_sb                 dut_scoreboard                        -     @383 
#       ahb_a_export         uvm_analysis_imp_ahb                  -     @694 
#       interrupt_a_export   uvm_analysis_imp_interrupt            -     @714 
#       uart_a_export        uvm_analysis_imp_uart                 -     @704 
#     uart_agt               uart_agent                            -     @401 
#       driver               uart_driver                           -     @730 
#         rsp_port           uvm_analysis_port                     -     @749 
#         seq_item_port      uvm_seq_item_pull_port                -     @739 
#         uart_a_port        uvm_analysis_port                     -     @759 
#       monitor              uart_monitor                          -     @769 
#         interrupt_a_port   uvm_analysis_port                     -     @788 
#         uart_a_port        uvm_analysis_port                     -     @778 
#       sequencer            uart_sequencer                        -     @798 
#         rsp_export         uvm_analysis_export                   -     @807 
#         seq_item_export    uvm_seq_item_pull_imp                 -     @925 
#         arbitration_queue  array                                 0     -    
#         lock_queue         array                                 0     -    
#         num_last_reqs      integral                              32    'd1  
#         num_last_rsps      integral                              32    'd1  
# ----------------------------------------------------------------------------
# 
# UVM_INFO /ictc/other/tools/QuestaDVA/questasim/verilog_src/uvm-1.2/src/base/uvm_traversal.svh(279) @ 0: reporter [UVM/COMP/NAMECHECK] This implementation of the component name checks requires DPI to be enabled
# UVM_INFO ./../testcases/uart_rxd_parity_status.sv(40) @ 0: uvm_test_top [uart_rxd_parity_status] -------------------------------------------------------------
# Name                Type                Size  Value          
# -------------------------------------------------------------
# cfg                 uart_configuration  -     @360           
#   parity_mode       parity_mode_e       32    UART_PARITY_ODD
#   sampling          sampling_mode_e     32    MODE_X16       
#   data_width        integral            32    'h5            
#   num_of_stop_bit   integral            32    'h1            
#   baud_rate         integral            32    'h960          
#   baud_rate_enable  integral            1     'h0            
#   parity_enable     integral            1     'h1            
#   interrupt_enable  integral            1     'h0            
# -------------------------------------------------------------
# 
# UVM_INFO ./../regmodel/uart_reg2ahb_adapter.sv(42) @ 0: reporter [uart_reg2ahb_adapter] bus2reg: address = 0x0 data = 0x0 kind = UVM_WRITE status = UVM_IS_OK
# UVM_INFO /ictc/other/tools/QuestaDVA/questasim/verilog_src/uvm-1.2/src/reg/uvm_reg_predictor.svh(221) @ 0: uvm_test_top.env.ahb_predictor [REG_PREDICT] Observed WRITE transaction to register regmodel.MDR: value='h0 : updated value = 'h0
# UVM_INFO ./../regmodel/uart_reg2ahb_adapter.sv(42) @ 0: reporter [uart_reg2ahb_adapter] bus2reg: address = 0x4 data = 0x2c kind = UVM_WRITE status = UVM_IS_OK
# UVM_INFO /ictc/other/tools/QuestaDVA/questasim/verilog_src/uvm-1.2/src/reg/uvm_reg_predictor.svh(221) @ 0: uvm_test_top.env.ahb_predictor [REG_PREDICT] Observed WRITE transaction to register regmodel.DLL: value='h2c : updated value = 'h2c
# UVM_INFO ./../regmodel/uart_reg2ahb_adapter.sv(42) @ 0: reporter [uart_reg2ahb_adapter] bus2reg: address = 0x8 data = 0xa kind = UVM_WRITE status = UVM_IS_OK
# UVM_INFO /ictc/other/tools/QuestaDVA/questasim/verilog_src/uvm-1.2/src/reg/uvm_reg_predictor.svh(221) @ 0: uvm_test_top.env.ahb_predictor [REG_PREDICT] Observed WRITE transaction to register regmodel.DLH: value='ha : updated value = 'ha
# UVM_INFO ./../regmodel/uart_reg2ahb_adapter.sv(42) @ 0: reporter [uart_reg2ahb_adapter] bus2reg: address = 0xc data = 0x28 kind = UVM_WRITE status = UVM_IS_OK
# UVM_INFO /ictc/other/tools/QuestaDVA/questasim/verilog_src/uvm-1.2/src/reg/uvm_reg_predictor.svh(221) @ 0: uvm_test_top.env.ahb_predictor [REG_PREDICT] Observed WRITE transaction to register regmodel.LCR: value='h28 : updated value = 'h28
# UVM_INFO ./../regmodel/uart_reg2ahb_adapter.sv(42) @ 1000: reporter [uart_reg2ahb_adapter] bus2reg: address = 0x10 data = 0x10 kind = UVM_WRITE status = UVM_IS_OK
# UVM_INFO /ictc/other/tools/QuestaDVA/questasim/verilog_src/uvm-1.2/src/reg/uvm_reg_predictor.svh(221) @ 1000: uvm_test_top.env.ahb_predictor [REG_PREDICT] Observed WRITE transaction to register regmodel.IER: value='h10 : updated value = 'h10
# UVM_INFO ./../regmodel/uart_reg2ahb_adapter.sv(27) @ 6665000: reporter [uart_reg2ahb_adapter] reg2bus: address = 0x14 data = 0x0 kind = READ
# UVM_INFO ./../regmodel/uart_reg2ahb_adapter.sv(42) @ 6665000: reporter [uart_reg2ahb_adapter] bus2reg: address = 0x14 data = 0x1a kind = UVM_READ status = UVM_IS_OK
# UVM_INFO /ictc/other/tools/QuestaDVA/questasim/verilog_src/uvm-1.2/src/reg/uvm_reg_predictor.svh(225) @ 6665000: uvm_test_top.env.ahb_predictor [REG_PREDICT] Observed READ transaction to register regmodel.FSR: value='h1a
# UVM_INFO ./../regmodel/uart_reg2ahb_adapter.sv(42) @ 6675000: reporter [uart_reg2ahb_adapter] bus2reg: address = 0x14 data = 0x1a kind = UVM_READ status = UVM_IS_OK
# UVM_INFO @ 6675000: reporter [RegModel] Read  register via map regmodel.ahb_map: regmodel.FSR=1a
# UVM_INFO ./../regmodel/uart_reg2ahb_adapter.sv(27) @ 6675000: reporter [uart_reg2ahb_adapter] reg2bus: address = 0x14 data = 0x0 kind = READ
# UVM_INFO ./../regmodel/uart_reg2ahb_adapter.sv(42) @ 6675000: reporter [uart_reg2ahb_adapter] bus2reg: address = 0x14 data = 0x12 kind = UVM_READ status = UVM_IS_OK
# UVM_INFO /ictc/other/tools/QuestaDVA/questasim/verilog_src/uvm-1.2/src/reg/uvm_reg_predictor.svh(225) @ 6675000: uvm_test_top.env.ahb_predictor [REG_PREDICT] Observed READ transaction to register regmodel.FSR: value='h12
# UVM_INFO ./../regmodel/uart_reg2ahb_adapter.sv(42) @ 6685000: reporter [uart_reg2ahb_adapter] bus2reg: address = 0x14 data = 0x12 kind = UVM_READ status = UVM_IS_OK
# UVM_INFO @ 6685000: reporter [RegModel] Read  register via map regmodel.ahb_map: regmodel.FSR=12
# UVM_INFO ./../regmodel/uart_reg2ahb_adapter.sv(27) @ 6685000: reporter [uart_reg2ahb_adapter] reg2bus: address = 0x14 data = 0x0 kind = READ
# UVM_INFO ./../regmodel/uart_reg2ahb_adapter.sv(42) @ 6685000: reporter [uart_reg2ahb_adapter] bus2reg: address = 0x14 data = 0x12 kind = UVM_READ status = UVM_IS_OK
# UVM_INFO /ictc/other/tools/QuestaDVA/questasim/verilog_src/uvm-1.2/src/reg/uvm_reg_predictor.svh(225) @ 6685000: uvm_test_top.env.ahb_predictor [REG_PREDICT] Observed READ transaction to register regmodel.FSR: value='h12
# UVM_INFO ./../regmodel/uart_reg2ahb_adapter.sv(42) @ 6695000: reporter [uart_reg2ahb_adapter] bus2reg: address = 0x14 data = 0x12 kind = UVM_READ status = UVM_IS_OK
# UVM_INFO @ 6695000: reporter [RegModel] Read  register via map regmodel.ahb_map: regmodel.FSR=12
# UVM_INFO ./../sequences/ahb_rxd_read_parity_status_sequence.sv(47) @ 6695000: uvm_test_top.env.ahb_agt.sequencer@@ahb_read [ahb_rxd_read_parity_status_sequence] 
# ===== PASSED SUCCESSFULLY!!! =====
# UVM_INFO ./../testcases/uart_rxd_parity_status.sv(40) @ 16695000: uvm_test_top [uart_rxd_parity_status] -------------------------------------------------------------
# Name                Type                Size  Value          
# -------------------------------------------------------------
# cfg                 uart_configuration  -     @360           
#   parity_mode       parity_mode_e       32    UART_PARITY_ODD
#   sampling          sampling_mode_e     32    MODE_X13       
#   data_width        integral            32    'h5            
#   num_of_stop_bit   integral            32    'h1            
#   baud_rate         integral            32    'h960          
#   baud_rate_enable  integral            1     'h0            
#   parity_enable     integral            1     'h1            
#   interrupt_enable  integral            1     'h0            
# -------------------------------------------------------------
# 
# UVM_INFO ./../regmodel/uart_reg2ahb_adapter.sv(42) @ 16695000: reporter [uart_reg2ahb_adapter] bus2reg: address = 0x0 data = 0x1 kind = UVM_WRITE status = UVM_IS_OK
# UVM_INFO /ictc/other/tools/QuestaDVA/questasim/verilog_src/uvm-1.2/src/reg/uvm_reg_predictor.svh(221) @ 16695000: uvm_test_top.env.ahb_predictor [REG_PREDICT] Observed WRITE transaction to register regmodel.MDR: value='h1 : updated value = 'h1
# UVM_INFO ./../regmodel/uart_reg2ahb_adapter.sv(42) @ 16695000: reporter [uart_reg2ahb_adapter] bus2reg: address = 0x4 data = 0x85 kind = UVM_WRITE status = UVM_IS_OK
# UVM_INFO /ictc/other/tools/QuestaDVA/questasim/verilog_src/uvm-1.2/src/reg/uvm_reg_predictor.svh(221) @ 16695000: uvm_test_top.env.ahb_predictor [REG_PREDICT] Observed WRITE transaction to register regmodel.DLL: value='h85 : updated value = 'h85
# UVM_INFO ./../regmodel/uart_reg2ahb_adapter.sv(42) @ 16695000: reporter [uart_reg2ahb_adapter] bus2reg: address = 0x8 data = 0xc kind = UVM_WRITE status = UVM_IS_OK
# UVM_INFO /ictc/other/tools/QuestaDVA/questasim/verilog_src/uvm-1.2/src/reg/uvm_reg_predictor.svh(221) @ 16695000: uvm_test_top.env.ahb_predictor [REG_PREDICT] Observed WRITE transaction to register regmodel.DLH: value='hc : updated value = 'hc
# UVM_INFO ./../regmodel/uart_reg2ahb_adapter.sv(42) @ 16695000: reporter [uart_reg2ahb_adapter] bus2reg: address = 0xc data = 0x28 kind = UVM_WRITE status = UVM_IS_OK
# UVM_INFO /ictc/other/tools/QuestaDVA/questasim/verilog_src/uvm-1.2/src/reg/uvm_reg_predictor.svh(221) @ 16695000: uvm_test_top.env.ahb_predictor [REG_PREDICT] Observed WRITE transaction to register regmodel.LCR: value='h28 : updated value = 'h28
# UVM_INFO ./../regmodel/uart_reg2ahb_adapter.sv(42) @ 16695000: reporter [uart_reg2ahb_adapter] bus2reg: address = 0x10 data = 0x10 kind = UVM_WRITE status = UVM_IS_OK
# UVM_INFO /ictc/other/tools/QuestaDVA/questasim/verilog_src/uvm-1.2/src/reg/uvm_reg_predictor.svh(221) @ 16695000: uvm_test_top.env.ahb_predictor [REG_PREDICT] Observed WRITE transaction to register regmodel.IER: value='h10 : updated value = 'h10
# UVM_INFO ./../regmodel/uart_reg2ahb_adapter.sv(27) @ 23359000: reporter [uart_reg2ahb_adapter] reg2bus: address = 0x14 data = 0x0 kind = READ
# UVM_INFO ./../regmodel/uart_reg2ahb_adapter.sv(42) @ 23359000: reporter [uart_reg2ahb_adapter] bus2reg: address = 0x14 data = 0x12 kind = UVM_READ status = UVM_IS_OK
# UVM_INFO /ictc/other/tools/QuestaDVA/questasim/verilog_src/uvm-1.2/src/reg/uvm_reg_predictor.svh(225) @ 23359000: uvm_test_top.env.ahb_predictor [REG_PREDICT] Observed READ transaction to register regmodel.FSR: value='h12
# UVM_INFO ./../regmodel/uart_reg2ahb_adapter.sv(42) @ 23369000: reporter [uart_reg2ahb_adapter] bus2reg: address = 0x14 data = 0x12 kind = UVM_READ status = UVM_IS_OK
# UVM_INFO @ 23369000: reporter [RegModel] Read  register via map regmodel.ahb_map: regmodel.FSR=12
# UVM_INFO ./../regmodel/uart_reg2ahb_adapter.sv(27) @ 23369000: reporter [uart_reg2ahb_adapter] reg2bus: address = 0x14 data = 0x0 kind = READ
# UVM_INFO ./../regmodel/uart_reg2ahb_adapter.sv(42) @ 23369000: reporter [uart_reg2ahb_adapter] bus2reg: address = 0x14 data = 0x12 kind = UVM_READ status = UVM_IS_OK
# UVM_INFO /ictc/other/tools/QuestaDVA/questasim/verilog_src/uvm-1.2/src/reg/uvm_reg_predictor.svh(225) @ 23369000: uvm_test_top.env.ahb_predictor [REG_PREDICT] Observed READ transaction to register regmodel.FSR: value='h12
# UVM_INFO ./../regmodel/uart_reg2ahb_adapter.sv(42) @ 23379000: reporter [uart_reg2ahb_adapter] bus2reg: address = 0x14 data = 0x12 kind = UVM_READ status = UVM_IS_OK
# UVM_INFO @ 23379000: reporter [RegModel] Read  register via map regmodel.ahb_map: regmodel.FSR=12
# UVM_INFO ./../sequences/ahb_rxd_read_parity_status_sequence.sv(47) @ 23379000: uvm_test_top.env.ahb_agt.sequencer@@ahb_read [ahb_rxd_read_parity_status_sequence] 
# ===== PASSED SUCCESSFULLY!!! =====
# UVM_INFO ./../testcases/uart_rxd_parity_status.sv(40) @ 33379000: uvm_test_top [uart_rxd_parity_status] -------------------------------------------------------------
# Name                Type                Size  Value          
# -------------------------------------------------------------
# cfg                 uart_configuration  -     @360           
#   parity_mode       parity_mode_e       32    UART_PARITY_ODD
#   sampling          sampling_mode_e     32    MODE_X16       
#   data_width        integral            32    'h5            
#   num_of_stop_bit   integral            32    'h1            
#   baud_rate         integral            32    'h12c0         
#   baud_rate_enable  integral            1     'h0            
#   parity_enable     integral            1     'h1            
#   interrupt_enable  integral            1     'h0            
# -------------------------------------------------------------
# 
# UVM_INFO ./../regmodel/uart_reg2ahb_adapter.sv(42) @ 33379000: reporter [uart_reg2ahb_adapter] bus2reg: address = 0x0 data = 0x0 kind = UVM_WRITE status = UVM_IS_OK
# UVM_INFO /ictc/other/tools/QuestaDVA/questasim/verilog_src/uvm-1.2/src/reg/uvm_reg_predictor.svh(221) @ 33379000: uvm_test_top.env.ahb_predictor [REG_PREDICT] Observed WRITE transaction to register regmodel.MDR: value='h0 : updated value = 'h0
# UVM_INFO ./../regmodel/uart_reg2ahb_adapter.sv(42) @ 33379000: reporter [uart_reg2ahb_adapter] bus2reg: address = 0x4 data = 0x16 kind = UVM_WRITE status = UVM_IS_OK
# UVM_INFO /ictc/other/tools/QuestaDVA/questasim/verilog_src/uvm-1.2/src/reg/uvm_reg_predictor.svh(221) @ 33379000: uvm_test_top.env.ahb_predictor [REG_PREDICT] Observed WRITE transaction to register regmodel.DLL: value='h16 : updated value = 'h16
# UVM_INFO ./../regmodel/uart_reg2ahb_adapter.sv(42) @ 33380000: reporter [uart_reg2ahb_adapter] bus2reg: address = 0x8 data = 0x5 kind = UVM_WRITE status = UVM_IS_OK
# UVM_INFO /ictc/other/tools/QuestaDVA/questasim/verilog_src/uvm-1.2/src/reg/uvm_reg_predictor.svh(221) @ 33380000: uvm_test_top.env.ahb_predictor [REG_PREDICT] Observed WRITE transaction to register regmodel.DLH: value='h5 : updated value = 'h5
# UVM_INFO ./../regmodel/uart_reg2ahb_adapter.sv(42) @ 33380000: reporter [uart_reg2ahb_adapter] bus2reg: address = 0xc data = 0x28 kind = UVM_WRITE status = UVM_IS_OK
# UVM_INFO /ictc/other/tools/QuestaDVA/questasim/verilog_src/uvm-1.2/src/reg/uvm_reg_predictor.svh(221) @ 33380000: uvm_test_top.env.ahb_predictor [REG_PREDICT] Observed WRITE transaction to register regmodel.LCR: value='h28 : updated value = 'h28
# UVM_INFO ./../regmodel/uart_reg2ahb_adapter.sv(42) @ 33380000: reporter [uart_reg2ahb_adapter] bus2reg: address = 0x10 data = 0x10 kind = UVM_WRITE status = UVM_IS_OK
# UVM_INFO /ictc/other/tools/QuestaDVA/questasim/verilog_src/uvm-1.2/src/reg/uvm_reg_predictor.svh(221) @ 33380000: uvm_test_top.env.ahb_predictor [REG_PREDICT] Observed WRITE transaction to register regmodel.IER: value='h10 : updated value = 'h10
# UVM_INFO ./../regmodel/uart_reg2ahb_adapter.sv(27) @ 36716000: reporter [uart_reg2ahb_adapter] reg2bus: address = 0x14 data = 0x0 kind = READ
# UVM_INFO ./../regmodel/uart_reg2ahb_adapter.sv(42) @ 36716000: reporter [uart_reg2ahb_adapter] bus2reg: address = 0x14 data = 0x12 kind = UVM_READ status = UVM_IS_OK
# UVM_INFO /ictc/other/tools/QuestaDVA/questasim/verilog_src/uvm-1.2/src/reg/uvm_reg_predictor.svh(225) @ 36716000: uvm_test_top.env.ahb_predictor [REG_PREDICT] Observed READ transaction to register regmodel.FSR: value='h12
# UVM_INFO ./../regmodel/uart_reg2ahb_adapter.sv(42) @ 36726000: reporter [uart_reg2ahb_adapter] bus2reg: address = 0x14 data = 0x12 kind = UVM_READ status = UVM_IS_OK
# UVM_INFO @ 36726000: reporter [RegModel] Read  register via map regmodel.ahb_map: regmodel.FSR=12
# UVM_INFO ./../regmodel/uart_reg2ahb_adapter.sv(27) @ 36726000: reporter [uart_reg2ahb_adapter] reg2bus: address = 0x14 data = 0x0 kind = READ
# UVM_INFO ./../regmodel/uart_reg2ahb_adapter.sv(42) @ 36726000: reporter [uart_reg2ahb_adapter] bus2reg: address = 0x14 data = 0x12 kind = UVM_READ status = UVM_IS_OK
# UVM_INFO /ictc/other/tools/QuestaDVA/questasim/verilog_src/uvm-1.2/src/reg/uvm_reg_predictor.svh(225) @ 36726000: uvm_test_top.env.ahb_predictor [REG_PREDICT] Observed READ transaction to register regmodel.FSR: value='h12
# UVM_INFO ./../regmodel/uart_reg2ahb_adapter.sv(42) @ 36736000: reporter [uart_reg2ahb_adapter] bus2reg: address = 0x14 data = 0x12 kind = UVM_READ status = UVM_IS_OK
# UVM_INFO @ 36736000: reporter [RegModel] Read  register via map regmodel.ahb_map: regmodel.FSR=12
# UVM_INFO ./../sequences/ahb_rxd_read_parity_status_sequence.sv(47) @ 36736000: uvm_test_top.env.ahb_agt.sequencer@@ahb_read [ahb_rxd_read_parity_status_sequence] 
# ===== PASSED SUCCESSFULLY!!! =====
# UVM_INFO ./../testcases/uart_rxd_parity_status.sv(40) @ 46736000: uvm_test_top [uart_rxd_parity_status] -------------------------------------------------------------
# Name                Type                Size  Value          
# -------------------------------------------------------------
# cfg                 uart_configuration  -     @360           
#   parity_mode       parity_mode_e       32    UART_PARITY_ODD
#   sampling          sampling_mode_e     32    MODE_X13       
#   data_width        integral            32    'h5            
#   num_of_stop_bit   integral            32    'h1            
#   baud_rate         integral            32    'h12c0         
#   baud_rate_enable  integral            1     'h0            
#   parity_enable     integral            1     'h1            
#   interrupt_enable  integral            1     'h0            
# -------------------------------------------------------------
# 
# UVM_INFO ./../regmodel/uart_reg2ahb_adapter.sv(42) @ 46736000: reporter [uart_reg2ahb_adapter] bus2reg: address = 0x0 data = 0x1 kind = UVM_WRITE status = UVM_IS_OK
# UVM_INFO /ictc/other/tools/QuestaDVA/questasim/verilog_src/uvm-1.2/src/reg/uvm_reg_predictor.svh(221) @ 46736000: uvm_test_top.env.ahb_predictor [REG_PREDICT] Observed WRITE transaction to register regmodel.MDR: value='h1 : updated value = 'h1
# UVM_INFO ./../regmodel/uart_reg2ahb_adapter.sv(42) @ 46736000: reporter [uart_reg2ahb_adapter] bus2reg: address = 0x4 data = 0x42 kind = UVM_WRITE status = UVM_IS_OK
# UVM_INFO /ictc/other/tools/QuestaDVA/questasim/verilog_src/uvm-1.2/src/reg/uvm_reg_predictor.svh(221) @ 46736000: uvm_test_top.env.ahb_predictor [REG_PREDICT] Observed WRITE transaction to register regmodel.DLL: value='h42 : updated value = 'h42
# UVM_INFO ./../regmodel/uart_reg2ahb_adapter.sv(42) @ 46736000: reporter [uart_reg2ahb_adapter] bus2reg: address = 0x8 data = 0x6 kind = UVM_WRITE status = UVM_IS_OK
# UVM_INFO /ictc/other/tools/QuestaDVA/questasim/verilog_src/uvm-1.2/src/reg/uvm_reg_predictor.svh(221) @ 46736000: uvm_test_top.env.ahb_predictor [REG_PREDICT] Observed WRITE transaction to register regmodel.DLH: value='h6 : updated value = 'h6
# UVM_INFO ./../regmodel/uart_reg2ahb_adapter.sv(42) @ 46736000: reporter [uart_reg2ahb_adapter] bus2reg: address = 0xc data = 0x28 kind = UVM_WRITE status = UVM_IS_OK
# UVM_INFO /ictc/other/tools/QuestaDVA/questasim/verilog_src/uvm-1.2/src/reg/uvm_reg_predictor.svh(221) @ 46736000: uvm_test_top.env.ahb_predictor [REG_PREDICT] Observed WRITE transaction to register regmodel.LCR: value='h28 : updated value = 'h28
# UVM_INFO ./../regmodel/uart_reg2ahb_adapter.sv(42) @ 46736000: reporter [uart_reg2ahb_adapter] bus2reg: address = 0x10 data = 0x10 kind = UVM_WRITE status = UVM_IS_OK
# UVM_INFO /ictc/other/tools/QuestaDVA/questasim/verilog_src/uvm-1.2/src/reg/uvm_reg_predictor.svh(221) @ 46736000: uvm_test_top.env.ahb_predictor [REG_PREDICT] Observed WRITE transaction to register regmodel.IER: value='h10 : updated value = 'h10
# UVM_INFO ./../regmodel/uart_reg2ahb_adapter.sv(27) @ 50072000: reporter [uart_reg2ahb_adapter] reg2bus: address = 0x14 data = 0x0 kind = READ
# UVM_INFO ./../regmodel/uart_reg2ahb_adapter.sv(42) @ 50072000: reporter [uart_reg2ahb_adapter] bus2reg: address = 0x14 data = 0x12 kind = UVM_READ status = UVM_IS_OK
# UVM_INFO /ictc/other/tools/QuestaDVA/questasim/verilog_src/uvm-1.2/src/reg/uvm_reg_predictor.svh(225) @ 50072000: uvm_test_top.env.ahb_predictor [REG_PREDICT] Observed READ transaction to register regmodel.FSR: value='h12
# UVM_INFO ./../regmodel/uart_reg2ahb_adapter.sv(42) @ 50082000: reporter [uart_reg2ahb_adapter] bus2reg: address = 0x14 data = 0x12 kind = UVM_READ status = UVM_IS_OK
# UVM_INFO @ 50082000: reporter [RegModel] Read  register via map regmodel.ahb_map: regmodel.FSR=12
# UVM_INFO ./../regmodel/uart_reg2ahb_adapter.sv(27) @ 50082000: reporter [uart_reg2ahb_adapter] reg2bus: address = 0x14 data = 0x0 kind = READ
# UVM_INFO ./../regmodel/uart_reg2ahb_adapter.sv(42) @ 50082000: reporter [uart_reg2ahb_adapter] bus2reg: address = 0x14 data = 0x12 kind = UVM_READ status = UVM_IS_OK
# UVM_INFO /ictc/other/tools/QuestaDVA/questasim/verilog_src/uvm-1.2/src/reg/uvm_reg_predictor.svh(225) @ 50082000: uvm_test_top.env.ahb_predictor [REG_PREDICT] Observed READ transaction to register regmodel.FSR: value='h12
# UVM_INFO ./../regmodel/uart_reg2ahb_adapter.sv(42) @ 50092000: reporter [uart_reg2ahb_adapter] bus2reg: address = 0x14 data = 0x12 kind = UVM_READ status = UVM_IS_OK
# UVM_INFO @ 50092000: reporter [RegModel] Read  register via map regmodel.ahb_map: regmodel.FSR=12
# UVM_INFO ./../sequences/ahb_rxd_read_parity_status_sequence.sv(47) @ 50092000: uvm_test_top.env.ahb_agt.sequencer@@ahb_read [ahb_rxd_read_parity_status_sequence] 
# ===== PASSED SUCCESSFULLY!!! =====
# UVM_INFO ./../testcases/uart_rxd_parity_status.sv(40) @ 60092000: uvm_test_top [uart_rxd_parity_status] -------------------------------------------------------------
# Name                Type                Size  Value          
# -------------------------------------------------------------
# cfg                 uart_configuration  -     @360           
#   parity_mode       parity_mode_e       32    UART_PARITY_ODD
#   sampling          sampling_mode_e     32    MODE_X16       
#   data_width        integral            32    'h5            
#   num_of_stop_bit   integral            32    'h1            
#   baud_rate         integral            32    'h2580         
#   baud_rate_enable  integral            1     'h0            
#   parity_enable     integral            1     'h1            
#   interrupt_enable  integral            1     'h0            
# -------------------------------------------------------------
# 
# UVM_INFO ./../regmodel/uart_reg2ahb_adapter.sv(42) @ 60093000: reporter [uart_reg2ahb_adapter] bus2reg: address = 0x0 data = 0x0 kind = UVM_WRITE status = UVM_IS_OK
# UVM_INFO /ictc/other/tools/QuestaDVA/questasim/verilog_src/uvm-1.2/src/reg/uvm_reg_predictor.svh(221) @ 60093000: uvm_test_top.env.ahb_predictor [REG_PREDICT] Observed WRITE transaction to register regmodel.MDR: value='h0 : updated value = 'h0
# UVM_INFO ./../regmodel/uart_reg2ahb_adapter.sv(42) @ 60093000: reporter [uart_reg2ahb_adapter] bus2reg: address = 0x4 data = 0x8b kind = UVM_WRITE status = UVM_IS_OK
# UVM_INFO /ictc/other/tools/QuestaDVA/questasim/verilog_src/uvm-1.2/src/reg/uvm_reg_predictor.svh(221) @ 60093000: uvm_test_top.env.ahb_predictor [REG_PREDICT] Observed WRITE transaction to register regmodel.DLL: value='h8b : updated value = 'h8b
# UVM_INFO ./../regmodel/uart_reg2ahb_adapter.sv(42) @ 60093000: reporter [uart_reg2ahb_adapter] bus2reg: address = 0x8 data = 0x2 kind = UVM_WRITE status = UVM_IS_OK
# UVM_INFO /ictc/other/tools/QuestaDVA/questasim/verilog_src/uvm-1.2/src/reg/uvm_reg_predictor.svh(221) @ 60093000: uvm_test_top.env.ahb_predictor [REG_PREDICT] Observed WRITE transaction to register regmodel.DLH: value='h2 : updated value = 'h2
# UVM_INFO ./../regmodel/uart_reg2ahb_adapter.sv(42) @ 60093000: reporter [uart_reg2ahb_adapter] bus2reg: address = 0xc data = 0x28 kind = UVM_WRITE status = UVM_IS_OK
# UVM_INFO /ictc/other/tools/QuestaDVA/questasim/verilog_src/uvm-1.2/src/reg/uvm_reg_predictor.svh(221) @ 60093000: uvm_test_top.env.ahb_predictor [REG_PREDICT] Observed WRITE transaction to register regmodel.LCR: value='h28 : updated value = 'h28
# UVM_INFO ./../regmodel/uart_reg2ahb_adapter.sv(42) @ 60093000: reporter [uart_reg2ahb_adapter] bus2reg: address = 0x10 data = 0x10 kind = UVM_WRITE status = UVM_IS_OK
# UVM_INFO /ictc/other/tools/QuestaDVA/questasim/verilog_src/uvm-1.2/src/reg/uvm_reg_predictor.svh(221) @ 60093000: uvm_test_top.env.ahb_predictor [REG_PREDICT] Observed WRITE transaction to register regmodel.IER: value='h10 : updated value = 'h10
# UVM_INFO ./../regmodel/uart_reg2ahb_adapter.sv(27) @ 61757000: reporter [uart_reg2ahb_adapter] reg2bus: address = 0x14 data = 0x0 kind = READ
# UVM_INFO ./../regmodel/uart_reg2ahb_adapter.sv(42) @ 61757000: reporter [uart_reg2ahb_adapter] bus2reg: address = 0x14 data = 0x12 kind = UVM_READ status = UVM_IS_OK
# UVM_INFO /ictc/other/tools/QuestaDVA/questasim/verilog_src/uvm-1.2/src/reg/uvm_reg_predictor.svh(225) @ 61757000: uvm_test_top.env.ahb_predictor [REG_PREDICT] Observed READ transaction to register regmodel.FSR: value='h12
# UVM_INFO ./../regmodel/uart_reg2ahb_adapter.sv(42) @ 61767000: reporter [uart_reg2ahb_adapter] bus2reg: address = 0x14 data = 0x12 kind = UVM_READ status = UVM_IS_OK
# UVM_INFO @ 61767000: reporter [RegModel] Read  register via map regmodel.ahb_map: regmodel.FSR=12
# UVM_INFO ./../regmodel/uart_reg2ahb_adapter.sv(27) @ 61767000: reporter [uart_reg2ahb_adapter] reg2bus: address = 0x14 data = 0x0 kind = READ
# UVM_INFO ./../regmodel/uart_reg2ahb_adapter.sv(42) @ 61767000: reporter [uart_reg2ahb_adapter] bus2reg: address = 0x14 data = 0x12 kind = UVM_READ status = UVM_IS_OK
# UVM_INFO /ictc/other/tools/QuestaDVA/questasim/verilog_src/uvm-1.2/src/reg/uvm_reg_predictor.svh(225) @ 61767000: uvm_test_top.env.ahb_predictor [REG_PREDICT] Observed READ transaction to register regmodel.FSR: value='h12
# UVM_INFO ./../regmodel/uart_reg2ahb_adapter.sv(42) @ 61777000: reporter [uart_reg2ahb_adapter] bus2reg: address = 0x14 data = 0x12 kind = UVM_READ status = UVM_IS_OK
# UVM_INFO @ 61777000: reporter [RegModel] Read  register via map regmodel.ahb_map: regmodel.FSR=12
# UVM_INFO ./../sequences/ahb_rxd_read_parity_status_sequence.sv(47) @ 61777000: uvm_test_top.env.ahb_agt.sequencer@@ahb_read [ahb_rxd_read_parity_status_sequence] 
# ===== PASSED SUCCESSFULLY!!! =====
# UVM_INFO ./../testcases/uart_rxd_parity_status.sv(40) @ 71777000: uvm_test_top [uart_rxd_parity_status] -------------------------------------------------------------
# Name                Type                Size  Value          
# -------------------------------------------------------------
# cfg                 uart_configuration  -     @360           
#   parity_mode       parity_mode_e       32    UART_PARITY_ODD
#   sampling          sampling_mode_e     32    MODE_X13       
#   data_width        integral            32    'h5            
#   num_of_stop_bit   integral            32    'h1            
#   baud_rate         integral            32    'h2580         
#   baud_rate_enable  integral            1     'h0            
#   parity_enable     integral            1     'h1            
#   interrupt_enable  integral            1     'h0            
# -------------------------------------------------------------
# 
# UVM_INFO ./../regmodel/uart_reg2ahb_adapter.sv(42) @ 71777000: reporter [uart_reg2ahb_adapter] bus2reg: address = 0x0 data = 0x1 kind = UVM_WRITE status = UVM_IS_OK
# UVM_INFO /ictc/other/tools/QuestaDVA/questasim/verilog_src/uvm-1.2/src/reg/uvm_reg_predictor.svh(221) @ 71777000: uvm_test_top.env.ahb_predictor [REG_PREDICT] Observed WRITE transaction to register regmodel.MDR: value='h1 : updated value = 'h1
# UVM_INFO ./../regmodel/uart_reg2ahb_adapter.sv(42) @ 71777000: reporter [uart_reg2ahb_adapter] bus2reg: address = 0x4 data = 0x21 kind = UVM_WRITE status = UVM_IS_OK
# UVM_INFO /ictc/other/tools/QuestaDVA/questasim/verilog_src/uvm-1.2/src/reg/uvm_reg_predictor.svh(221) @ 71777000: uvm_test_top.env.ahb_predictor [REG_PREDICT] Observed WRITE transaction to register regmodel.DLL: value='h21 : updated value = 'h21
# UVM_INFO ./../regmodel/uart_reg2ahb_adapter.sv(42) @ 71777000: reporter [uart_reg2ahb_adapter] bus2reg: address = 0x8 data = 0x3 kind = UVM_WRITE status = UVM_IS_OK
# UVM_INFO /ictc/other/tools/QuestaDVA/questasim/verilog_src/uvm-1.2/src/reg/uvm_reg_predictor.svh(221) @ 71777000: uvm_test_top.env.ahb_predictor [REG_PREDICT] Observed WRITE transaction to register regmodel.DLH: value='h3 : updated value = 'h3
# UVM_INFO ./../regmodel/uart_reg2ahb_adapter.sv(42) @ 71777000: reporter [uart_reg2ahb_adapter] bus2reg: address = 0xc data = 0x28 kind = UVM_WRITE status = UVM_IS_OK
# UVM_INFO /ictc/other/tools/QuestaDVA/questasim/verilog_src/uvm-1.2/src/reg/uvm_reg_predictor.svh(221) @ 71777000: uvm_test_top.env.ahb_predictor [REG_PREDICT] Observed WRITE transaction to register regmodel.LCR: value='h28 : updated value = 'h28
# UVM_INFO ./../regmodel/uart_reg2ahb_adapter.sv(42) @ 71777000: reporter [uart_reg2ahb_adapter] bus2reg: address = 0x10 data = 0x10 kind = UVM_WRITE status = UVM_IS_OK
# UVM_INFO /ictc/other/tools/QuestaDVA/questasim/verilog_src/uvm-1.2/src/reg/uvm_reg_predictor.svh(221) @ 71777000: uvm_test_top.env.ahb_predictor [REG_PREDICT] Observed WRITE transaction to register regmodel.IER: value='h10 : updated value = 'h10
# UVM_INFO ./../regmodel/uart_reg2ahb_adapter.sv(27) @ 73441000: reporter [uart_reg2ahb_adapter] reg2bus: address = 0x14 data = 0x0 kind = READ
# UVM_INFO ./../regmodel/uart_reg2ahb_adapter.sv(42) @ 73442000: reporter [uart_reg2ahb_adapter] bus2reg: address = 0x14 data = 0x12 kind = UVM_READ status = UVM_IS_OK
# UVM_INFO /ictc/other/tools/QuestaDVA/questasim/verilog_src/uvm-1.2/src/reg/uvm_reg_predictor.svh(225) @ 73442000: uvm_test_top.env.ahb_predictor [REG_PREDICT] Observed READ transaction to register regmodel.FSR: value='h12
# UVM_INFO ./../regmodel/uart_reg2ahb_adapter.sv(42) @ 73452000: reporter [uart_reg2ahb_adapter] bus2reg: address = 0x14 data = 0x12 kind = UVM_READ status = UVM_IS_OK
# UVM_INFO @ 73452000: reporter [RegModel] Read  register via map regmodel.ahb_map: regmodel.FSR=12
# UVM_INFO ./../regmodel/uart_reg2ahb_adapter.sv(27) @ 73452000: reporter [uart_reg2ahb_adapter] reg2bus: address = 0x14 data = 0x0 kind = READ
# UVM_INFO ./../regmodel/uart_reg2ahb_adapter.sv(42) @ 73452000: reporter [uart_reg2ahb_adapter] bus2reg: address = 0x14 data = 0x12 kind = UVM_READ status = UVM_IS_OK
# UVM_INFO /ictc/other/tools/QuestaDVA/questasim/verilog_src/uvm-1.2/src/reg/uvm_reg_predictor.svh(225) @ 73452000: uvm_test_top.env.ahb_predictor [REG_PREDICT] Observed READ transaction to register regmodel.FSR: value='h12
# UVM_INFO ./../regmodel/uart_reg2ahb_adapter.sv(42) @ 73462000: reporter [uart_reg2ahb_adapter] bus2reg: address = 0x14 data = 0x12 kind = UVM_READ status = UVM_IS_OK
# UVM_INFO @ 73462000: reporter [RegModel] Read  register via map regmodel.ahb_map: regmodel.FSR=12
# UVM_INFO ./../sequences/ahb_rxd_read_parity_status_sequence.sv(47) @ 73462000: uvm_test_top.env.ahb_agt.sequencer@@ahb_read [ahb_rxd_read_parity_status_sequence] 
# ===== PASSED SUCCESSFULLY!!! =====
# UVM_INFO ./../testcases/uart_rxd_parity_status.sv(40) @ 83462000: uvm_test_top [uart_rxd_parity_status] -------------------------------------------------------------
# Name                Type                Size  Value          
# -------------------------------------------------------------
# cfg                 uart_configuration  -     @360           
#   parity_mode       parity_mode_e       32    UART_PARITY_ODD
#   sampling          sampling_mode_e     32    MODE_X16       
#   data_width        integral            32    'h5            
#   num_of_stop_bit   integral            32    'h1            
#   baud_rate         integral            32    'h4b00         
#   baud_rate_enable  integral            1     'h0            
#   parity_enable     integral            1     'h1            
#   interrupt_enable  integral            1     'h0            
# -------------------------------------------------------------
# 
# UVM_INFO ./../regmodel/uart_reg2ahb_adapter.sv(42) @ 83462000: reporter [uart_reg2ahb_adapter] bus2reg: address = 0x0 data = 0x0 kind = UVM_WRITE status = UVM_IS_OK
# UVM_INFO /ictc/other/tools/QuestaDVA/questasim/verilog_src/uvm-1.2/src/reg/uvm_reg_predictor.svh(221) @ 83462000: uvm_test_top.env.ahb_predictor [REG_PREDICT] Observed WRITE transaction to register regmodel.MDR: value='h0 : updated value = 'h0
# UVM_INFO ./../regmodel/uart_reg2ahb_adapter.sv(42) @ 83462000: reporter [uart_reg2ahb_adapter] bus2reg: address = 0x4 data = 0x45 kind = UVM_WRITE status = UVM_IS_OK
# UVM_INFO /ictc/other/tools/QuestaDVA/questasim/verilog_src/uvm-1.2/src/reg/uvm_reg_predictor.svh(221) @ 83462000: uvm_test_top.env.ahb_predictor [REG_PREDICT] Observed WRITE transaction to register regmodel.DLL: value='h45 : updated value = 'h45
# UVM_INFO ./../regmodel/uart_reg2ahb_adapter.sv(42) @ 83462000: reporter [uart_reg2ahb_adapter] bus2reg: address = 0x8 data = 0x1 kind = UVM_WRITE status = UVM_IS_OK
# UVM_INFO /ictc/other/tools/QuestaDVA/questasim/verilog_src/uvm-1.2/src/reg/uvm_reg_predictor.svh(221) @ 83462000: uvm_test_top.env.ahb_predictor [REG_PREDICT] Observed WRITE transaction to register regmodel.DLH: value='h1 : updated value = 'h1
# UVM_INFO ./../regmodel/uart_reg2ahb_adapter.sv(42) @ 83462000: reporter [uart_reg2ahb_adapter] bus2reg: address = 0xc data = 0x28 kind = UVM_WRITE status = UVM_IS_OK
# UVM_INFO /ictc/other/tools/QuestaDVA/questasim/verilog_src/uvm-1.2/src/reg/uvm_reg_predictor.svh(221) @ 83462000: uvm_test_top.env.ahb_predictor [REG_PREDICT] Observed WRITE transaction to register regmodel.LCR: value='h28 : updated value = 'h28
# UVM_INFO ./../regmodel/uart_reg2ahb_adapter.sv(42) @ 83462000: reporter [uart_reg2ahb_adapter] bus2reg: address = 0x10 data = 0x10 kind = UVM_WRITE status = UVM_IS_OK
# UVM_INFO /ictc/other/tools/QuestaDVA/questasim/verilog_src/uvm-1.2/src/reg/uvm_reg_predictor.svh(221) @ 83462000: uvm_test_top.env.ahb_predictor [REG_PREDICT] Observed WRITE transaction to register regmodel.IER: value='h10 : updated value = 'h10
# UVM_INFO ./../regmodel/uart_reg2ahb_adapter.sv(27) @ 84294000: reporter [uart_reg2ahb_adapter] reg2bus: address = 0x14 data = 0x0 kind = READ
# UVM_INFO ./../regmodel/uart_reg2ahb_adapter.sv(42) @ 84294000: reporter [uart_reg2ahb_adapter] bus2reg: address = 0x14 data = 0x12 kind = UVM_READ status = UVM_IS_OK
# UVM_INFO /ictc/other/tools/QuestaDVA/questasim/verilog_src/uvm-1.2/src/reg/uvm_reg_predictor.svh(225) @ 84294000: uvm_test_top.env.ahb_predictor [REG_PREDICT] Observed READ transaction to register regmodel.FSR: value='h12
# UVM_INFO ./../regmodel/uart_reg2ahb_adapter.sv(42) @ 84304000: reporter [uart_reg2ahb_adapter] bus2reg: address = 0x14 data = 0x12 kind = UVM_READ status = UVM_IS_OK
# UVM_INFO @ 84304000: reporter [RegModel] Read  register via map regmodel.ahb_map: regmodel.FSR=12
# UVM_INFO ./../regmodel/uart_reg2ahb_adapter.sv(27) @ 84304000: reporter [uart_reg2ahb_adapter] reg2bus: address = 0x14 data = 0x0 kind = READ
# UVM_INFO ./../regmodel/uart_reg2ahb_adapter.sv(42) @ 84304000: reporter [uart_reg2ahb_adapter] bus2reg: address = 0x14 data = 0x12 kind = UVM_READ status = UVM_IS_OK
# UVM_INFO /ictc/other/tools/QuestaDVA/questasim/verilog_src/uvm-1.2/src/reg/uvm_reg_predictor.svh(225) @ 84304000: uvm_test_top.env.ahb_predictor [REG_PREDICT] Observed READ transaction to register regmodel.FSR: value='h12
# UVM_INFO ./../regmodel/uart_reg2ahb_adapter.sv(42) @ 84314000: reporter [uart_reg2ahb_adapter] bus2reg: address = 0x14 data = 0x12 kind = UVM_READ status = UVM_IS_OK
# UVM_INFO @ 84314000: reporter [RegModel] Read  register via map regmodel.ahb_map: regmodel.FSR=12
# UVM_INFO ./../sequences/ahb_rxd_read_parity_status_sequence.sv(47) @ 84314000: uvm_test_top.env.ahb_agt.sequencer@@ahb_read [ahb_rxd_read_parity_status_sequence] 
# ===== PASSED SUCCESSFULLY!!! =====
# UVM_INFO ./../testcases/uart_rxd_parity_status.sv(40) @ 94314000: uvm_test_top [uart_rxd_parity_status] -------------------------------------------------------------
# Name                Type                Size  Value          
# -------------------------------------------------------------
# cfg                 uart_configuration  -     @360           
#   parity_mode       parity_mode_e       32    UART_PARITY_ODD
#   sampling          sampling_mode_e     32    MODE_X13       
#   data_width        integral            32    'h5            
#   num_of_stop_bit   integral            32    'h1            
#   baud_rate         integral            32    'h4b00         
#   baud_rate_enable  integral            1     'h0            
#   parity_enable     integral            1     'h1            
#   interrupt_enable  integral            1     'h0            
# -------------------------------------------------------------
# 
# UVM_INFO ./../regmodel/uart_reg2ahb_adapter.sv(42) @ 94314000: reporter [uart_reg2ahb_adapter] bus2reg: address = 0x0 data = 0x1 kind = UVM_WRITE status = UVM_IS_OK
# UVM_INFO /ictc/other/tools/QuestaDVA/questasim/verilog_src/uvm-1.2/src/reg/uvm_reg_predictor.svh(221) @ 94314000: uvm_test_top.env.ahb_predictor [REG_PREDICT] Observed WRITE transaction to register regmodel.MDR: value='h1 : updated value = 'h1
# UVM_INFO ./../regmodel/uart_reg2ahb_adapter.sv(42) @ 94314000: reporter [uart_reg2ahb_adapter] bus2reg: address = 0x4 data = 0x91 kind = UVM_WRITE status = UVM_IS_OK
# UVM_INFO /ictc/other/tools/QuestaDVA/questasim/verilog_src/uvm-1.2/src/reg/uvm_reg_predictor.svh(221) @ 94314000: uvm_test_top.env.ahb_predictor [REG_PREDICT] Observed WRITE transaction to register regmodel.DLL: value='h91 : updated value = 'h91
# UVM_INFO ./../regmodel/uart_reg2ahb_adapter.sv(42) @ 94314000: reporter [uart_reg2ahb_adapter] bus2reg: address = 0x8 data = 0x1 kind = UVM_WRITE status = UVM_IS_OK
# UVM_INFO /ictc/other/tools/QuestaDVA/questasim/verilog_src/uvm-1.2/src/reg/uvm_reg_predictor.svh(221) @ 94314000: uvm_test_top.env.ahb_predictor [REG_PREDICT] Observed WRITE transaction to register regmodel.DLH: value='h1 : updated value = 'h1
# UVM_INFO ./../regmodel/uart_reg2ahb_adapter.sv(42) @ 94314000: reporter [uart_reg2ahb_adapter] bus2reg: address = 0xc data = 0x28 kind = UVM_WRITE status = UVM_IS_OK
# UVM_INFO /ictc/other/tools/QuestaDVA/questasim/verilog_src/uvm-1.2/src/reg/uvm_reg_predictor.svh(221) @ 94314000: uvm_test_top.env.ahb_predictor [REG_PREDICT] Observed WRITE transaction to register regmodel.LCR: value='h28 : updated value = 'h28
# UVM_INFO ./../regmodel/uart_reg2ahb_adapter.sv(42) @ 94315000: reporter [uart_reg2ahb_adapter] bus2reg: address = 0x10 data = 0x10 kind = UVM_WRITE status = UVM_IS_OK
# UVM_INFO /ictc/other/tools/QuestaDVA/questasim/verilog_src/uvm-1.2/src/reg/uvm_reg_predictor.svh(221) @ 94315000: uvm_test_top.env.ahb_predictor [REG_PREDICT] Observed WRITE transaction to register regmodel.IER: value='h10 : updated value = 'h10
# UVM_INFO ./../regmodel/uart_reg2ahb_adapter.sv(27) @ 95147000: reporter [uart_reg2ahb_adapter] reg2bus: address = 0x14 data = 0x0 kind = READ
# UVM_INFO ./../regmodel/uart_reg2ahb_adapter.sv(42) @ 95147000: reporter [uart_reg2ahb_adapter] bus2reg: address = 0x14 data = 0x12 kind = UVM_READ status = UVM_IS_OK
# UVM_INFO /ictc/other/tools/QuestaDVA/questasim/verilog_src/uvm-1.2/src/reg/uvm_reg_predictor.svh(225) @ 95147000: uvm_test_top.env.ahb_predictor [REG_PREDICT] Observed READ transaction to register regmodel.FSR: value='h12
# UVM_INFO ./../regmodel/uart_reg2ahb_adapter.sv(42) @ 95157000: reporter [uart_reg2ahb_adapter] bus2reg: address = 0x14 data = 0x12 kind = UVM_READ status = UVM_IS_OK
# UVM_INFO @ 95157000: reporter [RegModel] Read  register via map regmodel.ahb_map: regmodel.FSR=12
# UVM_INFO ./../regmodel/uart_reg2ahb_adapter.sv(27) @ 95157000: reporter [uart_reg2ahb_adapter] reg2bus: address = 0x14 data = 0x0 kind = READ
# UVM_INFO ./../regmodel/uart_reg2ahb_adapter.sv(42) @ 95157000: reporter [uart_reg2ahb_adapter] bus2reg: address = 0x14 data = 0x12 kind = UVM_READ status = UVM_IS_OK
# UVM_INFO /ictc/other/tools/QuestaDVA/questasim/verilog_src/uvm-1.2/src/reg/uvm_reg_predictor.svh(225) @ 95157000: uvm_test_top.env.ahb_predictor [REG_PREDICT] Observed READ transaction to register regmodel.FSR: value='h12
# UVM_INFO ./../regmodel/uart_reg2ahb_adapter.sv(42) @ 95167000: reporter [uart_reg2ahb_adapter] bus2reg: address = 0x14 data = 0x12 kind = UVM_READ status = UVM_IS_OK
# UVM_INFO @ 95167000: reporter [RegModel] Read  register via map regmodel.ahb_map: regmodel.FSR=12
# UVM_INFO ./../sequences/ahb_rxd_read_parity_status_sequence.sv(47) @ 95167000: uvm_test_top.env.ahb_agt.sequencer@@ahb_read [ahb_rxd_read_parity_status_sequence] 
# ===== PASSED SUCCESSFULLY!!! =====
# UVM_INFO ./../testcases/uart_rxd_parity_status.sv(40) @ 105167000: uvm_test_top [uart_rxd_parity_status] -------------------------------------------------------------
# Name                Type                Size  Value          
# -------------------------------------------------------------
# cfg                 uart_configuration  -     @360           
#   parity_mode       parity_mode_e       32    UART_PARITY_ODD
#   sampling          sampling_mode_e     32    MODE_X16       
#   data_width        integral            32    'h5            
#   num_of_stop_bit   integral            32    'h1            
#   baud_rate         integral            32    'h9600         
#   baud_rate_enable  integral            1     'h0            
#   parity_enable     integral            1     'h1            
#   interrupt_enable  integral            1     'h0            
# -------------------------------------------------------------
# 
# UVM_INFO ./../regmodel/uart_reg2ahb_adapter.sv(42) @ 105167000: reporter [uart_reg2ahb_adapter] bus2reg: address = 0x0 data = 0x0 kind = UVM_WRITE status = UVM_IS_OK
# UVM_INFO /ictc/other/tools/QuestaDVA/questasim/verilog_src/uvm-1.2/src/reg/uvm_reg_predictor.svh(221) @ 105167000: uvm_test_top.env.ahb_predictor [REG_PREDICT] Observed WRITE transaction to register regmodel.MDR: value='h0 : updated value = 'h0
# UVM_INFO ./../regmodel/uart_reg2ahb_adapter.sv(42) @ 105167000: reporter [uart_reg2ahb_adapter] bus2reg: address = 0x4 data = 0xa4 kind = UVM_WRITE status = UVM_IS_OK
# UVM_INFO /ictc/other/tools/QuestaDVA/questasim/verilog_src/uvm-1.2/src/reg/uvm_reg_predictor.svh(221) @ 105167000: uvm_test_top.env.ahb_predictor [REG_PREDICT] Observed WRITE transaction to register regmodel.DLL: value='ha4 : updated value = 'ha4
# UVM_INFO ./../regmodel/uart_reg2ahb_adapter.sv(42) @ 105167000: reporter [uart_reg2ahb_adapter] bus2reg: address = 0x8 data = 0x0 kind = UVM_WRITE status = UVM_IS_OK
# UVM_INFO /ictc/other/tools/QuestaDVA/questasim/verilog_src/uvm-1.2/src/reg/uvm_reg_predictor.svh(221) @ 105167000: uvm_test_top.env.ahb_predictor [REG_PREDICT] Observed WRITE transaction to register regmodel.DLH: value='h0 : updated value = 'h0
# UVM_INFO ./../regmodel/uart_reg2ahb_adapter.sv(42) @ 105167000: reporter [uart_reg2ahb_adapter] bus2reg: address = 0xc data = 0x28 kind = UVM_WRITE status = UVM_IS_OK
# UVM_INFO /ictc/other/tools/QuestaDVA/questasim/verilog_src/uvm-1.2/src/reg/uvm_reg_predictor.svh(221) @ 105167000: uvm_test_top.env.ahb_predictor [REG_PREDICT] Observed WRITE transaction to register regmodel.LCR: value='h28 : updated value = 'h28
# UVM_INFO ./../regmodel/uart_reg2ahb_adapter.sv(42) @ 105167000: reporter [uart_reg2ahb_adapter] bus2reg: address = 0x10 data = 0x10 kind = UVM_WRITE status = UVM_IS_OK
# UVM_INFO /ictc/other/tools/QuestaDVA/questasim/verilog_src/uvm-1.2/src/reg/uvm_reg_predictor.svh(221) @ 105167000: uvm_test_top.env.ahb_predictor [REG_PREDICT] Observed WRITE transaction to register regmodel.IER: value='h10 : updated value = 'h10
# UVM_INFO ./../regmodel/uart_reg2ahb_adapter.sv(27) @ 105583000: reporter [uart_reg2ahb_adapter] reg2bus: address = 0x14 data = 0x0 kind = READ
# UVM_INFO ./../regmodel/uart_reg2ahb_adapter.sv(42) @ 105583000: reporter [uart_reg2ahb_adapter] bus2reg: address = 0x14 data = 0x12 kind = UVM_READ status = UVM_IS_OK
# UVM_INFO /ictc/other/tools/QuestaDVA/questasim/verilog_src/uvm-1.2/src/reg/uvm_reg_predictor.svh(225) @ 105583000: uvm_test_top.env.ahb_predictor [REG_PREDICT] Observed READ transaction to register regmodel.FSR: value='h12
# UVM_INFO ./../regmodel/uart_reg2ahb_adapter.sv(42) @ 105593000: reporter [uart_reg2ahb_adapter] bus2reg: address = 0x14 data = 0x12 kind = UVM_READ status = UVM_IS_OK
# UVM_INFO @ 105593000: reporter [RegModel] Read  register via map regmodel.ahb_map: regmodel.FSR=12
# UVM_INFO ./../regmodel/uart_reg2ahb_adapter.sv(27) @ 105593000: reporter [uart_reg2ahb_adapter] reg2bus: address = 0x14 data = 0x0 kind = READ
# UVM_INFO ./../regmodel/uart_reg2ahb_adapter.sv(42) @ 105593000: reporter [uart_reg2ahb_adapter] bus2reg: address = 0x14 data = 0x12 kind = UVM_READ status = UVM_IS_OK
# UVM_INFO /ictc/other/tools/QuestaDVA/questasim/verilog_src/uvm-1.2/src/reg/uvm_reg_predictor.svh(225) @ 105593000: uvm_test_top.env.ahb_predictor [REG_PREDICT] Observed READ transaction to register regmodel.FSR: value='h12
# UVM_INFO ./../regmodel/uart_reg2ahb_adapter.sv(42) @ 105603000: reporter [uart_reg2ahb_adapter] bus2reg: address = 0x14 data = 0x12 kind = UVM_READ status = UVM_IS_OK
# UVM_INFO @ 105603000: reporter [RegModel] Read  register via map regmodel.ahb_map: regmodel.FSR=12
# UVM_INFO ./../sequences/ahb_rxd_read_parity_status_sequence.sv(47) @ 105603000: uvm_test_top.env.ahb_agt.sequencer@@ahb_read [ahb_rxd_read_parity_status_sequence] 
# ===== PASSED SUCCESSFULLY!!! =====
# UVM_INFO ./../testcases/uart_rxd_parity_status.sv(40) @ 115603000: uvm_test_top [uart_rxd_parity_status] -------------------------------------------------------------
# Name                Type                Size  Value          
# -------------------------------------------------------------
# cfg                 uart_configuration  -     @360           
#   parity_mode       parity_mode_e       32    UART_PARITY_ODD
#   sampling          sampling_mode_e     32    MODE_X13       
#   data_width        integral            32    'h5            
#   num_of_stop_bit   integral            32    'h1            
#   baud_rate         integral            32    'h9600         
#   baud_rate_enable  integral            1     'h0            
#   parity_enable     integral            1     'h1            
#   interrupt_enable  integral            1     'h0            
# -------------------------------------------------------------
# 
# UVM_INFO ./../regmodel/uart_reg2ahb_adapter.sv(42) @ 115603000: reporter [uart_reg2ahb_adapter] bus2reg: address = 0x0 data = 0x1 kind = UVM_WRITE status = UVM_IS_OK
# UVM_INFO /ictc/other/tools/QuestaDVA/questasim/verilog_src/uvm-1.2/src/reg/uvm_reg_predictor.svh(221) @ 115603000: uvm_test_top.env.ahb_predictor [REG_PREDICT] Observed WRITE transaction to register regmodel.MDR: value='h1 : updated value = 'h1
# UVM_INFO ./../regmodel/uart_reg2ahb_adapter.sv(42) @ 115603000: reporter [uart_reg2ahb_adapter] bus2reg: address = 0x4 data = 0xc8 kind = UVM_WRITE status = UVM_IS_OK
# UVM_INFO /ictc/other/tools/QuestaDVA/questasim/verilog_src/uvm-1.2/src/reg/uvm_reg_predictor.svh(221) @ 115603000: uvm_test_top.env.ahb_predictor [REG_PREDICT] Observed WRITE transaction to register regmodel.DLL: value='hc8 : updated value = 'hc8
# UVM_INFO ./../regmodel/uart_reg2ahb_adapter.sv(42) @ 115603000: reporter [uart_reg2ahb_adapter] bus2reg: address = 0x8 data = 0x0 kind = UVM_WRITE status = UVM_IS_OK
# UVM_INFO /ictc/other/tools/QuestaDVA/questasim/verilog_src/uvm-1.2/src/reg/uvm_reg_predictor.svh(221) @ 115603000: uvm_test_top.env.ahb_predictor [REG_PREDICT] Observed WRITE transaction to register regmodel.DLH: value='h0 : updated value = 'h0
# UVM_INFO ./../regmodel/uart_reg2ahb_adapter.sv(42) @ 115604000: reporter [uart_reg2ahb_adapter] bus2reg: address = 0xc data = 0x28 kind = UVM_WRITE status = UVM_IS_OK
# UVM_INFO /ictc/other/tools/QuestaDVA/questasim/verilog_src/uvm-1.2/src/reg/uvm_reg_predictor.svh(221) @ 115604000: uvm_test_top.env.ahb_predictor [REG_PREDICT] Observed WRITE transaction to register regmodel.LCR: value='h28 : updated value = 'h28
# UVM_INFO ./../regmodel/uart_reg2ahb_adapter.sv(42) @ 115604000: reporter [uart_reg2ahb_adapter] bus2reg: address = 0x10 data = 0x10 kind = UVM_WRITE status = UVM_IS_OK
# UVM_INFO /ictc/other/tools/QuestaDVA/questasim/verilog_src/uvm-1.2/src/reg/uvm_reg_predictor.svh(221) @ 115604000: uvm_test_top.env.ahb_predictor [REG_PREDICT] Observed WRITE transaction to register regmodel.IER: value='h10 : updated value = 'h10
# UVM_INFO ./../regmodel/uart_reg2ahb_adapter.sv(27) @ 116020000: reporter [uart_reg2ahb_adapter] reg2bus: address = 0x14 data = 0x0 kind = READ
# UVM_INFO ./../regmodel/uart_reg2ahb_adapter.sv(42) @ 116020000: reporter [uart_reg2ahb_adapter] bus2reg: address = 0x14 data = 0x12 kind = UVM_READ status = UVM_IS_OK
# UVM_INFO /ictc/other/tools/QuestaDVA/questasim/verilog_src/uvm-1.2/src/reg/uvm_reg_predictor.svh(225) @ 116020000: uvm_test_top.env.ahb_predictor [REG_PREDICT] Observed READ transaction to register regmodel.FSR: value='h12
# UVM_INFO ./../regmodel/uart_reg2ahb_adapter.sv(42) @ 116030000: reporter [uart_reg2ahb_adapter] bus2reg: address = 0x14 data = 0x12 kind = UVM_READ status = UVM_IS_OK
# UVM_INFO @ 116030000: reporter [RegModel] Read  register via map regmodel.ahb_map: regmodel.FSR=12
# UVM_INFO ./../regmodel/uart_reg2ahb_adapter.sv(27) @ 116030000: reporter [uart_reg2ahb_adapter] reg2bus: address = 0x14 data = 0x0 kind = READ
# UVM_INFO ./../regmodel/uart_reg2ahb_adapter.sv(42) @ 116030000: reporter [uart_reg2ahb_adapter] bus2reg: address = 0x14 data = 0x12 kind = UVM_READ status = UVM_IS_OK
# UVM_INFO /ictc/other/tools/QuestaDVA/questasim/verilog_src/uvm-1.2/src/reg/uvm_reg_predictor.svh(225) @ 116030000: uvm_test_top.env.ahb_predictor [REG_PREDICT] Observed READ transaction to register regmodel.FSR: value='h12
# UVM_INFO ./../regmodel/uart_reg2ahb_adapter.sv(42) @ 116040000: reporter [uart_reg2ahb_adapter] bus2reg: address = 0x14 data = 0x12 kind = UVM_READ status = UVM_IS_OK
# UVM_INFO @ 116040000: reporter [RegModel] Read  register via map regmodel.ahb_map: regmodel.FSR=12
# UVM_INFO ./../sequences/ahb_rxd_read_parity_status_sequence.sv(47) @ 116040000: uvm_test_top.env.ahb_agt.sequencer@@ahb_read [ahb_rxd_read_parity_status_sequence] 
# ===== PASSED SUCCESSFULLY!!! =====
# UVM_INFO ./../testcases/uart_rxd_parity_status.sv(40) @ 126040000: uvm_test_top [uart_rxd_parity_status] -------------------------------------------------------------
# Name                Type                Size  Value          
# -------------------------------------------------------------
# cfg                 uart_configuration  -     @360           
#   parity_mode       parity_mode_e       32    UART_PARITY_ODD
#   sampling          sampling_mode_e     32    MODE_X16       
#   data_width        integral            32    'h5            
#   num_of_stop_bit   integral            32    'h1            
#   baud_rate         integral            32    'h12c00        
#   baud_rate_enable  integral            1     'h0            
#   parity_enable     integral            1     'h1            
#   interrupt_enable  integral            1     'h0            
# -------------------------------------------------------------
# 
# UVM_INFO ./../regmodel/uart_reg2ahb_adapter.sv(42) @ 126040000: reporter [uart_reg2ahb_adapter] bus2reg: address = 0x0 data = 0x0 kind = UVM_WRITE status = UVM_IS_OK
# UVM_INFO /ictc/other/tools/QuestaDVA/questasim/verilog_src/uvm-1.2/src/reg/uvm_reg_predictor.svh(221) @ 126040000: uvm_test_top.env.ahb_predictor [REG_PREDICT] Observed WRITE transaction to register regmodel.MDR: value='h0 : updated value = 'h0
# UVM_INFO ./../regmodel/uart_reg2ahb_adapter.sv(42) @ 126040000: reporter [uart_reg2ahb_adapter] bus2reg: address = 0x4 data = 0x51 kind = UVM_WRITE status = UVM_IS_OK
# UVM_INFO /ictc/other/tools/QuestaDVA/questasim/verilog_src/uvm-1.2/src/reg/uvm_reg_predictor.svh(221) @ 126040000: uvm_test_top.env.ahb_predictor [REG_PREDICT] Observed WRITE transaction to register regmodel.DLL: value='h51 : updated value = 'h51
# UVM_INFO ./../regmodel/uart_reg2ahb_adapter.sv(42) @ 126040000: reporter [uart_reg2ahb_adapter] bus2reg: address = 0x8 data = 0x0 kind = UVM_WRITE status = UVM_IS_OK
# UVM_INFO /ictc/other/tools/QuestaDVA/questasim/verilog_src/uvm-1.2/src/reg/uvm_reg_predictor.svh(221) @ 126040000: uvm_test_top.env.ahb_predictor [REG_PREDICT] Observed WRITE transaction to register regmodel.DLH: value='h0 : updated value = 'h0
# UVM_INFO ./../regmodel/uart_reg2ahb_adapter.sv(42) @ 126040000: reporter [uart_reg2ahb_adapter] bus2reg: address = 0xc data = 0x28 kind = UVM_WRITE status = UVM_IS_OK
# UVM_INFO /ictc/other/tools/QuestaDVA/questasim/verilog_src/uvm-1.2/src/reg/uvm_reg_predictor.svh(221) @ 126040000: uvm_test_top.env.ahb_predictor [REG_PREDICT] Observed WRITE transaction to register regmodel.LCR: value='h28 : updated value = 'h28
# UVM_INFO ./../regmodel/uart_reg2ahb_adapter.sv(42) @ 126040000: reporter [uart_reg2ahb_adapter] bus2reg: address = 0x10 data = 0x10 kind = UVM_WRITE status = UVM_IS_OK
# UVM_INFO /ictc/other/tools/QuestaDVA/questasim/verilog_src/uvm-1.2/src/reg/uvm_reg_predictor.svh(221) @ 126040000: uvm_test_top.env.ahb_predictor [REG_PREDICT] Observed WRITE transaction to register regmodel.IER: value='h10 : updated value = 'h10
# UVM_INFO ./../regmodel/uart_reg2ahb_adapter.sv(27) @ 126248000: reporter [uart_reg2ahb_adapter] reg2bus: address = 0x14 data = 0x0 kind = READ
# UVM_INFO ./../regmodel/uart_reg2ahb_adapter.sv(42) @ 126248000: reporter [uart_reg2ahb_adapter] bus2reg: address = 0x14 data = 0x12 kind = UVM_READ status = UVM_IS_OK
# UVM_INFO /ictc/other/tools/QuestaDVA/questasim/verilog_src/uvm-1.2/src/reg/uvm_reg_predictor.svh(225) @ 126248000: uvm_test_top.env.ahb_predictor [REG_PREDICT] Observed READ transaction to register regmodel.FSR: value='h12
# UVM_INFO ./../regmodel/uart_reg2ahb_adapter.sv(42) @ 126258000: reporter [uart_reg2ahb_adapter] bus2reg: address = 0x14 data = 0x12 kind = UVM_READ status = UVM_IS_OK
# UVM_INFO @ 126258000: reporter [RegModel] Read  register via map regmodel.ahb_map: regmodel.FSR=12
# UVM_INFO ./../regmodel/uart_reg2ahb_adapter.sv(27) @ 126258000: reporter [uart_reg2ahb_adapter] reg2bus: address = 0x14 data = 0x0 kind = READ
# UVM_INFO ./../regmodel/uart_reg2ahb_adapter.sv(42) @ 126258000: reporter [uart_reg2ahb_adapter] bus2reg: address = 0x14 data = 0x12 kind = UVM_READ status = UVM_IS_OK
# UVM_INFO /ictc/other/tools/QuestaDVA/questasim/verilog_src/uvm-1.2/src/reg/uvm_reg_predictor.svh(225) @ 126258000: uvm_test_top.env.ahb_predictor [REG_PREDICT] Observed READ transaction to register regmodel.FSR: value='h12
# UVM_INFO ./../regmodel/uart_reg2ahb_adapter.sv(42) @ 126268000: reporter [uart_reg2ahb_adapter] bus2reg: address = 0x14 data = 0x12 kind = UVM_READ status = UVM_IS_OK
# UVM_INFO @ 126268000: reporter [RegModel] Read  register via map regmodel.ahb_map: regmodel.FSR=12
# UVM_INFO ./../sequences/ahb_rxd_read_parity_status_sequence.sv(47) @ 126268000: uvm_test_top.env.ahb_agt.sequencer@@ahb_read [ahb_rxd_read_parity_status_sequence] 
# ===== PASSED SUCCESSFULLY!!! =====
# UVM_INFO ./../testcases/uart_rxd_parity_status.sv(40) @ 136268000: uvm_test_top [uart_rxd_parity_status] -------------------------------------------------------------
# Name                Type                Size  Value          
# -------------------------------------------------------------
# cfg                 uart_configuration  -     @360           
#   parity_mode       parity_mode_e       32    UART_PARITY_ODD
#   sampling          sampling_mode_e     32    MODE_X13       
#   data_width        integral            32    'h5            
#   num_of_stop_bit   integral            32    'h1            
#   baud_rate         integral            32    'h12c00        
#   baud_rate_enable  integral            1     'h0            
#   parity_enable     integral            1     'h1            
#   interrupt_enable  integral            1     'h0            
# -------------------------------------------------------------
# 
# UVM_INFO ./../regmodel/uart_reg2ahb_adapter.sv(42) @ 136268000: reporter [uart_reg2ahb_adapter] bus2reg: address = 0x0 data = 0x1 kind = UVM_WRITE status = UVM_IS_OK
# UVM_INFO /ictc/other/tools/QuestaDVA/questasim/verilog_src/uvm-1.2/src/reg/uvm_reg_predictor.svh(221) @ 136268000: uvm_test_top.env.ahb_predictor [REG_PREDICT] Observed WRITE transaction to register regmodel.MDR: value='h1 : updated value = 'h1
# UVM_INFO ./../regmodel/uart_reg2ahb_adapter.sv(42) @ 136269000: reporter [uart_reg2ahb_adapter] bus2reg: address = 0x4 data = 0x64 kind = UVM_WRITE status = UVM_IS_OK
# UVM_INFO /ictc/other/tools/QuestaDVA/questasim/verilog_src/uvm-1.2/src/reg/uvm_reg_predictor.svh(221) @ 136269000: uvm_test_top.env.ahb_predictor [REG_PREDICT] Observed WRITE transaction to register regmodel.DLL: value='h64 : updated value = 'h64
# UVM_INFO ./../regmodel/uart_reg2ahb_adapter.sv(42) @ 136269000: reporter [uart_reg2ahb_adapter] bus2reg: address = 0x8 data = 0x0 kind = UVM_WRITE status = UVM_IS_OK
# UVM_INFO /ictc/other/tools/QuestaDVA/questasim/verilog_src/uvm-1.2/src/reg/uvm_reg_predictor.svh(221) @ 136269000: uvm_test_top.env.ahb_predictor [REG_PREDICT] Observed WRITE transaction to register regmodel.DLH: value='h0 : updated value = 'h0
# UVM_INFO ./../regmodel/uart_reg2ahb_adapter.sv(42) @ 136269000: reporter [uart_reg2ahb_adapter] bus2reg: address = 0xc data = 0x28 kind = UVM_WRITE status = UVM_IS_OK
# UVM_INFO /ictc/other/tools/QuestaDVA/questasim/verilog_src/uvm-1.2/src/reg/uvm_reg_predictor.svh(221) @ 136269000: uvm_test_top.env.ahb_predictor [REG_PREDICT] Observed WRITE transaction to register regmodel.LCR: value='h28 : updated value = 'h28
# UVM_INFO ./../regmodel/uart_reg2ahb_adapter.sv(42) @ 136269000: reporter [uart_reg2ahb_adapter] bus2reg: address = 0x10 data = 0x10 kind = UVM_WRITE status = UVM_IS_OK
# UVM_INFO /ictc/other/tools/QuestaDVA/questasim/verilog_src/uvm-1.2/src/reg/uvm_reg_predictor.svh(221) @ 136269000: uvm_test_top.env.ahb_predictor [REG_PREDICT] Observed WRITE transaction to register regmodel.IER: value='h10 : updated value = 'h10
# UVM_INFO ./../regmodel/uart_reg2ahb_adapter.sv(27) @ 136477000: reporter [uart_reg2ahb_adapter] reg2bus: address = 0x14 data = 0x0 kind = READ
# UVM_INFO ./../regmodel/uart_reg2ahb_adapter.sv(42) @ 136477000: reporter [uart_reg2ahb_adapter] bus2reg: address = 0x14 data = 0x12 kind = UVM_READ status = UVM_IS_OK
# UVM_INFO /ictc/other/tools/QuestaDVA/questasim/verilog_src/uvm-1.2/src/reg/uvm_reg_predictor.svh(225) @ 136477000: uvm_test_top.env.ahb_predictor [REG_PREDICT] Observed READ transaction to register regmodel.FSR: value='h12
# UVM_INFO ./../regmodel/uart_reg2ahb_adapter.sv(42) @ 136487000: reporter [uart_reg2ahb_adapter] bus2reg: address = 0x14 data = 0x12 kind = UVM_READ status = UVM_IS_OK
# UVM_INFO @ 136487000: reporter [RegModel] Read  register via map regmodel.ahb_map: regmodel.FSR=12
# UVM_INFO ./../regmodel/uart_reg2ahb_adapter.sv(27) @ 136487000: reporter [uart_reg2ahb_adapter] reg2bus: address = 0x14 data = 0x0 kind = READ
# UVM_INFO ./../regmodel/uart_reg2ahb_adapter.sv(42) @ 136487000: reporter [uart_reg2ahb_adapter] bus2reg: address = 0x14 data = 0x12 kind = UVM_READ status = UVM_IS_OK
# UVM_INFO /ictc/other/tools/QuestaDVA/questasim/verilog_src/uvm-1.2/src/reg/uvm_reg_predictor.svh(225) @ 136487000: uvm_test_top.env.ahb_predictor [REG_PREDICT] Observed READ transaction to register regmodel.FSR: value='h12
# UVM_INFO ./../regmodel/uart_reg2ahb_adapter.sv(42) @ 136497000: reporter [uart_reg2ahb_adapter] bus2reg: address = 0x14 data = 0x12 kind = UVM_READ status = UVM_IS_OK
# UVM_INFO @ 136497000: reporter [RegModel] Read  register via map regmodel.ahb_map: regmodel.FSR=12
# UVM_INFO ./../sequences/ahb_rxd_read_parity_status_sequence.sv(47) @ 136497000: uvm_test_top.env.ahb_agt.sequencer@@ahb_read [ahb_rxd_read_parity_status_sequence] 
# ===== PASSED SUCCESSFULLY!!! =====
# UVM_INFO ./../testcases/uart_rxd_parity_status.sv(40) @ 146497000: uvm_test_top [uart_rxd_parity_status] -------------------------------------------------------------
# Name                Type                Size  Value          
# -------------------------------------------------------------
# cfg                 uart_configuration  -     @360           
#   parity_mode       parity_mode_e       32    UART_PARITY_ODD
#   sampling          sampling_mode_e     32    MODE_X16       
#   data_width        integral            32    'h5            
#   num_of_stop_bit   integral            32    'h1            
#   baud_rate         integral            32    'h1c200        
#   baud_rate_enable  integral            1     'h0            
#   parity_enable     integral            1     'h1            
#   interrupt_enable  integral            1     'h0            
# -------------------------------------------------------------
# 
# UVM_INFO ./../regmodel/uart_reg2ahb_adapter.sv(42) @ 146497000: reporter [uart_reg2ahb_adapter] bus2reg: address = 0x0 data = 0x0 kind = UVM_WRITE status = UVM_IS_OK
# UVM_INFO /ictc/other/tools/QuestaDVA/questasim/verilog_src/uvm-1.2/src/reg/uvm_reg_predictor.svh(221) @ 146497000: uvm_test_top.env.ahb_predictor [REG_PREDICT] Observed WRITE transaction to register regmodel.MDR: value='h0 : updated value = 'h0
# UVM_INFO ./../regmodel/uart_reg2ahb_adapter.sv(42) @ 146497000: reporter [uart_reg2ahb_adapter] bus2reg: address = 0x4 data = 0x36 kind = UVM_WRITE status = UVM_IS_OK
# UVM_INFO /ictc/other/tools/QuestaDVA/questasim/verilog_src/uvm-1.2/src/reg/uvm_reg_predictor.svh(221) @ 146497000: uvm_test_top.env.ahb_predictor [REG_PREDICT] Observed WRITE transaction to register regmodel.DLL: value='h36 : updated value = 'h36
# UVM_INFO ./../regmodel/uart_reg2ahb_adapter.sv(42) @ 146497000: reporter [uart_reg2ahb_adapter] bus2reg: address = 0x8 data = 0x0 kind = UVM_WRITE status = UVM_IS_OK
# UVM_INFO /ictc/other/tools/QuestaDVA/questasim/verilog_src/uvm-1.2/src/reg/uvm_reg_predictor.svh(221) @ 146497000: uvm_test_top.env.ahb_predictor [REG_PREDICT] Observed WRITE transaction to register regmodel.DLH: value='h0 : updated value = 'h0
# UVM_INFO ./../regmodel/uart_reg2ahb_adapter.sv(42) @ 146497000: reporter [uart_reg2ahb_adapter] bus2reg: address = 0xc data = 0x28 kind = UVM_WRITE status = UVM_IS_OK
# UVM_INFO /ictc/other/tools/QuestaDVA/questasim/verilog_src/uvm-1.2/src/reg/uvm_reg_predictor.svh(221) @ 146497000: uvm_test_top.env.ahb_predictor [REG_PREDICT] Observed WRITE transaction to register regmodel.LCR: value='h28 : updated value = 'h28
# UVM_INFO ./../regmodel/uart_reg2ahb_adapter.sv(42) @ 146497000: reporter [uart_reg2ahb_adapter] bus2reg: address = 0x10 data = 0x10 kind = UVM_WRITE status = UVM_IS_OK
# UVM_INFO /ictc/other/tools/QuestaDVA/questasim/verilog_src/uvm-1.2/src/reg/uvm_reg_predictor.svh(221) @ 146497000: uvm_test_top.env.ahb_predictor [REG_PREDICT] Observed WRITE transaction to register regmodel.IER: value='h10 : updated value = 'h10
# UVM_INFO ./../regmodel/uart_reg2ahb_adapter.sv(27) @ 146633000: reporter [uart_reg2ahb_adapter] reg2bus: address = 0x14 data = 0x0 kind = READ
# UVM_INFO ./../regmodel/uart_reg2ahb_adapter.sv(42) @ 146633000: reporter [uart_reg2ahb_adapter] bus2reg: address = 0x14 data = 0x12 kind = UVM_READ status = UVM_IS_OK
# UVM_INFO /ictc/other/tools/QuestaDVA/questasim/verilog_src/uvm-1.2/src/reg/uvm_reg_predictor.svh(225) @ 146633000: uvm_test_top.env.ahb_predictor [REG_PREDICT] Observed READ transaction to register regmodel.FSR: value='h12
# UVM_INFO ./../regmodel/uart_reg2ahb_adapter.sv(42) @ 146643000: reporter [uart_reg2ahb_adapter] bus2reg: address = 0x14 data = 0x12 kind = UVM_READ status = UVM_IS_OK
# UVM_INFO @ 146643000: reporter [RegModel] Read  register via map regmodel.ahb_map: regmodel.FSR=12
# UVM_INFO ./../regmodel/uart_reg2ahb_adapter.sv(27) @ 146643000: reporter [uart_reg2ahb_adapter] reg2bus: address = 0x14 data = 0x0 kind = READ
# UVM_INFO ./../regmodel/uart_reg2ahb_adapter.sv(42) @ 146644000: reporter [uart_reg2ahb_adapter] bus2reg: address = 0x14 data = 0x12 kind = UVM_READ status = UVM_IS_OK
# UVM_INFO /ictc/other/tools/QuestaDVA/questasim/verilog_src/uvm-1.2/src/reg/uvm_reg_predictor.svh(225) @ 146644000: uvm_test_top.env.ahb_predictor [REG_PREDICT] Observed READ transaction to register regmodel.FSR: value='h12
# UVM_INFO ./../regmodel/uart_reg2ahb_adapter.sv(42) @ 146654000: reporter [uart_reg2ahb_adapter] bus2reg: address = 0x14 data = 0x12 kind = UVM_READ status = UVM_IS_OK
# UVM_INFO @ 146654000: reporter [RegModel] Read  register via map regmodel.ahb_map: regmodel.FSR=12
# UVM_INFO ./../sequences/ahb_rxd_read_parity_status_sequence.sv(47) @ 146654000: uvm_test_top.env.ahb_agt.sequencer@@ahb_read [ahb_rxd_read_parity_status_sequence] 
# ===== PASSED SUCCESSFULLY!!! =====
# UVM_INFO ./../testcases/uart_rxd_parity_status.sv(40) @ 156654000: uvm_test_top [uart_rxd_parity_status] -------------------------------------------------------------
# Name                Type                Size  Value          
# -------------------------------------------------------------
# cfg                 uart_configuration  -     @360           
#   parity_mode       parity_mode_e       32    UART_PARITY_ODD
#   sampling          sampling_mode_e     32    MODE_X13       
#   data_width        integral            32    'h5            
#   num_of_stop_bit   integral            32    'h1            
#   baud_rate         integral            32    'h1c200        
#   baud_rate_enable  integral            1     'h0            
#   parity_enable     integral            1     'h1            
#   interrupt_enable  integral            1     'h0            
# -------------------------------------------------------------
# 
# UVM_INFO ./../regmodel/uart_reg2ahb_adapter.sv(42) @ 156654000: reporter [uart_reg2ahb_adapter] bus2reg: address = 0x0 data = 0x1 kind = UVM_WRITE status = UVM_IS_OK
# UVM_INFO /ictc/other/tools/QuestaDVA/questasim/verilog_src/uvm-1.2/src/reg/uvm_reg_predictor.svh(221) @ 156654000: uvm_test_top.env.ahb_predictor [REG_PREDICT] Observed WRITE transaction to register regmodel.MDR: value='h1 : updated value = 'h1
# UVM_INFO ./../regmodel/uart_reg2ahb_adapter.sv(42) @ 156654000: reporter [uart_reg2ahb_adapter] bus2reg: address = 0x4 data = 0x43 kind = UVM_WRITE status = UVM_IS_OK
# UVM_INFO /ictc/other/tools/QuestaDVA/questasim/verilog_src/uvm-1.2/src/reg/uvm_reg_predictor.svh(221) @ 156654000: uvm_test_top.env.ahb_predictor [REG_PREDICT] Observed WRITE transaction to register regmodel.DLL: value='h43 : updated value = 'h43
# UVM_INFO ./../regmodel/uart_reg2ahb_adapter.sv(42) @ 156654000: reporter [uart_reg2ahb_adapter] bus2reg: address = 0x8 data = 0x0 kind = UVM_WRITE status = UVM_IS_OK
# UVM_INFO /ictc/other/tools/QuestaDVA/questasim/verilog_src/uvm-1.2/src/reg/uvm_reg_predictor.svh(221) @ 156654000: uvm_test_top.env.ahb_predictor [REG_PREDICT] Observed WRITE transaction to register regmodel.DLH: value='h0 : updated value = 'h0
# UVM_INFO ./../regmodel/uart_reg2ahb_adapter.sv(42) @ 156654000: reporter [uart_reg2ahb_adapter] bus2reg: address = 0xc data = 0x28 kind = UVM_WRITE status = UVM_IS_OK
# UVM_INFO /ictc/other/tools/QuestaDVA/questasim/verilog_src/uvm-1.2/src/reg/uvm_reg_predictor.svh(221) @ 156654000: uvm_test_top.env.ahb_predictor [REG_PREDICT] Observed WRITE transaction to register regmodel.LCR: value='h28 : updated value = 'h28
# UVM_INFO ./../regmodel/uart_reg2ahb_adapter.sv(42) @ 156654000: reporter [uart_reg2ahb_adapter] bus2reg: address = 0x10 data = 0x10 kind = UVM_WRITE status = UVM_IS_OK
# UVM_INFO /ictc/other/tools/QuestaDVA/questasim/verilog_src/uvm-1.2/src/reg/uvm_reg_predictor.svh(221) @ 156654000: uvm_test_top.env.ahb_predictor [REG_PREDICT] Observed WRITE transaction to register regmodel.IER: value='h10 : updated value = 'h10
# UVM_INFO ./../regmodel/uart_reg2ahb_adapter.sv(27) @ 156790000: reporter [uart_reg2ahb_adapter] reg2bus: address = 0x14 data = 0x0 kind = READ
# UVM_INFO ./../regmodel/uart_reg2ahb_adapter.sv(42) @ 156790000: reporter [uart_reg2ahb_adapter] bus2reg: address = 0x14 data = 0x12 kind = UVM_READ status = UVM_IS_OK
# UVM_INFO /ictc/other/tools/QuestaDVA/questasim/verilog_src/uvm-1.2/src/reg/uvm_reg_predictor.svh(225) @ 156790000: uvm_test_top.env.ahb_predictor [REG_PREDICT] Observed READ transaction to register regmodel.FSR: value='h12
# UVM_INFO ./../regmodel/uart_reg2ahb_adapter.sv(42) @ 156800000: reporter [uart_reg2ahb_adapter] bus2reg: address = 0x14 data = 0x12 kind = UVM_READ status = UVM_IS_OK
# UVM_INFO @ 156800000: reporter [RegModel] Read  register via map regmodel.ahb_map: regmodel.FSR=12
# UVM_INFO ./../regmodel/uart_reg2ahb_adapter.sv(27) @ 156800000: reporter [uart_reg2ahb_adapter] reg2bus: address = 0x14 data = 0x0 kind = READ
# UVM_INFO ./../regmodel/uart_reg2ahb_adapter.sv(42) @ 156800000: reporter [uart_reg2ahb_adapter] bus2reg: address = 0x14 data = 0x12 kind = UVM_READ status = UVM_IS_OK
# UVM_INFO /ictc/other/tools/QuestaDVA/questasim/verilog_src/uvm-1.2/src/reg/uvm_reg_predictor.svh(225) @ 156800000: uvm_test_top.env.ahb_predictor [REG_PREDICT] Observed READ transaction to register regmodel.FSR: value='h12
# UVM_INFO ./../regmodel/uart_reg2ahb_adapter.sv(42) @ 156810000: reporter [uart_reg2ahb_adapter] bus2reg: address = 0x14 data = 0x12 kind = UVM_READ status = UVM_IS_OK
# UVM_INFO @ 156810000: reporter [RegModel] Read  register via map regmodel.ahb_map: regmodel.FSR=12
# UVM_INFO ./../sequences/ahb_rxd_read_parity_status_sequence.sv(47) @ 156810000: uvm_test_top.env.ahb_agt.sequencer@@ahb_read [ahb_rxd_read_parity_status_sequence] 
# ===== PASSED SUCCESSFULLY!!! =====
# UVM_INFO ./../testcases/uart_rxd_parity_status.sv(40) @ 166810000: uvm_test_top [uart_rxd_parity_status] -------------------------------------------------------------
# Name                Type                Size  Value          
# -------------------------------------------------------------
# cfg                 uart_configuration  -     @360           
#   parity_mode       parity_mode_e       32    UART_PARITY_ODD
#   sampling          sampling_mode_e     32    MODE_X16       
#   data_width        integral            32    'h5            
#   num_of_stop_bit   integral            32    'h2            
#   baud_rate         integral            32    'h960          
#   baud_rate_enable  integral            1     'h0            
#   parity_enable     integral            1     'h1            
#   interrupt_enable  integral            1     'h0            
# -------------------------------------------------------------
# 
# UVM_INFO ./../regmodel/uart_reg2ahb_adapter.sv(42) @ 166810000: reporter [uart_reg2ahb_adapter] bus2reg: address = 0x0 data = 0x0 kind = UVM_WRITE status = UVM_IS_OK
# UVM_INFO /ictc/other/tools/QuestaDVA/questasim/verilog_src/uvm-1.2/src/reg/uvm_reg_predictor.svh(221) @ 166810000: uvm_test_top.env.ahb_predictor [REG_PREDICT] Observed WRITE transaction to register regmodel.MDR: value='h0 : updated value = 'h0
# UVM_INFO ./../regmodel/uart_reg2ahb_adapter.sv(42) @ 166810000: reporter [uart_reg2ahb_adapter] bus2reg: address = 0x4 data = 0x2c kind = UVM_WRITE status = UVM_IS_OK
# UVM_INFO /ictc/other/tools/QuestaDVA/questasim/verilog_src/uvm-1.2/src/reg/uvm_reg_predictor.svh(221) @ 166810000: uvm_test_top.env.ahb_predictor [REG_PREDICT] Observed WRITE transaction to register regmodel.DLL: value='h2c : updated value = 'h2c
# UVM_INFO ./../regmodel/uart_reg2ahb_adapter.sv(42) @ 166810000: reporter [uart_reg2ahb_adapter] bus2reg: address = 0x8 data = 0xa kind = UVM_WRITE status = UVM_IS_OK
# UVM_INFO /ictc/other/tools/QuestaDVA/questasim/verilog_src/uvm-1.2/src/reg/uvm_reg_predictor.svh(221) @ 166810000: uvm_test_top.env.ahb_predictor [REG_PREDICT] Observed WRITE transaction to register regmodel.DLH: value='ha : updated value = 'ha
# UVM_INFO ./../regmodel/uart_reg2ahb_adapter.sv(42) @ 166810000: reporter [uart_reg2ahb_adapter] bus2reg: address = 0xc data = 0x2c kind = UVM_WRITE status = UVM_IS_OK
# UVM_INFO /ictc/other/tools/QuestaDVA/questasim/verilog_src/uvm-1.2/src/reg/uvm_reg_predictor.svh(221) @ 166810000: uvm_test_top.env.ahb_predictor [REG_PREDICT] Observed WRITE transaction to register regmodel.LCR: value='h2c : updated value = 'h2c
# UVM_INFO ./../regmodel/uart_reg2ahb_adapter.sv(42) @ 166810000: reporter [uart_reg2ahb_adapter] bus2reg: address = 0x10 data = 0x10 kind = UVM_WRITE status = UVM_IS_OK
# UVM_INFO /ictc/other/tools/QuestaDVA/questasim/verilog_src/uvm-1.2/src/reg/uvm_reg_predictor.svh(221) @ 166810000: uvm_test_top.env.ahb_predictor [REG_PREDICT] Observed WRITE transaction to register regmodel.IER: value='h10 : updated value = 'h10
# UVM_INFO ./../regmodel/uart_reg2ahb_adapter.sv(27) @ 174307000: reporter [uart_reg2ahb_adapter] reg2bus: address = 0x14 data = 0x0 kind = READ
# UVM_INFO ./../regmodel/uart_reg2ahb_adapter.sv(42) @ 174308000: reporter [uart_reg2ahb_adapter] bus2reg: address = 0x14 data = 0x12 kind = UVM_READ status = UVM_IS_OK
# UVM_INFO /ictc/other/tools/QuestaDVA/questasim/verilog_src/uvm-1.2/src/reg/uvm_reg_predictor.svh(225) @ 174308000: uvm_test_top.env.ahb_predictor [REG_PREDICT] Observed READ transaction to register regmodel.FSR: value='h12
# UVM_INFO ./../regmodel/uart_reg2ahb_adapter.sv(42) @ 174318000: reporter [uart_reg2ahb_adapter] bus2reg: address = 0x14 data = 0x12 kind = UVM_READ status = UVM_IS_OK
# UVM_INFO @ 174318000: reporter [RegModel] Read  register via map regmodel.ahb_map: regmodel.FSR=12
# UVM_INFO ./../regmodel/uart_reg2ahb_adapter.sv(27) @ 174318000: reporter [uart_reg2ahb_adapter] reg2bus: address = 0x14 data = 0x0 kind = READ
# UVM_INFO ./../regmodel/uart_reg2ahb_adapter.sv(42) @ 174318000: reporter [uart_reg2ahb_adapter] bus2reg: address = 0x14 data = 0x12 kind = UVM_READ status = UVM_IS_OK
# UVM_INFO /ictc/other/tools/QuestaDVA/questasim/verilog_src/uvm-1.2/src/reg/uvm_reg_predictor.svh(225) @ 174318000: uvm_test_top.env.ahb_predictor [REG_PREDICT] Observed READ transaction to register regmodel.FSR: value='h12
# UVM_INFO ./../regmodel/uart_reg2ahb_adapter.sv(42) @ 174328000: reporter [uart_reg2ahb_adapter] bus2reg: address = 0x14 data = 0x12 kind = UVM_READ status = UVM_IS_OK
# UVM_INFO @ 174328000: reporter [RegModel] Read  register via map regmodel.ahb_map: regmodel.FSR=12
# UVM_INFO ./../sequences/ahb_rxd_read_parity_status_sequence.sv(47) @ 174328000: uvm_test_top.env.ahb_agt.sequencer@@ahb_read [ahb_rxd_read_parity_status_sequence] 
# ===== PASSED SUCCESSFULLY!!! =====
# UVM_INFO ./../testcases/uart_rxd_parity_status.sv(40) @ 184328000: uvm_test_top [uart_rxd_parity_status] -------------------------------------------------------------
# Name                Type                Size  Value          
# -------------------------------------------------------------
# cfg                 uart_configuration  -     @360           
#   parity_mode       parity_mode_e       32    UART_PARITY_ODD
#   sampling          sampling_mode_e     32    MODE_X13       
#   data_width        integral            32    'h5            
#   num_of_stop_bit   integral            32    'h2            
#   baud_rate         integral            32    'h960          
#   baud_rate_enable  integral            1     'h0            
#   parity_enable     integral            1     'h1            
#   interrupt_enable  integral            1     'h0            
# -------------------------------------------------------------
# 
# UVM_INFO ./../regmodel/uart_reg2ahb_adapter.sv(42) @ 184328000: reporter [uart_reg2ahb_adapter] bus2reg: address = 0x0 data = 0x1 kind = UVM_WRITE status = UVM_IS_OK
# UVM_INFO /ictc/other/tools/QuestaDVA/questasim/verilog_src/uvm-1.2/src/reg/uvm_reg_predictor.svh(221) @ 184328000: uvm_test_top.env.ahb_predictor [REG_PREDICT] Observed WRITE transaction to register regmodel.MDR: value='h1 : updated value = 'h1
# UVM_INFO ./../regmodel/uart_reg2ahb_adapter.sv(42) @ 184328000: reporter [uart_reg2ahb_adapter] bus2reg: address = 0x4 data = 0x85 kind = UVM_WRITE status = UVM_IS_OK
# UVM_INFO /ictc/other/tools/QuestaDVA/questasim/verilog_src/uvm-1.2/src/reg/uvm_reg_predictor.svh(221) @ 184328000: uvm_test_top.env.ahb_predictor [REG_PREDICT] Observed WRITE transaction to register regmodel.DLL: value='h85 : updated value = 'h85
# UVM_INFO ./../regmodel/uart_reg2ahb_adapter.sv(42) @ 184328000: reporter [uart_reg2ahb_adapter] bus2reg: address = 0x8 data = 0xc kind = UVM_WRITE status = UVM_IS_OK
# UVM_INFO /ictc/other/tools/QuestaDVA/questasim/verilog_src/uvm-1.2/src/reg/uvm_reg_predictor.svh(221) @ 184328000: uvm_test_top.env.ahb_predictor [REG_PREDICT] Observed WRITE transaction to register regmodel.DLH: value='hc : updated value = 'hc
# UVM_INFO ./../regmodel/uart_reg2ahb_adapter.sv(42) @ 184328000: reporter [uart_reg2ahb_adapter] bus2reg: address = 0xc data = 0x2c kind = UVM_WRITE status = UVM_IS_OK
# UVM_INFO /ictc/other/tools/QuestaDVA/questasim/verilog_src/uvm-1.2/src/reg/uvm_reg_predictor.svh(221) @ 184328000: uvm_test_top.env.ahb_predictor [REG_PREDICT] Observed WRITE transaction to register regmodel.LCR: value='h2c : updated value = 'h2c
# UVM_INFO ./../regmodel/uart_reg2ahb_adapter.sv(42) @ 184328000: reporter [uart_reg2ahb_adapter] bus2reg: address = 0x10 data = 0x10 kind = UVM_WRITE status = UVM_IS_OK
# UVM_INFO /ictc/other/tools/QuestaDVA/questasim/verilog_src/uvm-1.2/src/reg/uvm_reg_predictor.svh(221) @ 184328000: uvm_test_top.env.ahb_predictor [REG_PREDICT] Observed WRITE transaction to register regmodel.IER: value='h10 : updated value = 'h10
# UVM_INFO ./../regmodel/uart_reg2ahb_adapter.sv(27) @ 191825000: reporter [uart_reg2ahb_adapter] reg2bus: address = 0x14 data = 0x0 kind = READ
# UVM_INFO ./../regmodel/uart_reg2ahb_adapter.sv(42) @ 191825000: reporter [uart_reg2ahb_adapter] bus2reg: address = 0x14 data = 0x12 kind = UVM_READ status = UVM_IS_OK
# UVM_INFO /ictc/other/tools/QuestaDVA/questasim/verilog_src/uvm-1.2/src/reg/uvm_reg_predictor.svh(225) @ 191825000: uvm_test_top.env.ahb_predictor [REG_PREDICT] Observed READ transaction to register regmodel.FSR: value='h12
# UVM_INFO ./../regmodel/uart_reg2ahb_adapter.sv(42) @ 191835000: reporter [uart_reg2ahb_adapter] bus2reg: address = 0x14 data = 0x12 kind = UVM_READ status = UVM_IS_OK
# UVM_INFO @ 191835000: reporter [RegModel] Read  register via map regmodel.ahb_map: regmodel.FSR=12
# UVM_INFO ./../regmodel/uart_reg2ahb_adapter.sv(27) @ 191835000: reporter [uart_reg2ahb_adapter] reg2bus: address = 0x14 data = 0x0 kind = READ
# UVM_INFO ./../regmodel/uart_reg2ahb_adapter.sv(42) @ 191835000: reporter [uart_reg2ahb_adapter] bus2reg: address = 0x14 data = 0x16 kind = UVM_READ status = UVM_IS_OK
# UVM_INFO /ictc/other/tools/QuestaDVA/questasim/verilog_src/uvm-1.2/src/reg/uvm_reg_predictor.svh(225) @ 191835000: uvm_test_top.env.ahb_predictor [REG_PREDICT] Observed READ transaction to register regmodel.FSR: value='h16
# UVM_INFO ./../regmodel/uart_reg2ahb_adapter.sv(42) @ 191845000: reporter [uart_reg2ahb_adapter] bus2reg: address = 0x14 data = 0x16 kind = UVM_READ status = UVM_IS_OK
# UVM_INFO @ 191845000: reporter [RegModel] Read  register via map regmodel.ahb_map: regmodel.FSR=16
# UVM_INFO ./../sequences/ahb_rxd_read_parity_status_sequence.sv(47) @ 191845000: uvm_test_top.env.ahb_agt.sequencer@@ahb_read [ahb_rxd_read_parity_status_sequence] 
# ===== PASSED SUCCESSFULLY!!! =====
# UVM_INFO ./../testcases/uart_rxd_parity_status.sv(40) @ 201845000: uvm_test_top [uart_rxd_parity_status] -------------------------------------------------------------
# Name                Type                Size  Value          
# -------------------------------------------------------------
# cfg                 uart_configuration  -     @360           
#   parity_mode       parity_mode_e       32    UART_PARITY_ODD
#   sampling          sampling_mode_e     32    MODE_X16       
#   data_width        integral            32    'h5            
#   num_of_stop_bit   integral            32    'h2            
#   baud_rate         integral            32    'h12c0         
#   baud_rate_enable  integral            1     'h0            
#   parity_enable     integral            1     'h1            
#   interrupt_enable  integral            1     'h0            
# -------------------------------------------------------------
# 
# UVM_INFO ./../regmodel/uart_reg2ahb_adapter.sv(42) @ 201845000: reporter [uart_reg2ahb_adapter] bus2reg: address = 0x0 data = 0x0 kind = UVM_WRITE status = UVM_IS_OK
# UVM_INFO /ictc/other/tools/QuestaDVA/questasim/verilog_src/uvm-1.2/src/reg/uvm_reg_predictor.svh(221) @ 201845000: uvm_test_top.env.ahb_predictor [REG_PREDICT] Observed WRITE transaction to register regmodel.MDR: value='h0 : updated value = 'h0
# UVM_INFO ./../regmodel/uart_reg2ahb_adapter.sv(42) @ 201845000: reporter [uart_reg2ahb_adapter] bus2reg: address = 0x4 data = 0x16 kind = UVM_WRITE status = UVM_IS_OK
# UVM_INFO /ictc/other/tools/QuestaDVA/questasim/verilog_src/uvm-1.2/src/reg/uvm_reg_predictor.svh(221) @ 201845000: uvm_test_top.env.ahb_predictor [REG_PREDICT] Observed WRITE transaction to register regmodel.DLL: value='h16 : updated value = 'h16
# UVM_INFO ./../regmodel/uart_reg2ahb_adapter.sv(42) @ 201845000: reporter [uart_reg2ahb_adapter] bus2reg: address = 0x8 data = 0x5 kind = UVM_WRITE status = UVM_IS_OK
# UVM_INFO /ictc/other/tools/QuestaDVA/questasim/verilog_src/uvm-1.2/src/reg/uvm_reg_predictor.svh(221) @ 201845000: uvm_test_top.env.ahb_predictor [REG_PREDICT] Observed WRITE transaction to register regmodel.DLH: value='h5 : updated value = 'h5
# UVM_INFO ./../regmodel/uart_reg2ahb_adapter.sv(42) @ 201845000: reporter [uart_reg2ahb_adapter] bus2reg: address = 0xc data = 0x2c kind = UVM_WRITE status = UVM_IS_OK
# UVM_INFO /ictc/other/tools/QuestaDVA/questasim/verilog_src/uvm-1.2/src/reg/uvm_reg_predictor.svh(221) @ 201845000: uvm_test_top.env.ahb_predictor [REG_PREDICT] Observed WRITE transaction to register regmodel.LCR: value='h2c : updated value = 'h2c
# UVM_INFO ./../regmodel/uart_reg2ahb_adapter.sv(42) @ 201846000: reporter [uart_reg2ahb_adapter] bus2reg: address = 0x10 data = 0x10 kind = UVM_WRITE status = UVM_IS_OK
# UVM_INFO /ictc/other/tools/QuestaDVA/questasim/verilog_src/uvm-1.2/src/reg/uvm_reg_predictor.svh(221) @ 201846000: uvm_test_top.env.ahb_predictor [REG_PREDICT] Observed WRITE transaction to register regmodel.IER: value='h10 : updated value = 'h10
# UVM_INFO ./../regmodel/uart_reg2ahb_adapter.sv(27) @ 205599000: reporter [uart_reg2ahb_adapter] reg2bus: address = 0x14 data = 0x0 kind = READ
# UVM_INFO ./../regmodel/uart_reg2ahb_adapter.sv(42) @ 205599000: reporter [uart_reg2ahb_adapter] bus2reg: address = 0x14 data = 0x16 kind = UVM_READ status = UVM_IS_OK
# UVM_INFO /ictc/other/tools/QuestaDVA/questasim/verilog_src/uvm-1.2/src/reg/uvm_reg_predictor.svh(225) @ 205599000: uvm_test_top.env.ahb_predictor [REG_PREDICT] Observed READ transaction to register regmodel.FSR: value='h16
# UVM_INFO ./../regmodel/uart_reg2ahb_adapter.sv(42) @ 205609000: reporter [uart_reg2ahb_adapter] bus2reg: address = 0x14 data = 0x16 kind = UVM_READ status = UVM_IS_OK
# UVM_INFO @ 205609000: reporter [RegModel] Read  register via map regmodel.ahb_map: regmodel.FSR=16
# UVM_INFO ./../regmodel/uart_reg2ahb_adapter.sv(27) @ 205609000: reporter [uart_reg2ahb_adapter] reg2bus: address = 0x14 data = 0x0 kind = READ
# UVM_INFO ./../regmodel/uart_reg2ahb_adapter.sv(42) @ 205609000: reporter [uart_reg2ahb_adapter] bus2reg: address = 0x14 data = 0x16 kind = UVM_READ status = UVM_IS_OK
# UVM_INFO /ictc/other/tools/QuestaDVA/questasim/verilog_src/uvm-1.2/src/reg/uvm_reg_predictor.svh(225) @ 205609000: uvm_test_top.env.ahb_predictor [REG_PREDICT] Observed READ transaction to register regmodel.FSR: value='h16
# UVM_INFO ./../regmodel/uart_reg2ahb_adapter.sv(42) @ 205619000: reporter [uart_reg2ahb_adapter] bus2reg: address = 0x14 data = 0x16 kind = UVM_READ status = UVM_IS_OK
# UVM_INFO @ 205619000: reporter [RegModel] Read  register via map regmodel.ahb_map: regmodel.FSR=16
# UVM_INFO ./../sequences/ahb_rxd_read_parity_status_sequence.sv(47) @ 205619000: uvm_test_top.env.ahb_agt.sequencer@@ahb_read [ahb_rxd_read_parity_status_sequence] 
# ===== PASSED SUCCESSFULLY!!! =====
# UVM_INFO ./../testcases/uart_rxd_parity_status.sv(40) @ 215619000: uvm_test_top [uart_rxd_parity_status] -------------------------------------------------------------
# Name                Type                Size  Value          
# -------------------------------------------------------------
# cfg                 uart_configuration  -     @360           
#   parity_mode       parity_mode_e       32    UART_PARITY_ODD
#   sampling          sampling_mode_e     32    MODE_X13       
#   data_width        integral            32    'h5            
#   num_of_stop_bit   integral            32    'h2            
#   baud_rate         integral            32    'h12c0         
#   baud_rate_enable  integral            1     'h0            
#   parity_enable     integral            1     'h1            
#   interrupt_enable  integral            1     'h0            
# -------------------------------------------------------------
# 
# UVM_INFO ./../regmodel/uart_reg2ahb_adapter.sv(42) @ 215619000: reporter [uart_reg2ahb_adapter] bus2reg: address = 0x0 data = 0x1 kind = UVM_WRITE status = UVM_IS_OK
# UVM_INFO /ictc/other/tools/QuestaDVA/questasim/verilog_src/uvm-1.2/src/reg/uvm_reg_predictor.svh(221) @ 215619000: uvm_test_top.env.ahb_predictor [REG_PREDICT] Observed WRITE transaction to register regmodel.MDR: value='h1 : updated value = 'h1
# UVM_INFO ./../regmodel/uart_reg2ahb_adapter.sv(42) @ 215619000: reporter [uart_reg2ahb_adapter] bus2reg: address = 0x4 data = 0x42 kind = UVM_WRITE status = UVM_IS_OK
# UVM_INFO /ictc/other/tools/QuestaDVA/questasim/verilog_src/uvm-1.2/src/reg/uvm_reg_predictor.svh(221) @ 215619000: uvm_test_top.env.ahb_predictor [REG_PREDICT] Observed WRITE transaction to register regmodel.DLL: value='h42 : updated value = 'h42
# UVM_INFO ./../regmodel/uart_reg2ahb_adapter.sv(42) @ 215619000: reporter [uart_reg2ahb_adapter] bus2reg: address = 0x8 data = 0x6 kind = UVM_WRITE status = UVM_IS_OK
# UVM_INFO /ictc/other/tools/QuestaDVA/questasim/verilog_src/uvm-1.2/src/reg/uvm_reg_predictor.svh(221) @ 215619000: uvm_test_top.env.ahb_predictor [REG_PREDICT] Observed WRITE transaction to register regmodel.DLH: value='h6 : updated value = 'h6
# UVM_INFO ./../regmodel/uart_reg2ahb_adapter.sv(42) @ 215619000: reporter [uart_reg2ahb_adapter] bus2reg: address = 0xc data = 0x2c kind = UVM_WRITE status = UVM_IS_OK
# UVM_INFO /ictc/other/tools/QuestaDVA/questasim/verilog_src/uvm-1.2/src/reg/uvm_reg_predictor.svh(221) @ 215619000: uvm_test_top.env.ahb_predictor [REG_PREDICT] Observed WRITE transaction to register regmodel.LCR: value='h2c : updated value = 'h2c
# UVM_INFO ./../regmodel/uart_reg2ahb_adapter.sv(42) @ 215619000: reporter [uart_reg2ahb_adapter] bus2reg: address = 0x10 data = 0x10 kind = UVM_WRITE status = UVM_IS_OK
# UVM_INFO /ictc/other/tools/QuestaDVA/questasim/verilog_src/uvm-1.2/src/reg/uvm_reg_predictor.svh(221) @ 215619000: uvm_test_top.env.ahb_predictor [REG_PREDICT] Observed WRITE transaction to register regmodel.IER: value='h10 : updated value = 'h10
# UVM_INFO ./../regmodel/uart_reg2ahb_adapter.sv(27) @ 219372000: reporter [uart_reg2ahb_adapter] reg2bus: address = 0x14 data = 0x0 kind = READ
# UVM_INFO ./../regmodel/uart_reg2ahb_adapter.sv(42) @ 219372000: reporter [uart_reg2ahb_adapter] bus2reg: address = 0x14 data = 0x16 kind = UVM_READ status = UVM_IS_OK
# UVM_INFO /ictc/other/tools/QuestaDVA/questasim/verilog_src/uvm-1.2/src/reg/uvm_reg_predictor.svh(225) @ 219372000: uvm_test_top.env.ahb_predictor [REG_PREDICT] Observed READ transaction to register regmodel.FSR: value='h16
# UVM_INFO ./../regmodel/uart_reg2ahb_adapter.sv(42) @ 219382000: reporter [uart_reg2ahb_adapter] bus2reg: address = 0x14 data = 0x16 kind = UVM_READ status = UVM_IS_OK
# UVM_INFO @ 219382000: reporter [RegModel] Read  register via map regmodel.ahb_map: regmodel.FSR=16
# UVM_INFO ./../regmodel/uart_reg2ahb_adapter.sv(27) @ 219382000: reporter [uart_reg2ahb_adapter] reg2bus: address = 0x14 data = 0x0 kind = READ
# UVM_INFO ./../regmodel/uart_reg2ahb_adapter.sv(42) @ 219382000: reporter [uart_reg2ahb_adapter] bus2reg: address = 0x14 data = 0x16 kind = UVM_READ status = UVM_IS_OK
# UVM_INFO /ictc/other/tools/QuestaDVA/questasim/verilog_src/uvm-1.2/src/reg/uvm_reg_predictor.svh(225) @ 219382000: uvm_test_top.env.ahb_predictor [REG_PREDICT] Observed READ transaction to register regmodel.FSR: value='h16
# UVM_INFO ./../regmodel/uart_reg2ahb_adapter.sv(42) @ 219392000: reporter [uart_reg2ahb_adapter] bus2reg: address = 0x14 data = 0x16 kind = UVM_READ status = UVM_IS_OK
# UVM_INFO @ 219392000: reporter [RegModel] Read  register via map regmodel.ahb_map: regmodel.FSR=16
# UVM_INFO ./../sequences/ahb_rxd_read_parity_status_sequence.sv(47) @ 219392000: uvm_test_top.env.ahb_agt.sequencer@@ahb_read [ahb_rxd_read_parity_status_sequence] 
# ===== PASSED SUCCESSFULLY!!! =====
# UVM_INFO ./../testcases/uart_rxd_parity_status.sv(40) @ 229392000: uvm_test_top [uart_rxd_parity_status] -------------------------------------------------------------
# Name                Type                Size  Value          
# -------------------------------------------------------------
# cfg                 uart_configuration  -     @360           
#   parity_mode       parity_mode_e       32    UART_PARITY_ODD
#   sampling          sampling_mode_e     32    MODE_X16       
#   data_width        integral            32    'h5            
#   num_of_stop_bit   integral            32    'h2            
#   baud_rate         integral            32    'h2580         
#   baud_rate_enable  integral            1     'h0            
#   parity_enable     integral            1     'h1            
#   interrupt_enable  integral            1     'h0            
# -------------------------------------------------------------
# 
# UVM_INFO ./../regmodel/uart_reg2ahb_adapter.sv(42) @ 229392000: reporter [uart_reg2ahb_adapter] bus2reg: address = 0x0 data = 0x0 kind = UVM_WRITE status = UVM_IS_OK
# UVM_INFO /ictc/other/tools/QuestaDVA/questasim/verilog_src/uvm-1.2/src/reg/uvm_reg_predictor.svh(221) @ 229392000: uvm_test_top.env.ahb_predictor [REG_PREDICT] Observed WRITE transaction to register regmodel.MDR: value='h0 : updated value = 'h0
# UVM_INFO ./../regmodel/uart_reg2ahb_adapter.sv(42) @ 229392000: reporter [uart_reg2ahb_adapter] bus2reg: address = 0x4 data = 0x8b kind = UVM_WRITE status = UVM_IS_OK
# UVM_INFO /ictc/other/tools/QuestaDVA/questasim/verilog_src/uvm-1.2/src/reg/uvm_reg_predictor.svh(221) @ 229392000: uvm_test_top.env.ahb_predictor [REG_PREDICT] Observed WRITE transaction to register regmodel.DLL: value='h8b : updated value = 'h8b
# UVM_INFO ./../regmodel/uart_reg2ahb_adapter.sv(42) @ 229393000: reporter [uart_reg2ahb_adapter] bus2reg: address = 0x8 data = 0x2 kind = UVM_WRITE status = UVM_IS_OK
# UVM_INFO /ictc/other/tools/QuestaDVA/questasim/verilog_src/uvm-1.2/src/reg/uvm_reg_predictor.svh(221) @ 229393000: uvm_test_top.env.ahb_predictor [REG_PREDICT] Observed WRITE transaction to register regmodel.DLH: value='h2 : updated value = 'h2
# UVM_INFO ./../regmodel/uart_reg2ahb_adapter.sv(42) @ 229393000: reporter [uart_reg2ahb_adapter] bus2reg: address = 0xc data = 0x2c kind = UVM_WRITE status = UVM_IS_OK
# UVM_INFO /ictc/other/tools/QuestaDVA/questasim/verilog_src/uvm-1.2/src/reg/uvm_reg_predictor.svh(221) @ 229393000: uvm_test_top.env.ahb_predictor [REG_PREDICT] Observed WRITE transaction to register regmodel.LCR: value='h2c : updated value = 'h2c
# UVM_INFO ./../regmodel/uart_reg2ahb_adapter.sv(42) @ 229393000: reporter [uart_reg2ahb_adapter] bus2reg: address = 0x10 data = 0x10 kind = UVM_WRITE status = UVM_IS_OK
# UVM_INFO /ictc/other/tools/QuestaDVA/questasim/verilog_src/uvm-1.2/src/reg/uvm_reg_predictor.svh(221) @ 229393000: uvm_test_top.env.ahb_predictor [REG_PREDICT] Observed WRITE transaction to register regmodel.IER: value='h10 : updated value = 'h10
